(1728630397.653370) can0 00D5A0C0#401FC0
(1728630397.653817) can0 00D540A0#435D0000401F0080
(1728630397.654154) can0 00D540A0#0000000100FBFF20
(1728630397.654427) can0 00D540A0#9D0F00002D012900
(1728630397.654710) can0 00D540A0#014A010800000020
(1728630397.655057) can0 00D540A0#FA0097FD00000040
(1728630397.668718) can0 00D5A0C0#401FC0
(1728630397.669179) can0 00D540A0#A46F0000401F0080
(1728630397.669468) can0 00D540A0#0000000300FBFF20
(1728630397.669759) can0 00D540A0#9B0F00002D012900
(1728630397.670112) can0 00D540A0#014A010800000020
(1728630397.670389) can0 00D540A0#FA0098FD00000040
(1728630397.698559) can0 00D5A0C0#401FC0
(1728630397.698939) can0 00D540A0#005D0000401F0080
(1728630397.699226) can0 00D540A0#0000000300FBFF20
(1728630397.699513) can0 00D540A0#9D0F00002D012900
(1728630397.699796) can0 00D540A0#014A010800000020
(1728630397.700357) can0 00D540A0#FA009BFD00000040
(1728630397.719140) can0 00D5A0C0#401FC0
(1728630397.719578) can0 00D540A0#935A0000401F0080
(1728630397.719857) can0 00D540A0#0000000300F9FF20
(1728630397.720138) can0 00D540A0#9D0F00002D012900
(1728630397.720453) can0 00D540A0#014A010800000020
(1728630397.720766) can0 00D540A0#FA009DFD00000040
(1728630397.735936) can0 00D5A0C0#401FC0
(1728630397.736116) can0 00D540A0#53830000401F0080
(1728630397.736662) can0 00D540A0#000000F4FFFBFF20
(1728630397.736699) can0 00D540A0#9B0F00002D012900
(1728630397.737010) can0 00D540A0#014A010800000020
(1728630397.737263) can0 00D540A0#FA009FFD00000040
(1728630397.752996) can0 00D5A0C0#401FC0
(1728630397.753425) can0 00D540A0#EA050000401F0080
(1728630397.753744) can0 00D540A0#0000000000FBFF20
(1728630397.754077) can0 00D540A0#9B0F00002D012900
(1728630397.754336) can0 00D540A0#014A010800000020
(1728630397.754614) can0 00D540A0#FA00A1FD00000040
(1728630397.768740) can0 00D5A0C0#401FC0
(1728630397.769137) can0 00D540A0#B1720000401F0080
(1728630397.769397) can0 00D540A0#000000F4FFFBFF20
(1728630397.769697) can0 00D540A0#9D0F00002D012900
(1728630397.770016) can0 00D540A0#014A010800000020
(1728630397.770263) can0 00D540A0#FA00A2FD00000040
(1728630397.798496) can0 00D5A0C0#401FC0
(1728630397.798786) can0 00D540A0#26880000401F0080
(1728630397.799109) can0 00D540A0#0000000300F9FF20
(1728630397.799383) can0 00D540A0#9B0F00002D012900
(1728630397.799665) can0 00D540A0#014A010800000020
(1728630397.799987) can0 00D540A0#FA00A5FD00000040
(1728630397.818186) can0 00D5A0C0#401FC0
(1728630397.818634) can0 00D540A0#80A60000401F0080
(1728630397.818980) can0 00D540A0#000000F4FFFCFF20
(1728630397.819229) can0 00D540A0#9B0F00002D012900
(1728630397.819523) can0 00D540A0#014A010800000020
(1728630397.819807) can0 00D540A0#FA00A7FD00000040
(1728630397.835611) can0 00D5A0C0#401FC0
(1728630397.835933) can0 00D540A0#D7B60000401F0080
(1728630397.836213) can0 00D540A0#0000001000FCFF20
(1728630397.836499) can0 00D540A0#9D0F00002D012800
(1728630397.836788) can0 00D540A0#014A010800000020
(1728630397.837640) can0 00D540A0#F000A9FD00000040
(1728630397.851647) can0 00D5A0C0#401FC0
(1728630397.852129) can0 00D540A0#329F0000401F0080
(1728630397.852427) can0 00D540A0#0000000000FBFF20
(1728630397.852721) can0 00D540A0#9D0F00002D012900
(1728630397.853045) can0 00D540A0#014A010800000020
(1728630397.853299) can0 00D540A0#FA00ABFD00000040
(1728630397.868602) can0 00D5A0C0#401FC0
(1728630397.868928) can0 00D540A0#86EE0000401F0080
(1728630397.869193) can0 00D540A0#0000000000F9FF20
(1728630397.869502) can0 00D540A0#9B0F00002D012900
(1728630397.869785) can0 00D540A0#014A010800000020
(1728630397.870100) can0 00D540A0#FA00ACFD00000040
(1728630397.898973) can0 00D5A0C0#401FC0
(1728630397.899393) can0 00D540A0#BD8F0000401F0080
(1728630397.899693) can0 00D540A0#000000F4FFFBFF20
(1728630397.900040) can0 00D540A0#9B0F00002D012900
(1728630397.900284) can0 00D540A0#014A010800000020
(1728630397.900565) can0 00D540A0#FA00AFFD00000040
(1728630397.919509) can0 00D5A0C0#401FC0
(1728630397.919768) can0 00D540A0#1C910000401F0080
(1728630397.920113) can0 00D540A0#0000001200FBFF20
(1728630397.920369) can0 00D540A0#9B0F00002D012900
(1728630397.920657) can0 00D540A0#014A010800000020
(1728630397.920979) can0 00D540A0#FA00B1FD00000040
(1728630397.936179) can0 00D5A0C0#401FC0
(1728630397.936766) can0 00D540A0#6D9D0000401F0080
(1728630397.936972) can0 00D540A0#0000000000FCFF20
(1728630397.937227) can0 00D540A0#9B0F00002D012900
(1728630397.937504) can0 00D540A0#014A010800000020
(1728630397.937792) can0 00D540A0#F000B3FD00000040
(1728630397.952671) can0 00D5A0C0#401FC0
(1728630397.952962) can0 00D540A0#6A460000401F0080
(1728630397.953220) can0 00D540A0#0000000300FBFF20
(1728630397.953504) can0 00D540A0#9B0F00002D012900
(1728630397.953816) can0 00D540A0#014A010800000020
(1728630397.954125) can0 00D540A0#FA00B5FD00000040
(1728630397.969025) can0 00D5A0C0#401FC0
(1728630397.969489) can0 00D540A0#2E070000401F0080
(1728630397.969791) can0 00D540A0#0000000400FBFF20
(1728630397.970098) can0 00D540A0#9F0F00002D012900
(1728630397.970406) can0 00D540A0#014A010800000020
(1728630397.970719) can0 00D540A0#FA00B6FD00000040
(1728630398.001481) can0 00D5A0C0#401FC0
(1728630398.001987) can0 00D540A0#FBA80000401F0080
(1728630398.002229) can0 00D540A0#0000000100FBFF20
(1728630398.002522) can0 00D540A0#9B0F00002D012900
(1728630398.002811) can0 00D540A0#014A010800000020
(1728630398.003095) can0 00D540A0#FA00BAFD00000040
(1728630398.018795) can0 00D5A0C0#401FC0
(1728630398.019259) can0 00D540A0#81140000401F0080
(1728630398.019556) can0 00D540A0#000000F4FFF9FF20
(1728630398.019919) can0 00D540A0#9D0F00002D012900
(1728630398.020148) can0 00D540A0#014A010800000020
(1728630398.020425) can0 00D540A0#FA00BBFD00000040
(1728630398.037151) can0 00D5A0C0#401FC0
(1728630398.037594) can0 00D540A0#6F400000401F0080
(1728630398.037935) can0 00D540A0#0000000300FCFF20
(1728630398.038212) can0 00D540A0#9D0F00002D012900
(1728630398.038497) can0 00D540A0#014A010800000020
(1728630398.038787) can0 00D540A0#F000BDFD00000040
(1728630398.052561) can0 00D5A0C0#401FC0
(1728630398.052773) can0 00D540A0#35390000401F0080
(1728630398.053107) can0 00D540A0#000000F5FFFCFF20
(1728630398.053358) can0 00D540A0#9D0F00002D012900
(1728630398.053644) can0 00D540A0#014A010800000020
(1728630398.053965) can0 00D540A0#FA00BFFD00000040
(1728630398.068784) can0 00D5A0C0#401FC0
(1728630398.069297) can0 00D540A0#3DFC0000401F0080
(1728630398.069531) can0 00D540A0#0000000400FCFF20
(1728630398.069892) can0 00D540A0#9F0F00002D012900
(1728630398.070158) can0 00D540A0#014A010800000020
(1728630398.070466) can0 00D540A0#FA00C0FD00000040
(1728630398.098449) can0 00D5A0C0#401FC0
(1728630398.098933) can0 00D540A0#69960000401F0080
(1728630398.099186) can0 00D540A0#0000000300FBFF20
(1728630398.099464) can0 00D540A0#9B0F00002D012900
(1728630398.099778) can0 00D540A0#014A010800000020
(1728630398.100091) can0 00D540A0#FA00C3FD00000040
(1728630398.118679) can0 00D5A0C0#401FC0
(1728630398.118810) can0 00D540A0#9A870000401F0080
(1728630398.119127) can0 00D540A0#0000000300FBFF20
(1728630398.119417) can0 00D540A0#9D0F00002D012900
(1728630398.119698) can0 00D540A0#014A010800000020
(1728630398.120018) can0 00D540A0#FA00C5FD00000040
(1728630398.135128) can0 00D5A0C0#401FC0
(1728630398.135583) can0 00D540A0#0C240000401F0080
(1728630398.135931) can0 00D540A0#0000000400FBFF20
(1728630398.136202) can0 00D540A0#9B0F00002D012900
(1728630398.136492) can0 00D540A0#014A010800000020
(1728630398.136775) can0 00D540A0#F000C7FD00000040
(1728630398.152868) can0 00D5A0C0#401FC0
(1728630398.153014) can0 00D540A0#92870000401F0080
(1728630398.153272) can0 00D540A0#000000F4FFFBFF20
(1728630398.153549) can0 00D540A0#9D0F00002D012900
(1728630398.153911) can0 00D540A0#014A010800000020
(1728630398.154169) can0 00D540A0#FA00C9FD00000040
(1728630398.168559) can0 00D5A0C0#401FC0
(1728630398.169179) can0 00D540A0#6B7F0000401F0080
(1728630398.169458) can0 00D540A0#0000000100F9FF20
(1728630398.169667) can0 00D540A0#9B0F00002D012900
(1728630398.169929) can0 00D540A0#014A010800000020
(1728630398.170212) can0 00D540A0#FA00CAFD00000040
(1728630398.198713) can0 00D5A0C0#401FC0
(1728630398.199247) can0 00D540A0#58BA0000401F0080
(1728630398.199543) can0 00D540A0#0000001F00FBFF20
(1728630398.199908) can0 00D540A0#9B0F00002D012900
(1728630398.200136) can0 00D540A0#014A010800000020
(1728630398.200404) can0 00D540A0#F000CDFD00000040
(1728630398.218516) can0 00D5A0C0#401FC0
(1728630398.219091) can0 00D540A0#37DE0000401F0080
(1728630398.219276) can0 00D540A0#000000FDFFFBFF20
(1728630398.219576) can0 00D540A0#9B0F00002D012900
(1728630398.219884) can0 00D540A0#014A010800000020
(1728630398.220142) can0 00D540A0#FA00CFFD00000040
(1728630398.235865) can0 00D5A0C0#401FC0
(1728630398.236102) can0 00D540A0#E0720000401F0080
(1728630398.236725) can0 00D540A0#0000000100FBFF20
(1728630398.236732) can0 00D540A0#9D0F00002D012900
(1728630398.237038) can0 00D540A0#014A010800000020
(1728630398.237285) can0 00D540A0#F000D1FD00000040
(1728630398.251758) can0 00D5A0C0#401FC0
(1728630398.252250) can0 00D540A0#2DFA0000401F0080
(1728630398.252517) can0 00D540A0#000000F3FFFCFF20
(1728630398.252878) can0 00D540A0#9B0F00002D012900
(1728630398.253120) can0 00D540A0#014A010800000020
(1728630398.253397) can0 00D540A0#FA00D3FD00000040
(1728630398.269390) can0 00D5A0C0#401FC0
(1728630398.269402) can0 00D540A0#8F7E0000401F0080
(1728630398.269907) can0 00D540A0#0000000100FBFF20
(1728630398.270045) can0 00D540A0#9B0F00002D012900
(1728630398.270283) can0 00D540A0#014A010800000020
(1728630398.270597) can0 00D540A0#FA00D4FD00000040
(1728630398.298727) can0 00D5A0C0#401FC0
(1728630398.299059) can0 00D540A0#D1FA0000401F0080
(1728630398.299326) can0 00D540A0#0000000000FBFF20
(1728630398.299598) can0 00D540A0#9D0F00002D012900
(1728630398.299945) can0 00D540A0#014A010800000020
(1728630398.300221) can0 00D540A0#F000D7FD00000040
(1728630398.318448) can0 00D5A0C0#401FC0
(1728630398.318961) can0 00D540A0#B01C0000401F0080
(1728630398.319202) can0 00D540A0#0000000400FBFF20
(1728630398.319497) can0 00D540A0#9B0F00002D012900
(1728630398.319785) can0 00D540A0#014A010800000020
(1728630398.320071) can0 00D540A0#FA00D9FD00000040
(1728630398.335464) can0 00D5A0C0#401FC0
(1728630398.335758) can0 00D540A0#26BF0000401F0080
(1728630398.336082) can0 00D540A0#0000000300FBFF20
(1728630398.336335) can0 00D540A0#9D0F00002D012900
(1728630398.336626) can0 00D540A0#014A010800000020
(1728630398.336936) can0 00D540A0#F000DBFD00000040
(1728630398.352340) can0 00D5A0C0#401FC0
(1728630398.352688) can0 00D540A0#1FAA0000401F0080
(1728630398.353039) can0 00D540A0#0000000000F9FF20
(1728630398.353321) can0 00D540A0#9B0F00002D012900
(1728630398.353598) can0 00D540A0#014A010800000020
(1728630398.353923) can0 00D540A0#F000DDFD00000040
(1728630398.368643) can0 00D5A0C0#401FC0
(1728630398.368964) can0 00D540A0#028C0000401F0080
(1728630398.369222) can0 00D540A0#0000000400FCFF20
(1728630398.369518) can0 00D540A0#9D0F00002D012900
(1728630398.369808) can0 00D540A0#014A010800000020
(1728630398.370586) can0 00D540A0#FA00DEFD00000040
(1728630398.398807) can0 00D5A0C0#401FC0
(1728630398.399098) can0 00D540A0#457E0000401F0080
(1728630398.399415) can0 00D540A0#000000F4FFFBFF20
(1728630398.399714) can0 00D540A0#9D0F00002D012900
(1728630398.400024) can0 00D540A0#014A010800000020
(1728630398.400290) can0 00D540A0#F000E1FD00000040
(1728630398.419440) can0 00D5A0C0#401FC0
(1728630398.419942) can0 00D540A0#7C0E0000401F0080
(1728630398.420221) can0 00D540A0#000000FCFFF9FF20
(1728630398.420509) can0 00D540A0#9D0F00002D012900
(1728630398.420798) can0 00D540A0#014A010800000020
(1728630398.421094) can0 00D540A0#FA00E3FD00000040
(1728630398.436271) can0 00D5A0C0#401FC0
(1728630398.436735) can0 00D540A0#43F70000401F0080
(1728630398.437040) can0 00D540A0#000000F4FFFBFF20
(1728630398.437307) can0 00D540A0#9D0F00002D012900
(1728630398.437584) can0 00D540A0#014A010800000020
(1728630398.437908) can0 00D540A0#F000E5FD00000040
(1728630398.452544) can0 00D5A0C0#401FC0
(1728630398.452892) can0 00D540A0#F89C0000401F0080
(1728630398.453157) can0 00D540A0#000000F4FFFBFF20
(1728630398.453452) can0 00D540A0#9B0F00002D012900
(1728630398.453736) can0 00D540A0#014A010800000020
(1728630398.454616) can0 00D540A0#FA00E7FD00000040
(1728630398.468768) can0 00D5A0C0#401FC0
(1728630398.469345) can0 00D540A0#01F90000401F0080
(1728630398.469628) can0 00D540A0#000000F4FFFBFF20
(1728630398.469957) can0 00D540A0#9B0F00002D012900
(1728630398.470216) can0 00D540A0#014A010800000020
(1728630398.470631) can0 00D540A0#FA00E8FD00000040
(1728630398.498635) can0 00D5A0C0#401FC0
(1728630398.499091) can0 00D540A0#C8B30000401F0080
(1728630398.499374) can0 00D540A0#0000000300FBFF20
(1728630398.499645) can0 00D540A0#9D0F00002D012900
(1728630398.499994) can0 00D540A0#014A010800000020
(1728630398.500272) can0 00D540A0#F000EBFD00000040
(1728630398.518706) can0 00D5A0C0#401FC0
(1728630398.518888) can0 00D540A0#B8EA0000401F0080
(1728630398.519140) can0 00D540A0#0000000300FBFF20
(1728630398.519442) can0 00D540A0#990F00002D012900
(1728630398.519732) can0 00D540A0#014A010800000020
(1728630398.520339) can0 00D540A0#FA00EDFD00000040
(1728630398.535534) can0 00D5A0C0#401FC0
(1728630398.536020) can0 00D540A0#17070000401F0080
(1728630398.536310) can0 00D540A0#000000F5FFFBFF20
(1728630398.536611) can0 00D540A0#9D0F00002D012900
(1728630398.536923) can0 00D540A0#014A010800000020
(1728630398.537188) can0 00D540A0#FA00EFFD00000040
(1728630398.552093) can0 00D5A0C0#401FC0
(1728630398.552358) can0 00D540A0#96E30000401F0080
(1728630398.552658) can0 00D540A0#0000000000FBFF20
(1728630398.552979) can0 00D540A0#9B0F00002D012900
(1728630398.553233) can0 00D540A0#014A010800000020
(1728630398.553521) can0 00D540A0#F000F1FD00000040
(1728630398.569662) can0 00D5A0C0#401FC0
(1728630398.570132) can0 00D540A0#7AA00000401F0080
(1728630398.570430) can0 00D540A0#0000001100FBFF20
(1728630398.570724) can0 00D540A0#9B0F00002D012900
(1728630398.571187) can0 00D540A0#014A010800000020
(1728630398.571392) can0 00D540A0#FA00F2FD00000040
(1728630398.598538) can0 00D5A0C0#401FC0
(1728630398.599034) can0 00D540A0#42D80000401F0080
(1728630398.599304) can0 00D540A0#0000000100FCFF20
(1728630398.599607) can0 00D540A0#9D0F00002D012900
(1728630398.599933) can0 00D540A0#014A010800000020
(1728630398.600174) can0 00D540A0#F000F5FD00000040
(1728630398.618986) can0 00D5A0C0#401FC0
(1728630398.619344) can0 00D540A0#81130000401F0080
(1728630398.619633) can0 00D540A0#0000000300FBFF20
(1728630398.619974) can0 00D540A0#9B0F00002D012900
(1728630398.620226) can0 00D540A0#014A010800000020
(1728630398.620515) can0 00D540A0#FA00F7FD00000040
(1728630398.636238) can0 00D5A0C0#401FC0
(1728630398.636709) can0 00D540A0#672F0000401F0080
(1728630398.637038) can0 00D540A0#0000000300FBFF20
(1728630398.637312) can0 00D540A0#9B0F00002D012900
(1728630398.637599) can0 00D540A0#014A010800000020
(1728630398.637917) can0 00D540A0#F000F9FD00000040
(1728630398.651888) can0 00D5A0C0#401FC0
(1728630398.652124) can0 00D540A0#73A50000401F0080
(1728630398.652411) can0 00D540A0#000000F5FFFBFF20
(1728630398.652695) can0 00D540A0#9B0F00002D012900
(1728630398.653038) can0 00D540A0#014A010800000020
(1728630398.653315) can0 00D540A0#F000FBFD00000040
(1728630398.668345) can0 00D5A0C0#401FC0
(1728630398.668854) can0 00D540A0#8FC60000401F0080
(1728630398.669121) can0 00D540A0#000000F5FFFCFF20
(1728630398.669410) can0 00D540A0#9D0F00002D012900
(1728630398.669699) can0 00D540A0#014A010800000020
(1728630398.670018) can0 00D540A0#FA00FCFD00000040
(1728630398.698243) can0 00D5A0C0#401FC0
(1728630398.698961) can0 00D540A0#943E0000401F0080
(1728630398.699023) can0 00D540A0#0000000300FBFF20
(1728630398.699311) can0 00D540A0#9D0F00002D012900
(1728630398.699596) can0 00D540A0#014A010800000020
(1728630398.699907) can0 00D540A0#F000FFFD00000040
(1728630398.719410) can0 00D5A0C0#401FC0
(1728630398.719897) can0 00D540A0#F3240000401F0080
(1728630398.720174) can0 00D540A0#000000FFFFF9FF20
(1728630398.720466) can0 00D540A0#9D0F00002D012900
(1728630398.720755) can0 00D540A0#014A010800000020
(1728630398.721051) can0 00D540A0#FA0001FE00000040
(1728630398.735337) can0 00D5A0C0#401FC0
(1728630398.735619) can0 00D540A0#2EB50000401F0080
(1728630398.735972) can0 00D540A0#000000F4FFFBFF20
(1728630398.736244) can0 00D540A0#9B0F00002D012900
(1728630398.736525) can0 00D540A0#014A010800000020
(1728630398.736874) can0 00D540A0#FA0003FE00000040
(1728630398.752071) can0 00D5A0C0#401FC0
(1728630398.752537) can0 00D540A0#37390000401F0080
(1728630398.752885) can0 00D540A0#000000F5FFFCFF20
(1728630398.753159) can0 00D540A0#9D0F00002D012900
(1728630398.753440) can0 00D540A0#014A010800000020
(1728630398.753724) can0 00D540A0#F00005FE00000040
(1728630398.768626) can0 00D5A0C0#401FC0
(1728630398.769030) can0 00D540A0#34480000401F0080
(1728630398.769308) can0 00D540A0#000000F3FFF9FF20
(1728630398.769610) can0 00D540A0#9D0F00002D012900
(1728630398.769938) can0 00D540A0#014A010800000020
(1728630398.770186) can0 00D540A0#FA0006FE00000040
(1728630398.798620) can0 00D5A0C0#401FC0
(1728630398.798925) can0 00D540A0#37C70000401F0080
(1728630398.799185) can0 00D540A0#0000001100FBFF20
(1728630398.799486) can0 00D540A0#9D0F00002D012900
(1728630398.799769) can0 00D540A0#014A010800000020
(1728630398.800066) can0 00D540A0#F00009FE00000040
(1728630398.819241) can0 00D5A0C0#401FC0
(1728630398.819343) can0 00D540A0#70980000401F0080
(1728630398.819631) can0 00D540A0#0000000100FBFF20
(1728630398.819972) can0 00D540A0#9D0F00002D012900
(1728630398.820220) can0 00D540A0#014A010800000020
(1728630398.820531) can0 00D540A0#F0000BFE00000040
(1728630398.836723) can0 00D5A0C0#401FC0
(1728630398.837022) can0 00D540A0#CD7A0000401F0080
(1728630398.837321) can0 00D540A0#0000000100FBFF20
(1728630398.837615) can0 00D540A0#9B0F00002D012900
(1728630398.837936) can0 00D540A0#014A010800000020
(1728630398.838181) can0 00D540A0#FA000DFE00000040
(1728630398.852327) can0 00D5A0C0#401FC0
(1728630398.852678) can0 00D540A0#6EC40000401F0080
(1728630398.853008) can0 00D540A0#0000001200FBFF20
(1728630398.853266) can0 00D540A0#9D0F00002D012900
(1728630398.853557) can0 00D540A0#014A010800000020
(1728630398.853903) can0 00D540A0#F0000FFE00000040
(1728630398.870339) can0 00D5A0C0#401FC0
(1728630398.870613) can0 00D540A0#81290000401F0080
(1728630398.871446) can0 00D540A0#000000F4FFFBFF20
(1728630398.871457) can0 00D540A0#9D0F00002D012900
(1728630398.871508) can0 00D540A0#014A010800000020
(1728630398.872349) can0 00D540A0#FA0011FE00000040
(1728630398.898731) can0 00D5A0C0#401FC0
(1728630398.899012) can0 00D540A0#93210000401F0080
(1728630398.899277) can0 00D540A0#0000001300FBFF20
(1728630398.899553) can0 00D540A0#9B0F00002D012900
(1728630398.899915) can0 00D540A0#014A010800000020
(1728630398.900174) can0 00D540A0#FA0013FE00000040
(1728630398.918753) can0 00D5A0C0#401FC0
(1728630398.919064) can0 00D540A0#82530000401F0080
(1728630398.919362) can0 00D540A0#0000000100FBFF20
(1728630398.919667) can0 00D540A0#9D0F00002D012900
(1728630398.919978) can0 00D540A0#014A010800000020
(1728630398.920245) can0 00D540A0#F00015FE00000040
(1728630398.937117) can0 00D5A0C0#401FC0
(1728630398.937578) can0 00D540A0#37440000401F0080
(1728630398.937894) can0 00D540A0#0000000300FCFF20
(1728630398.938172) can0 00D540A0#9D0F00002D012900
(1728630398.938447) can0 00D540A0#014A010800000020
(1728630398.938741) can0 00D540A0#FA0017FE00000040
(1728630398.952557) can0 00D5A0C0#401FC0
(1728630398.953055) can0 00D540A0#653D0000401F0080
(1728630398.953334) can0 00D540A0#0000000200FCFF20
(1728630398.953611) can0 00D540A0#9D0F00002D012900
(1728630398.953962) can0 00D540A0#014A010800000020
(1728630398.954236) can0 00D540A0#F00019FE00000040
(1728630398.968676) can0 00D5A0C0#401FC0
(1728630398.969012) can0 00D540A0#13BD0000401F0080
(1728630398.969295) can0 00D540A0#0000000300FBFF20
(1728630398.969598) can0 00D540A0#9D0F00002D012900
(1728630398.969920) can0 00D540A0#014A010800000020
(1728630398.970173) can0 00D540A0#F0001AFE00000040
(1728630398.998879) can0 00D5A0C0#401FC0
(1728630398.999170) can0 00D540A0#99020000401F0080
(1728630398.999482) can0 00D540A0#0000000300FCFF20
(1728630398.999860) can0 00D540A0#9D0F00002D012900
(1728630399.000094) can0 00D540A0#014A010800000020
(1728630399.000353) can0 00D540A0#FA001DFE00000040
(1728630399.018713) can0 00D5A0C0#401FC0
(1728630399.019168) can0 00D540A0#F8460000401F0080
(1728630399.019483) can0 00D540A0#0000000000F9FF20
(1728630399.020163) can0 00D540A0#9B0F00002D012900
(1728630399.020172) can0 00D540A0#014A010800000020
(1728630399.020365) can0 00D540A0#F0001FFE00000040
(1728630399.035619) can0 00D5A0C0#401FC0
(1728630399.036086) can0 00D540A0#A3FF0000401F0080
(1728630399.036400) can0 00D540A0#0000000500FBFF20
(1728630399.036694) can0 00D540A0#9B0F00002D012900
(1728630399.037012) can0 00D540A0#014A010800000020
(1728630399.037277) can0 00D540A0#FA0021FE00000040
(1728630399.054558) can0 00D5A0C0#401FC0
(1728630399.054566) can0 00D540A0#A2920000401F0080
(1728630399.054763) can0 00D540A0#000000F4FFFBFF20
(1728630399.055065) can0 00D540A0#9D0F00002D012900
(1728630399.055352) can0 00D540A0#014A010800000020
(1728630399.055657) can0 00D540A0#F00023FE00000040
(1728630399.069109) can0 00D5A0C0#401FC0
(1728630399.069577) can0 00D540A0#35680000401F0080
(1728630399.069921) can0 00D540A0#0000000300F9FF20
(1728630399.070194) can0 00D540A0#9B0F00002D012900
(1728630399.070482) can0 00D540A0#014A010800000020
(1728630399.070844) can0 00D540A0#F00024FE00000040
(1728630399.098553) can0 00D5A0C0#401FC0
(1728630399.099010) can0 00D540A0#EAE80000401F0080
(1728630399.099269) can0 00D540A0#000000F4FFFBFF20
(1728630399.099564) can0 00D540A0#9D0F00002D012900
(1728630399.099882) can0 00D540A0#014A010800000020
(1728630399.100146) can0 00D540A0#FA0027FE00000040
(1728630399.120539) can0 00D5A0C0#401FC0
(1728630399.120854) can0 00D540A0#07070000401F0080
(1728630399.121101) can0 00D540A0#0000000200FBFF20
(1728630399.121401) can0 00D540A0#9D0F00002D012900
(1728630399.121683) can0 00D540A0#014A010800000020
(1728630399.122306) can0 00D540A0#FA002AFE00000040
(1728630399.135396) can0 00D5A0C0#401FC0
(1728630399.135876) can0 00D540A0#94340000401F0080
(1728630399.136135) can0 00D540A0#0000000300FBFF20
(1728630399.136435) can0 00D540A0#9B0F00002D012900
(1728630399.136719) can0 00D540A0#014A010800000020
(1728630399.137047) can0 00D540A0#FA002BFE00000040
(1728630399.152038) can0 00D5A0C0#401FC0
(1728630399.152294) can0 00D540A0#E62C0000401F0080
(1728630399.152570) can0 00D540A0#000000FEFFFCFF20
(1728630399.152936) can0 00D540A0#9B0F00002D012900
(1728630399.153166) can0 00D540A0#014A010800000020
(1728630399.153454) can0 00D540A0#F0002DFE00000040
(1728630399.168851) can0 00D5A0C0#401FC0
(1728630399.169131) can0 00D540A0#E56F0000401F0080
(1728630399.169926) can0 00D540A0#0000000100FBFF20
(1728630399.169934) can0 00D540A0#9B0F00002D012900
(1728630399.170062) can0 00D540A0#014A010800000020
(1728630399.170358) can0 00D540A0#F0002EFE00000040
(1728630399.198358) can0 00D5A0C0#401FC0
(1728630399.198849) can0 00D540A0#BDE60000401F0080
(1728630399.199155) can0 00D540A0#0000000300FCFF20
(1728630399.199449) can0 00D540A0#990F00002D012900
(1728630399.199719) can0 00D540A0#014A010800000020
(1728630399.200046) can0 00D540A0#FA0031FE00000040
(1728630399.218522) can0 00D5A0C0#401FC0
(1728630399.218828) can0 00D540A0#8E4A0000401F0080
(1728630399.219075) can0 00D540A0#000000F4FFFBFF20
(1728630399.219376) can0 00D540A0#9B0F00002D012900
(1728630399.219671) can0 00D540A0#014A010800000020
(1728630399.219987) can0 00D540A0#F00033FE00000040
(1728630399.235194) can0 00D5A0C0#401FC0
(1728630399.236089) can0 00D540A0#70560000401F0080
(1728630399.236097) can0 00D540A0#0000001200FCFF20
(1728630399.236237) can0 00D540A0#9D0F00002D012900
(1728630399.236805) can0 00D540A0#014A010800000020
(1728630399.236937) can0 00D540A0#FA0035FE00000040
(1728630399.251895) can0 00D5A0C0#401FC0
(1728630399.252314) can0 00D540A0#4A5A0000401F0080
(1728630399.252620) can0 00D540A0#000000F5FFFBFF20
(1728630399.252961) can0 00D540A0#9D0F00002D012900
(1728630399.253213) can0 00D540A0#014A010800000020
(1728630399.253509) can0 00D540A0#F00037FE00000040
(1728630399.268920) can0 00D5A0C0#401FC0
(1728630399.268974) can0 00D540A0#90B40000401F0080
(1728630399.269236) can0 00D540A0#0000000200FBFF20
(1728630399.269536) can0 00D540A0#9D0F00002D012900
(1728630399.269831) can0 00D540A0#014A010800000020
(1728630399.270147) can0 00D540A0#F00038FE00000040
(1728630399.298849) can0 00D5A0C0#401FC0
(1728630399.299040) can0 00D540A0#CD2F0000401F0080
(1728630399.299579) can0 00D540A0#000000FDFFFBFF20
(1728630399.299616) can0 00D540A0#9D0F00002D012900
(1728630399.299940) can0 00D540A0#014A010800000020
(1728630399.300193) can0 00D540A0#FA003BFE00000040
(1728630399.319257) can0 00D5A0C0#401FC0
(1728630399.319695) can0 00D540A0#63F90000401F0080
(1728630399.320011) can0 00D540A0#0000000300FCFF20
(1728630399.320300) can0 00D540A0#9D0F00002D012900
(1728630399.320586) can0 00D540A0#014A010800000020
(1728630399.320914) can0 00D540A0#F0003DFE00000040
(1728630399.336057) can0 00D5A0C0#401FC0
(1728630399.336190) can0 00D540A0#DD6C0000401F0080
(1728630399.336505) can0 00D540A0#000000FDFFF9FF20
(1728630399.336851) can0 00D540A0#9D0F00002D012900
(1728630399.337093) can0 00D540A0#014A010800000020
(1728630399.337398) can0 00D540A0#FA003FFE00000040
(1728630399.352609) can0 00D5A0C0#401FC0
(1728630399.353102) can0 00D540A0#83BC0000401F0080
(1728630399.353365) can0 00D540A0#0000000F00FBFF20
(1728630399.353671) can0 00D540A0#9D0F00002D012900
(1728630399.353999) can0 00D540A0#014A010800000020
(1728630399.354250) can0 00D540A0#FA0041FE00000040
(1728630399.368964) can0 00D5A0C0#401FC0
(1728630399.369097) can0 00D540A0#20030000401F0080
(1728630399.369408) can0 00D540A0#000000F5FFFBFF20
(1728630399.369672) can0 00D540A0#990F00002D012900
(1728630399.370029) can0 00D540A0#014A010800000020
(1728630399.370251) can0 00D540A0#F00042FE00000040
(1728630399.398386) can0 00D5A0C0#401FC0
(1728630399.398656) can0 00D540A0#C3690000401F0080
(1728630399.399001) can0 00D540A0#000000F4FFFBFF20
(1728630399.399246) can0 00D540A0#9B0F00002D012900
(1728630399.399529) can0 00D540A0#014A010800000020
(1728630399.399824) can0 00D540A0#FA0045FE00000040
(1728630399.419094) can0 00D5A0C0#401FC0
(1728630399.419548) can0 00D540A0#78020000401F0080
(1728630399.419895) can0 00D540A0#000000F4FFFBFF20
(1728630399.420167) can0 00D540A0#9D0F00002D012900
(1728630399.420457) can0 00D540A0#014A010800000020
(1728630399.420810) can0 00D540A0#F00047FE00000040
(1728630399.435531) can0 00D5A0C0#401FC0
(1728630399.435900) can0 00D540A0#B6370000401F0080
(1728630399.436149) can0 00D540A0#000000FFFFF9FF20
(1728630399.436431) can0 00D540A0#9D0F00002D012900
(1728630399.436819) can0 00D540A0#014A010800000020
(1728630399.437061) can0 00D540A0#FA0049FE00000040
(1728630399.451633) can0 00D5A0C0#401FC0
(1728630399.452453) can0 00D540A0#CFC80000401F0080
(1728630399.452461) can0 00D540A0#000000F5FFFCFF20
(1728630399.452675) can0 00D540A0#9B0F00002D012900
(1728630399.453017) can0 00D540A0#014A010800000020
(1728630399.453251) can0 00D540A0#FA004BFE00000040
(1728630399.469194) can0 00D5A0C0#401FC0
(1728630399.469274) can0 00D540A0#53BD0000401F0080
(1728630399.469560) can0 00D540A0#000000F5FFF9FF20
(1728630399.469890) can0 00D540A0#9B0F00002D012900
(1728630399.470144) can0 00D540A0#014A010800000020
(1728630399.470426) can0 00D540A0#F0004CFE00000040
(1728630399.498711) can0 00D5A0C0#401FC0
(1728630399.499009) can0 00D540A0#E4B60000401F0080
(1728630399.499248) can0 00D540A0#0000000000FBFF20
(1728630399.499817) can0 00D540A0#9D0F00002D012900
(1728630399.499853) can0 00D540A0#014A010800000020
(1728630399.500128) can0 00D540A0#FA004FFE00000040
(1728630399.519202) can0 00D5A0C0#401FC0
(1728630399.519443) can0 00D540A0#FCE00000401F0080
(1728630399.520123) can0 00D540A0#0000000100FCFF20
(1728630399.520134) can0 00D540A0#9D0F00002D012900
(1728630399.520342) can0 00D540A0#014A010800000020
(1728630399.520612) can0 00D540A0#F00051FE00000040
(1728630399.536724) can0 00D5A0C0#401FC0
(1728630399.537257) can0 00D540A0#31570000401F0080
(1728630399.537549) can0 00D540A0#0000000100FCFF20
(1728630399.537877) can0 00D540A0#9D0F00002D012900
(1728630399.538135) can0 00D540A0#014A010800000020
(1728630399.538416) can0 00D540A0#FA0053FE00000040
(1728630399.552754) can0 00D5A0C0#401FC0
(1728630399.553048) can0 00D540A0#0DBC0000401F0080
(1728630399.553351) can0 00D540A0#000000FCFFFBFF20
(1728630399.553615) can0 00D540A0#9D0F00002D012900
(1728630399.553982) can0 00D540A0#014A010800000020
(1728630399.554234) can0 00D540A0#FA0055FE00000040
(1728630399.568587) can0 00D5A0C0#401FC0
(1728630399.569040) can0 00D540A0#D1230000401F0080
(1728630399.569346) can0 00D540A0#000000F5FFF9FF20
(1728630399.569653) can0 00D540A0#9D0F00002D012900
(1728630399.569971) can0 00D540A0#014A010800000020
(1728630399.570237) can0 00D540A0#F00056FE00000040
(1728630399.598334) can0 00D5A0C0#401FC0
(1728630399.598806) can0 00D540A0#E4AE0000401F0080
(1728630399.599107) can0 00D540A0#000000FDFFFBFF20
(1728630399.599412) can0 00D540A0#9B0F00002D012900
(1728630399.599698) can0 00D540A0#014A010800000020
(1728630399.599997) can0 00D540A0#FA0059FE00000040
(1728630399.618588) can0 00D5A0C0#401FC0
(1728630399.618687) can0 00D540A0#4FD10000401F0080
(1728630399.619009) can0 00D540A0#0000000F00FBFF20
(1728630399.619292) can0 00D540A0#9B0F00002D012900
(1728630399.619588) can0 00D540A0#014A010800000020
(1728630399.620160) can0 00D540A0#F0005BFE00000040
(1728630399.635154) can0 00D5A0C0#401FC0
(1728630399.635596) can0 00D540A0#89B30000401F0080
(1728630399.635950) can0 00D540A0#0000000100FBFF20
(1728630399.636213) can0 00D540A0#9D0F00002D012900
(1728630399.636493) can0 00D540A0#014A010800000020
(1728630399.636799) can0 00D540A0#FA005DFE00000040
(1728630399.651939) can0 00D5A0C0#401FC0
(1728630399.652288) can0 00D540A0#1F2F0000401F0080
(1728630399.652592) can0 00D540A0#000000F4FFFCFF20
(1728630399.652885) can0 00D540A0#9D0F00002D012900
(1728630399.653192) can0 00D540A0#014A010800000020
(1728630399.653489) can0 00D540A0#F0005FFE00000040
(1728630399.668315) can0 00D5A0C0#401FC0
(1728630399.668795) can0 00D540A0#6EB10000401F0080
(1728630399.669058) can0 00D540A0#000000F4FFFBFF20
(1728630399.669338) can0 00D540A0#9B0F00002D012900
(1728630399.669621) can0 00D540A0#014A010800000020
(1728630399.669948) can0 00D540A0#F00060FE00000040
(1728630399.698447) can0 00D5A0C0#401FC0
(1728630399.698961) can0 00D540A0#A7FB0000401F0080
(1728630399.699216) can0 00D540A0#0000000300FBFF20
(1728630399.699525) can0 00D540A0#9D0F00002D012900
(1728630399.699853) can0 00D540A0#014A010800000020
(1728630399.700096) can0 00D540A0#FA0063FE00000040
(1728630399.719369) can0 00D5A0C0#401FC0
(1728630399.719645) can0 00D540A0#044E0000401F0080
(1728630399.719948) can0 00D540A0#0000000100FBFF20
(1728630399.720218) can0 00D540A0#9D0F00002D012900
(1728630399.720495) can0 00D540A0#014A010800000020
(1728630399.720826) can0 00D540A0#F00065FE00000040
(1728630399.736342) can0 00D5A0C0#401FC0
(1728630399.736846) can0 00D540A0#6FD60000401F0080
(1728630399.737089) can0 00D540A0#000000FDFFFBFF20
(1728630399.737397) can0 00D540A0#990F00002D012900
(1728630399.737679) can0 00D540A0#014A010800000020
(1728630399.737987) can0 00D540A0#FA0067FE00000040
(1728630399.752357) can0 00D5A0C0#401FC0
(1728630399.752645) can0 00D540A0#474E0000401F0080
(1728630399.752945) can0 00D540A0#0000000300FBFF20
(1728630399.753208) can0 00D540A0#9D0F00002D012900
(1728630399.753497) can0 00D540A0#014A010800000020
(1728630399.753796) can0 00D540A0#F00069FE00000040
(1728630399.768719) can0 00D5A0C0#401FC0
(1728630399.769000) can0 00D540A0#026E0000401F0080
(1728630399.769249) can0 00D540A0#000000F5FFFBFF20
(1728630399.769530) can0 00D540A0#9D0F00002D012900
(1728630399.769898) can0 00D540A0#014A010800000020
(1728630399.770172) can0 00D540A0#F0006AFE00000040
(1728630399.798339) can0 00D5A0C0#401FC0
(1728630399.798860) can0 00D540A0#AB5A0000401F0080
(1728630399.799120) can0 00D540A0#0000000200FCFF20
(1728630399.799397) can0 00D540A0#9D0F00002D012900
(1728630399.799788) can0 00D540A0#014A010800000020
(1728630399.800024) can0 00D540A0#FA006DFE00000040
(1728630399.818462) can0 00D5A0C0#401FC0
(1728630399.819068) can0 00D540A0#CCFF0000401F0080
(1728630399.819211) can0 00D540A0#0000000100FCFF20
(1728630399.819537) can0 00D540A0#9B0F00002D012900
(1728630399.819847) can0 00D540A0#014A010800000020
(1728630399.820089) can0 00D540A0#F0006FFE00000040
(1728630399.835869) can0 00D5A0C0#401FC0
(1728630399.835986) can0 00D540A0#B17E0000401F0080
(1728630399.836284) can0 00D540A0#0000000C00FBFF20
(1728630399.836597) can0 00D540A0#9D0F00002D012900
(1728630399.836901) can0 00D540A0#014A010800000020
(1728630399.837150) can0 00D540A0#FA0071FE00000040
(1728630399.852009) can0 00D5A0C0#401FC0
(1728630399.852490) can0 00D540A0#79080000401F0080
(1728630399.852807) can0 00D540A0#0000000000F9FF20
(1728630399.853083) can0 00D540A0#9D0F00002D012900
(1728630399.853370) can0 00D540A0#014A010800000020
(1728630399.853651) can0 00D540A0#F00073FE00000040
(1728630399.869056) can0 00D5A0C0#401FC0
(1728630399.869269) can0 00D540A0#676B0000401F0080
(1728630399.869522) can0 00D540A0#0000000300FBFF20
(1728630399.870406) can0 00D540A0#9D0F00002D012900
(1728630399.870414) can0 00D540A0#014A010800000020
(1728630399.870419) can0 00D540A0#F00074FE00000040
(1728630399.898405) can0 00D5A0C0#401FC0
(1728630399.898646) can0 00D540A0#D8FD0000401F0080
(1728630399.899008) can0 00D540A0#000000F4FFFBFF20
(1728630399.899262) can0 00D540A0#9D0F00002D012900
(1728630399.899545) can0 00D540A0#014A010800000020
(1728630399.899894) can0 00D540A0#FA0077FE00000040
(1728630399.919315) can0 00D5A0C0#401FC0
(1728630399.919803) can0 00D540A0#481D0000401F0080
(1728630399.920105) can0 00D540A0#000000F4FFFBFF20
(1728630399.920400) can0 00D540A0#9B0F00002D012900
(1728630399.920696) can0 00D540A0#014A010800000020
(1728630399.921008) can0 00D540A0#F00079FE00000040
(1728630399.936569) can0 00D5A0C0#401FC0
(1728630399.936795) can0 00D540A0#0C330000401F0080
(1728630399.937086) can0 00D540A0#0000000000FBFF20
(1728630399.937400) can0 00D540A0#9D0F00002D012900
(1728630399.937675) can0 00D540A0#014A010800000020
(1728630399.937984) can0 00D540A0#FA007BFE00000040
(1728630399.952044) can0 00D5A0C0#401FC0
(1728630399.952474) can0 00D540A0#B1D10000401F0080
(1728630399.952780) can0 00D540A0#0000000000FBFF20
(1728630399.953070) can0 00D540A0#9B0F00002D012900
(1728630399.953354) can0 00D540A0#014A010800000020
(1728630399.953643) can0 00D540A0#F0007DFE00000040
(1728630399.968681) can0 00D5A0C0#401FC0
(1728630399.968949) can0 00D540A0#BFF10000401F0080
(1728630399.969212) can0 00D540A0#0000000300FBFF20
(1728630399.969509) can0 00D540A0#9B0F00002D012900
(1728630399.969851) can0 00D540A0#014A010800000020
(1728630399.970081) can0 00D540A0#F0007EFE00000040
(1728630400.000605) can0 00D5A0C0#401FC0
(1728630400.000884) can0 00D540A0#A4B20000401F0080
(1728630400.001138) can0 00D540A0#0000000300FCFF20
(1728630400.001442) can0 00D540A0#9D0F00002D012900
(1728630400.001779) can0 00D540A0#014A010800000020
(1728630400.002008) can0 00D540A0#F00082FE00000040
(1728630400.018537) can0 00D5A0C0#401FC0
(1728630400.018826) can0 00D540A0#E5330000401F0080
(1728630400.019078) can0 00D540A0#0000000300FBFF20
(1728630400.019408) can0 00D540A0#9D0F00002D012900
(1728630400.019674) can0 00D540A0#014A010800000020
(1728630400.019982) can0 00D540A0#F00083FE00000040
(1728630400.035407) can0 00D5A0C0#401FC0
(1728630400.035878) can0 00D540A0#B6E10000401F0080
(1728630400.036136) can0 00D540A0#000000F4FFFBFF20
(1728630400.036442) can0 00D540A0#990F00002D012900
(1728630400.036798) can0 00D540A0#014A010800000020
(1728630400.037010) can0 00D540A0#FA0085FE00000040
(1728630400.051577) can0 00D5A0C0#401FC0
(1728630400.052045) can0 00D540A0#0CEB0000401F0080
(1728630400.052325) can0 00D540A0#0000000500FBFF20
(1728630400.052647) can0 00D540A0#9B0F00002D012900
(1728630400.052942) can0 00D540A0#014A010800000020
(1728630400.053197) can0 00D540A0#F00087FE00000040
(1728630400.068400) can0 00D5A0C0#401FC0
(1728630400.068899) can0 00D540A0#6C030000401F0080
(1728630400.069143) can0 00D540A0#0000000300FBFF20
(1728630400.069439) can0 00D540A0#9B0F00002D012900
(1728630400.069777) can0 00D540A0#014A010800000020
(1728630400.070007) can0 00D540A0#F00088FE00000040
(1728630400.098293) can0 00D5A0C0#401FC0
(1728630400.098778) can0 00D540A0#C8310000401F0080
(1728630400.099073) can0 00D540A0#0000000300FBFF20
(1728630400.099378) can0 00D540A0#9D0F00002D012900
(1728630400.099656) can0 00D540A0#014A010800000020
(1728630400.099965) can0 00D540A0#F0008BFE00000040
(1728630400.118919) can0 00D5A0C0#401FC0
(1728630400.119222) can0 00D540A0#2B0B0000401F0080
(1728630400.119532) can0 00D540A0#0000000300FCFF20
(1728630400.119862) can0 00D540A0#9B0F00002D012900
(1728630400.120115) can0 00D540A0#014A010800000020
(1728630400.120389) can0 00D540A0#F0008DFE00000040
(1728630400.135175) can0 00D5A0C0#401FC0
(1728630400.135639) can0 00D540A0#09ED0000401F0080
(1728630400.135992) can0 00D540A0#0000000500FCFF20
(1728630400.136242) can0 00D540A0#9D0F00002D012900
(1728630400.136535) can0 00D540A0#014A010800000020
(1728630400.136878) can0 00D540A0#FA008FFE00000040
(1728630400.152054) can0 00D5A0C0#401FC0
(1728630400.152850) can0 00D540A0#7FEE0000401F0080
(1728630400.152858) can0 00D540A0#000000F4FFF9FF20
(1728630400.153119) can0 00D540A0#9B0F00002D012900
(1728630400.153681) can0 00D540A0#014A010800000020
(1728630400.153709) can0 00D540A0#F00091FE00000040
(1728630400.169690) can0 00D5A0C0#401FC0
(1728630400.170276) can0 00D540A0#4D1C0000401F0080
(1728630400.170572) can0 00D540A0#0000000000F9FF20
(1728630400.170934) can0 00D540A0#9B0F00002D012900
(1728630400.171156) can0 00D540A0#014A010800000020
(1728630400.171436) can0 00D540A0#FA0093FE00000040
(1728630400.198665) can0 00D5A0C0#401FC0
(1728630400.199126) can0 00D540A0#5F120000401F0080
(1728630400.199467) can0 00D540A0#000000FDFFFCFF20
(1728630400.199790) can0 00D540A0#9D0F00002D012900
(1728630400.200039) can0 00D540A0#014A010800000020
(1728630400.200308) can0 00D540A0#F00095FE00000040
(1728630400.219322) can0 00D5A0C0#401FC0
(1728630400.219574) can0 00D540A0#CF620000401F0080
(1728630400.220221) can0 00D540A0#0000000300FBFF20
(1728630400.220233) can0 00D540A0#9B0F00002D012900
(1728630400.220464) can0 00D540A0#014A010800000020
(1728630400.220768) can0 00D540A0#F00097FE00000040
(1728630400.235485) can0 00D5A0C0#401FC0
(1728630400.235988) can0 00D540A0#F5900000401F0080
(1728630400.236265) can0 00D540A0#0000000000FBFF20
(1728630400.236550) can0 00D540A0#9B0F00002D012900
(1728630400.236865) can0 00D540A0#014A010800000020
(1728630400.237145) can0 00D540A0#FA0099FE00000040
(1728630400.252174) can0 00D5A0C0#401FC0
(1728630400.252408) can0 00D540A0#49440000401F0080
(1728630400.252679) can0 00D540A0#0000000300F9FF20
(1728630400.252991) can0 00D540A0#9F0F00002D012900
(1728630400.253309) can0 00D540A0#014A010800000020
(1728630400.253622) can0 00D540A0#F0009BFE00000040
(1728630400.268363) can0 00D5A0C0#401FC0
(1728630400.268628) can0 00D540A0#DA130000401F0080
(1728630400.269314) can0 00D540A0#0000000200FCFF20
(1728630400.269325) can0 00D540A0#9B0F00002D012900
(1728630400.269546) can0 00D540A0#014A010800000020
(1728630400.269849) can0 00D540A0#FA009CFE00000040
(1728630400.298245) can0 00D5A0C0#401FC0
(1728630400.298783) can0 00D540A0#27460000401F0080
(1728630400.299002) can0 00D540A0#0000000100F9FF20
(1728630400.300086) can0 00D540A0#9F0F00002D012900
(1728630400.300366) can0 00D540A0#014A010800000020
(1728630400.300676) can0 00D540A0#F0009FFE00000040
(1728630400.320023) can0 00D5A0C0#401FC0
(1728630400.320505) can0 00D540A0#82870000401F0080
(1728630400.320829) can0 00D540A0#0000000000FCFF20
(1728630400.321053) can0 00D540A0#9D0F00002D012900
(1728630400.321359) can0 00D540A0#014A010800000020
(1728630400.321762) can0 00D540A0#FA00A2FE00000040
(1728630400.335774) can0 00D5A0C0#401FC0
(1728630400.335899) can0 00D540A0#27E70000401F0080
(1728630400.336177) can0 00D540A0#0000000300FBFF20
(1728630400.336482) can0 00D540A0#9B0F00002D012900
(1728630400.336824) can0 00D540A0#014A010800000020
(1728630400.337061) can0 00D540A0#F000A3FE00000040
(1728630400.357556) can0 00D5A0C0#401FC0
(1728630400.357830) can0 00D540A0#B98E0000401F0080
(1728630400.358136) can0 00D540A0#000000F4FFFBFF20
(1728630400.358431) can0 00D540A0#9D0F00002D012900
(1728630400.358780) can0 00D540A0#014A010800000020
(1728630400.359001) can0 00D540A0#FA00A5FE00000040
(1728630400.369217) can0 00D5A0C0#401FC0
(1728630400.369496) can0 00D540A0#3D280000401F0080
(1728630400.370176) can0 00D540A0#000000FDFFFBFF20
(1728630400.370184) can0 00D540A0#9D0F00002D012900
(1728630400.370402) can0 00D540A0#014A010800000020
(1728630400.370702) can0 00D540A0#FA00A6FE00000040
(1728630400.398695) can0 00D5A0C0#401FC0
(1728630400.399144) can0 00D540A0#87E20000401F0080
(1728630400.399439) can0 00D540A0#000000F3FFFBFF20
(1728630400.399777) can0 00D540A0#9B0F00002D012900
(1728630400.400016) can0 00D540A0#014A010800000020
(1728630400.400304) can0 00D540A0#F000A9FE00000040
(1728630400.419201) can0 00D5A0C0#401FC0
(1728630400.419231) can0 00D540A0#2C9D0000401F0080
(1728630400.419567) can0 00D540A0#0000000100FBFF20
(1728630400.419904) can0 00D540A0#9B0F00002D012900
(1728630400.420135) can0 00D540A0#014A010800000020
(1728630400.420423) can0 00D540A0#FA00ABFE00000040
(1728630400.436142) can0 00D5A0C0#401FC0
(1728630400.436222) can0 00D540A0#EE030000401F0080
(1728630400.436526) can0 00D540A0#0000001100FBFF20
(1728630400.436862) can0 00D540A0#990F00002D012900
(1728630400.437111) can0 00D540A0#014A010800000020
(1728630400.437433) can0 00D540A0#F000ADFE00000040
(1728630400.452208) can0 00D5A0C0#401FC0
(1728630400.452365) can0 00D540A0#24680000401F0080
(1728630400.452684) can0 00D540A0#0000000300FCFF20
(1728630400.452979) can0 00D540A0#9D0F00002D012900
(1728630400.453278) can0 00D540A0#014A010800000020
(1728630400.453546) can0 00D540A0#FA00AFFE00000040
(1728630400.469759) can0 00D5A0C0#401FC0
(1728630400.470006) can0 00D540A0#97220000401F0080
(1728630400.470324) can0 00D540A0#0000000300FBFF20
(1728630400.470600) can0 00D540A0#9D0F00002D012900
(1728630400.470925) can0 00D540A0#014A010800000020
(1728630400.471172) can0 00D540A0#FA00B0FE00000040
(1728630400.498758) can0 00D5A0C0#401FC0
(1728630400.499021) can0 00D540A0#28B40000401F0080
(1728630400.499289) can0 00D540A0#000000F4FFFBFF20
(1728630400.499623) can0 00D540A0#9D0F00002D012900
(1728630400.499915) can0 00D540A0#014A010800000020
(1728630400.500169) can0 00D540A0#F000B3FE00000040
(1728630400.518543) can0 00D5A0C0#401FC0
(1728630400.518990) can0 00D540A0#B8A10000401F0080
(1728630400.519294) can0 00D540A0#0000000100FCFF20
(1728630400.519612) can0 00D540A0#9D0F00002D012900
(1728630400.519940) can0 00D540A0#014A010800000020
(1728630400.520166) can0 00D540A0#FA00B5FE00000040
(1728630400.535379) can0 00D5A0C0#401FC0
(1728630400.535619) can0 00D540A0#A7A40000401F0080
(1728630400.535923) can0 00D540A0#0000000000FBFF20
(1728630400.536174) can0 00D540A0#9B0F00002D012900
(1728630400.536475) can0 00D540A0#014A010800000020
(1728630400.536826) can0 00D540A0#F000B7FE00000040
(1728630400.552292) can0 00D5A0C0#401FC0
(1728630400.552347) can0 00D540A0#EE4B0000401F0080
(1728630400.552605) can0 00D540A0#0000000F00F9FF20
(1728630400.552960) can0 00D540A0#9D0F00002D012900
(1728630400.553193) can0 00D540A0#014A010800000020
(1728630400.553485) can0 00D540A0#FA00B9FE00000040
(1728630400.568505) can0 00D5A0C0#401FC0
(1728630400.568970) can0 00D540A0#8D210000401F0080
(1728630400.569287) can0 00D540A0#0000000200FBFF20
(1728630400.569596) can0 00D540A0#9D0F00002D012900
(1728630400.569905) can0 00D540A0#014A010800000020
(1728630400.570173) can0 00D540A0#FA00BAFE00000040
(1728630400.598804) can0 00D5A0C0#401FC0
(1728630400.599056) can0 00D540A0#E59E0000401F0080
(1728630400.599354) can0 00D540A0#0000000100F9FF20
(1728630400.599655) can0 00D540A0#9B0F00002D012900
(1728630400.599945) can0 00D540A0#014A010800000020
(1728630400.600228) can0 00D540A0#FA00BDFE00000040
(1728630400.619453) can0 00D5A0C0#401FC0
(1728630400.619754) can0 00D540A0#730F0000401F0080
(1728630400.619986) can0 00D540A0#000000FFFFFBFF20
(1728630400.620276) can0 00D540A0#9D0F00002D012900
(1728630400.620565) can0 00D540A0#014A010800000020
(1728630400.620907) can0 00D540A0#FA00BFFE00000040
(1728630400.635942) can0 00D5A0C0#401FC0
(1728630400.636369) can0 00D540A0#81210000401F0080
(1728630400.636677) can0 00D540A0#0000000500F9FF20
(1728630400.636964) can0 00D540A0#9D0F00002D012900
(1728630400.637262) can0 00D540A0#014A010800000020
(1728630400.637551) can0 00D540A0#F000C1FE00000040
(1728630400.652367) can0 00D5A0C0#401FC0
(1728630400.652871) can0 00D540A0#B6120000401F0080
(1728630400.653162) can0 00D540A0#000000FDFFFBFF20
(1728630400.653457) can0 00D540A0#9D0F00002D012900
(1728630400.653750) can0 00D540A0#014A010800000020
(1728630400.654057) can0 00D540A0#FA00C3FE00000040
(1728630400.668492) can0 00D5A0C0#401FC0
(1728630400.668991) can0 00D540A0#C19B0000401F0080
(1728630400.669317) can0 00D540A0#0000000D00F9FF20
(1728630400.669595) can0 00D540A0#990F00002D012900
(1728630400.669896) can0 00D540A0#014A010800000020
(1728630400.670155) can0 00D540A0#FA00C4FE00000040
(1728630400.698908) can0 00D5A0C0#401FC0
(1728630400.699352) can0 00D540A0#61360000401F0080
(1728630400.699667) can0 00D540A0#0000000200FCFF20
(1728630400.699953) can0 00D540A0#9D0F00002D012900
(1728630400.700257) can0 00D540A0#014A010800000020
(1728630400.700553) can0 00D540A0#FA00C7FE00000040
(1728630400.719049) can0 00D5A0C0#401FC0
(1728630400.719298) can0 00D540A0#C7850000401F0080
(1728630400.719561) can0 00D540A0#0000000000FBFF20
(1728630400.719908) can0 00D540A0#9B0F00002D012900
(1728630400.720151) can0 00D540A0#014A010800000020
(1728630400.720501) can0 00D540A0#FA00C9FE00000040
(1728630400.735297) can0 00D5A0C0#401FC0
(1728630400.735822) can0 00D540A0#F5770000401F0080
(1728630400.736079) can0 00D540A0#000000F4FFFBFF20
(1728630400.736349) can0 00D540A0#9B0F00002D012900
(1728630400.736663) can0 00D540A0#014A010800000020
(1728630400.736988) can0 00D540A0#F000CBFE00000040
(1728630400.752297) can0 00D5A0C0#401FC0
(1728630400.752563) can0 00D540A0#6B1E0000401F0080
(1728630400.752907) can0 00D540A0#0000000300FBFF20
(1728630400.753144) can0 00D540A0#9D0F00002D012900
(1728630400.753434) can0 00D540A0#014A010800000020
(1728630400.753738) can0 00D540A0#FA00CDFE00000040
(1728630400.768482) can0 00D5A0C0#401FC0
(1728630400.768962) can0 00D540A0#9F880000401F0080
(1728630400.769217) can0 00D540A0#0000000100FBFF20
(1728630400.769532) can0 00D540A0#9D0F00002D012900
(1728630400.769848) can0 00D540A0#014A010800000020
(1728630400.770092) can0 00D540A0#F000CEFE00000040
(1728630400.798312) can0 00D5A0C0#401FC0
(1728630400.798930) can0 00D540A0#D38A0000401F0080
(1728630400.799086) can0 00D540A0#000000FEFFF9FF20
(1728630400.799407) can0 00D540A0#9B0F00002D012900
(1728630400.799734) can0 00D540A0#014A010800000020
(1728630400.799968) can0 00D540A0#FA00D1FE00000040
(1728630400.819317) can0 00D5A0C0#401FC0
(1728630400.819579) can0 00D540A0#E48B0000401F0080
(1728630400.819904) can0 00D540A0#000000FFFFF9FF20
(1728630400.820142) can0 00D540A0#9B0F00002D012900
(1728630400.820463) can0 00D540A0#014A010800000020
(1728630400.820810) can0 00D540A0#FA00D3FE00000040
(1728630400.835350) can0 00D5A0C0#401FC0
(1728630400.835839) can0 00D540A0#24370000401F0080
(1728630400.836082) can0 00D540A0#0000000300FBFF20
(1728630400.836415) can0 00D540A0#9B0F00002D012900
(1728630400.837126) can0 00D540A0#014A010800000020
(1728630400.837134) can0 00D540A0#F000D5FE00000040
(1728630400.851962) can0 00D5A0C0#401FC0
(1728630400.852395) can0 00D540A0#BCD70000401F0080
(1728630400.852736) can0 00D540A0#000000F4FFFBFF20
(1728630400.853007) can0 00D540A0#9D0F00002D012900
(1728630400.853316) can0 00D540A0#014A010800000020
(1728630400.853587) can0 00D540A0#FA00D7FE00000040
(1728630400.869305) can0 00D5A0C0#401FC0
(1728630400.869317) can0 00D540A0#E73D0000401F0080
(1728630400.869469) can0 00D540A0#000000F5FFF9FF20
(1728630400.869793) can0 00D540A0#9D0F00002D012900
(1728630400.870048) can0 00D540A0#014A010800000020
(1728630400.870337) can0 00D540A0#FA00D8FE00000040
(1728630400.898570) can0 00D5A0C0#401FC0
(1728630400.899052) can0 00D540A0#A4FC0000401F0080
(1728630400.899329) can0 00D540A0#0000000300FCFF20
(1728630400.899632) can0 00D540A0#9D0F00002D012900
(1728630400.899929) can0 00D540A0#014A010800000020
(1728630400.900206) can0 00D540A0#FA00DBFE00000040
(1728630400.919836) can0 00D5A0C0#401FC0
(1728630400.920281) can0 00D540A0#B04F0000401F0080
(1728630400.920594) can0 00D540A0#000000FFFFFBFF20
(1728630400.920931) can0 00D540A0#9D0F00002D012900
(1728630400.921167) can0 00D540A0#014A010800000020
(1728630400.921449) can0 00D540A0#F000DEFE00000040
(1728630400.936132) can0 00D5A0C0#401FC0
(1728630400.936350) can0 00D540A0#3D2B0000401F0080
(1728630400.936666) can0 00D540A0#000000FCFFFBFF20
(1728630400.936943) can0 00D540A0#9D0F00002D012900
(1728630400.937232) can0 00D540A0#014A010800000020
(1728630400.937523) can0 00D540A0#F000DFFE00000040
(1728630400.951957) can0 00D5A0C0#401FC0
(1728630400.952401) can0 00D540A0#D7160000401F0080
(1728630400.952748) can0 00D540A0#000000F4FFFBFF20
(1728630400.953000) can0 00D540A0#9D0F00002D012900
(1728630400.953300) can0 00D540A0#014A010800000020
(1728630400.953572) can0 00D540A0#FA00E1FE00000040
(1728630400.968977) can0 00D5A0C0#401FC0
(1728630400.969215) can0 00D540A0#13320000401F0080
(1728630400.969504) can0 00D540A0#000000F4FFF9FF20
(1728630400.970447) can0 00D540A0#9D0F00002D012900
(1728630400.970455) can0 00D540A0#014A010800000020
(1728630400.970459) can0 00D540A0#FA00E2FE00000040
(1728630400.999171) can0 00D5A0C0#401FC0
(1728630400.999235) can0 00D540A0#87D70000401F0080
(1728630400.999512) can0 00D540A0#000000FDFFFBFF20
(1728630400.999873) can0 00D540A0#9D0F00002D012900
(1728630401.000097) can0 00D540A0#014A010800000020
(1728630401.000388) can0 00D540A0#FA00E5FE00000040
(1728630401.018262) can0 00D5A0C0#401FC0
(1728630401.018731) can0 00D540A0#C87B0000401F0080
(1728630401.019019) can0 00D540A0#000000F5FFF9FF20
(1728630401.019300) can0 00D540A0#9B0F00002D012900
(1728630401.019599) can0 00D540A0#014A010800000020
(1728630401.019939) can0 00D540A0#F000E7FE00000040
(1728630401.035761) can0 00D5A0C0#401FC0
(1728630401.035992) can0 00D540A0#976C0000401F0080
(1728630401.036310) can0 00D540A0#0000000300FBFF20
(1728630401.036586) can0 00D540A0#9D0F00002D012900
(1728630401.036934) can0 00D540A0#014A010800000020
(1728630401.037212) can0 00D540A0#F000E9FE00000040
(1728630401.052303) can0 00D5A0C0#401FC0
(1728630401.052803) can0 00D540A0#86150000401F0080
(1728630401.053086) can0 00D540A0#0000000000FBFF20
(1728630401.053396) can0 00D540A0#9D0F00002D012900
(1728630401.053720) can0 00D540A0#014A010800000020
(1728630401.053977) can0 00D540A0#FA00EBFE00000040
(1728630401.068781) can0 00D5A0C0#401FC0
(1728630401.069167) can0 00D540A0#95180000401F0080
(1728630401.069462) can0 00D540A0#000000F4FFFBFF20
(1728630401.069797) can0 00D540A0#9B0F00002D012900
(1728630401.070044) can0 00D540A0#014A010800000020
(1728630401.070334) can0 00D540A0#F000ECFE00000040
(1728630401.098560) can0 00D5A0C0#401FC0
(1728630401.099016) can0 00D540A0#09050000401F0080
(1728630401.099274) can0 00D540A0#000000F4FFFBFF20
(1728630401.099576) can0 00D540A0#9B0F00002D012900
(1728630401.099895) can0 00D540A0#014A010800000020
(1728630401.100150) can0 00D540A0#FA00EFFE00000040
(1728630401.119368) can0 00D5A0C0#401FC0
(1728630401.119741) can0 00D540A0#5A300000401F0080
(1728630401.119972) can0 00D540A0#0000001100F9FF20
(1728630401.120265) can0 00D540A0#9D0F00002D012900
(1728630401.120522) can0 00D540A0#014A010800000020
(1728630401.120868) can0 00D540A0#F000F1FE00000040
(1728630401.135183) can0 00D5A0C0#401FC0
(1728630401.135581) can0 00D540A0#F1130000401F0080
(1728630401.135929) can0 00D540A0#0000000000FBFF20
(1728630401.136165) can0 00D540A0#9D0F00002D012900
(1728630401.136459) can0 00D540A0#014A010800000020
(1728630401.136776) can0 00D540A0#FA00F3FE00000040
(1728630401.151851) can0 00D5A0C0#401FC0
(1728630401.152149) can0 00D540A0#04800000401F0080
(1728630401.152868) can0 00D540A0#0000001100FBFF20
(1728630401.152876) can0 00D540A0#9D0F00002D012900
(1728630401.153046) can0 00D540A0#014A010800000020
(1728630401.153338) can0 00D540A0#FA00F5FE00000040
(1728630401.168744) can0 00D5A0C0#401FC0
(1728630401.169201) can0 00D540A0#2A5A0000401F0080
(1728630401.169513) can0 00D540A0#0000000100FBFF20
(1728630401.169844) can0 00D540A0#9B0F00002D012900
(1728630401.170087) can0 00D540A0#014A010800000020
(1728630401.170369) can0 00D540A0#F000F6FE00000040
(1728630401.198492) can0 00D5A0C0#401FC0
(1728630401.198967) can0 00D540A0#29890000401F0080
(1728630401.199273) can0 00D540A0#0000000000FBFF20
(1728630401.199548) can0 00D540A0#9B0F00002D012900
(1728630401.199865) can0 00D540A0#014A010800000020
(1728630401.200123) can0 00D540A0#FA00F9FE00000040
(1728630401.218579) can0 00D5A0C0#401FC0
(1728630401.218919) can0 00D540A0#8ECB0000401F0080
(1728630401.219182) can0 00D540A0#0000000D00FBFF20
(1728630401.219511) can0 00D540A0#990F00002D012900
(1728630401.219804) can0 00D540A0#014A010800000020
(1728630401.220073) can0 00D540A0#F000FBFE00000040
(1728630401.235232) can0 00D5A0C0#401FC0
(1728630401.235741) can0 00D540A0#85120000401F0080
(1728630401.236009) can0 00D540A0#0000000300FBFF20
(1728630401.236313) can0 00D540A0#9D0F00002D012900
(1728630401.236596) can0 00D540A0#014A010800000020
(1728630401.236900) can0 00D540A0#FA00FDFE00000040
(1728630401.251877) can0 00D5A0C0#401FC0
(1728630401.252318) can0 00D540A0#53010000401F0080
(1728630401.252633) can0 00D540A0#000000F4FFFBFF20
(1728630401.252945) can0 00D540A0#9B0F00002D012900
(1728630401.253221) can0 00D540A0#014A010800000020
(1728630401.253517) can0 00D540A0#FA00FFFE00000040
(1728630401.269147) can0 00D5A0C0#401FC0
(1728630401.269639) can0 00D540A0#CA040000401F0080
(1728630401.269928) can0 00D540A0#0000000500FBFF20
(1728630401.270245) can0 00D540A0#9D0F00002D012900
(1728630401.270516) can0 00D540A0#014A010800000020
(1728630401.270846) can0 00D540A0#F00000FF00000040
(1728630401.298314) can0 00D5A0C0#401FC0
(1728630401.298820) can0 00D540A0#DC9F0000401F0080
(1728630401.299067) can0 00D540A0#0000000F00FBFF20
(1728630401.299355) can0 00D540A0#9D0F00002D012900
(1728630401.299731) can0 00D540A0#014A010800000020
(1728630401.299958) can0 00D540A0#FA0003FF00000040
(1728630401.318842) can0 00D5A0C0#401FC0
(1728630401.319144) can0 00D540A0#67FF0000401F0080
(1728630401.319428) can0 00D540A0#0000001E00FBFF20
(1728630401.319757) can0 00D540A0#9D0F00002D012900
(1728630401.320010) can0 00D540A0#014A010800000020
(1728630401.320308) can0 00D540A0#F00005FF00000040
(1728630401.335614) can0 00D5A0C0#401FC0
(1728630401.336135) can0 00D540A0#9C4A0000401F0080
(1728630401.336419) can0 00D540A0#000000F4FFFBFF20
(1728630401.336760) can0 00D540A0#9B0F00002D012900
(1728630401.337008) can0 00D540A0#014A010800000020
(1728630401.337299) can0 00D540A0#FA0007FF00000040
(1728630401.353293) can0 00D5A0C0#401FC0
(1728630401.353778) can0 00D540A0#DBEB0000401F0080
(1728630401.354055) can0 00D540A0#0000000000FCFF20
(1728630401.354348) can0 00D540A0#9B0F00002D012900
(1728630401.354709) can0 00D540A0#014A010800000020
(1728630401.354939) can0 00D540A0#FA0009FF00000040
(1728630401.369315) can0 00D5A0C0#401FC0
(1728630401.369606) can0 00D540A0#4E350000401F0080
(1728630401.370252) can0 00D540A0#0000000100F9FF20
(1728630401.370261) can0 00D540A0#9F0F00002D012900
(1728630401.370487) can0 00D540A0#014A010800000020
(1728630401.370848) can0 00D540A0#F0000AFF00000040
(1728630401.398236) can0 00D5A0C0#401FC0
(1728630401.398503) can0 00D540A0#77130000401F0080
(1728630401.399322) can0 00D540A0#0000001200F9FF20
(1728630401.399349) can0 00D540A0#9B0F00002D012900
(1728630401.399450) can0 00D540A0#014A010800000020
(1728630401.399709) can0 00D540A0#FA000DFF00000040
(1728630401.418514) can0 00D5A0C0#401FC0
(1728630401.418991) can0 00D540A0#C7940000401F0080
(1728630401.419292) can0 00D540A0#000000F4FFFBFF20
(1728630401.419594) can0 00D540A0#9D0F00002D012900
(1728630401.419890) can0 00D540A0#014A010800000020
(1728630401.420173) can0 00D540A0#FA000FFF00000040
(1728630401.435778) can0 00D5A0C0#401FC0
(1728630401.436135) can0 00D540A0#16D40000401F0080
(1728630401.436438) can0 00D540A0#0000000300FBFF20
(1728630401.436774) can0 00D540A0#9D0F00002D012900
(1728630401.437005) can0 00D540A0#014A010800000020
(1728630401.437300) can0 00D540A0#FA0011FF00000040
(1728630401.451909) can0 00D5A0C0#401FC0
(1728630401.452370) can0 00D540A0#E34C0000401F0080
(1728630401.452699) can0 00D540A0#0000000300FBFF20
(1728630401.452965) can0 00D540A0#9B0F00002D012900
(1728630401.453248) can0 00D540A0#014A010800000020
(1728630401.453550) can0 00D540A0#FA0013FF00000040
(1728630401.468515) can0 00D5A0C0#401FC0
(1728630401.468825) can0 00D540A0#19CE0000401F0080
(1728630401.469095) can0 00D540A0#0000000300F9FF20
(1728630401.469407) can0 00D540A0#9D0F00002D012900
(1728630401.469723) can0 00D540A0#014A010800000020
(1728630401.469977) can0 00D540A0#F00014FF00000040
(1728630401.498915) can0 00D5A0C0#401FC0
(1728630401.499138) can0 00D540A0#FBAD0000401F0080
(1728630401.499415) can0 00D540A0#000000F3FFFCFF20
(1728630401.499785) can0 00D540A0#9B0F00002D012900
(1728630401.500014) can0 00D540A0#014A010800000020
(1728630401.500294) can0 00D540A0#FA0017FF00000040
(1728630401.518482) can0 00D5A0C0#401FC0
(1728630401.518936) can0 00D540A0#B7BC0000401F0080
(1728630401.519229) can0 00D540A0#0000000200FBFF20
(1728630401.519518) can0 00D540A0#9B0F00002D012900
(1728630401.519846) can0 00D540A0#014A010800000020
(1728630401.520094) can0 00D540A0#F00019FF00000040
(1728630401.536040) can0 00D5A0C0#401FC0
(1728630401.536120) can0 00D540A0#C5C10000401F0080
(1728630401.536411) can0 00D540A0#000000F4FFFCFF20
(1728630401.537468) can0 00D540A0#9D0F00002D012900
(1728630401.537476) can0 00D540A0#014A010800000020
(1728630401.537481) can0 00D540A0#F0001BFF00000040
(1728630401.555130) can0 00D5A0C0#401FC0
(1728630401.555591) can0 00D540A0#AA910000401F0080
(1728630401.555934) can0 00D540A0#000000F5FFFBFF20
(1728630401.556212) can0 00D540A0#9D0F00002D012900
(1728630401.556496) can0 00D540A0#014A010800000020
(1728630401.556846) can0 00D540A0#FA001DFF00000040
(1728630401.569114) can0 00D5A0C0#401FC0
(1728630401.569411) can0 00D540A0#0B500000401F0080
(1728630401.570061) can0 00D540A0#0000000000FBFF20
(1728630401.570069) can0 00D540A0#9B0F00002D012900
(1728630401.570313) can0 00D540A0#014A010800000020
(1728630401.570631) can0 00D540A0#F0001EFF00000040
(1728630401.598502) can0 00D5A0C0#401FC0
(1728630401.598792) can0 00D540A0#DB530000401F0080
(1728630401.599043) can0 00D540A0#000000F4FFFBFF20
(1728630401.599338) can0 00D540A0#9D0F00002D012900
(1728630401.600036) can0 00D540A0#014A010800000020
(1728630401.600049) can0 00D540A0#FA0021FF00000040
(1728630401.618204) can0 00D5A0C0#401FC0
(1728630401.618692) can0 00D540A0#2B380000401F0080
(1728630401.618931) can0 00D540A0#0000000100FBFF20
(1728630401.619215) can0 00D540A0#9B0F00002D012900
(1728630401.619517) can0 00D540A0#014A010800000020
(1728630401.619867) can0 00D540A0#F00023FF00000040
(1728630401.635012) can0 00D5A0C0#401FC0
(1728630401.635434) can0 00D540A0#C8FB0000401F0080
(1728630401.635754) can0 00D540A0#0000000000F9FF20
(1728630401.636013) can0 00D540A0#9D0F00002D012800
(1728630401.636302) can0 00D540A0#014A010800000020
(1728630401.636591) can0 00D540A0#FA0025FF00000040
(1728630401.651915) can0 00D5A0C0#401FC0
(1728630401.652138) can0 00D540A0#7D150000401F0080
(1728630401.652408) can0 00D540A0#0000000300FBFF20
(1728630401.652770) can0 00D540A0#9D0F00002D012900
(1728630401.652993) can0 00D540A0#014A010800000020
(1728630401.653287) can0 00D540A0#FA0027FF00000040
(1728630401.668717) can0 00D5A0C0#401FC0
(1728630401.669150) can0 00D540A0#CA830000401F0080
(1728630401.669457) can0 00D540A0#0000000300FBFF20
(1728630401.669794) can0 00D540A0#9D0F00002D012900
(1728630401.670048) can0 00D540A0#014A010800000020
(1728630401.670331) can0 00D540A0#F00028FF00000040
(1728630401.698697) can0 00D5A0C0#401FC0
(1728630401.698983) can0 00D540A0#569E0000401F0080
(1728630401.699287) can0 00D540A0#0000000300FBFF20
(1728630401.699576) can0 00D540A0#9D0F00002D012900
(1728630401.699895) can0 00D540A0#014A010800000020
(1728630401.700152) can0 00D540A0#FA002BFF00000040
(1728630401.719879) can0 00D5A0C0#401FC0
(1728630401.720217) can0 00D540A0#2F580000401F0080
(1728630401.720549) can0 00D540A0#0000000300F9FF20
(1728630401.720880) can0 00D540A0#9B0F00002D012900
(1728630401.721122) can0 00D540A0#014A010800000020
(1728630401.721399) can0 00D540A0#F0002EFF00000040
(1728630401.737145) can0 00D5A0C0#401FC0
(1728630401.737685) can0 00D540A0#FC870000401F0080
(1728630401.737924) can0 00D540A0#0000001100FBFF20
(1728630401.738202) can0 00D540A0#9D0F00002D012900
(1728630401.738517) can0 00D540A0#014A010800000020
(1728630401.738867) can0 00D540A0#FA002FFF00000040
(1728630401.752481) can0 00D5A0C0#401FC0
(1728630401.752599) can0 00D540A0#ADFE0000401F0080
(1728630401.752907) can0 00D540A0#0000000200FBFF20
(1728630401.753201) can0 00D540A0#990F00002D012900
(1728630401.753485) can0 00D540A0#014A010800000020
(1728630401.753822) can0 00D540A0#FA0031FF00000040
(1728630401.768423) can0 00D5A0C0#401FC0
(1728630401.768885) can0 00D540A0#7B820000401F0080
(1728630401.769203) can0 00D540A0#0000000600FBFF20
(1728630401.769504) can0 00D540A0#9D0F00002D012900
(1728630401.769823) can0 00D540A0#014A010800000020
(1728630401.770078) can0 00D540A0#F00032FF00000040
(1728630401.798164) can0 00D5A0C0#401FC0
(1728630401.798681) can0 00D540A0#D2890000401F0080
(1728630401.798915) can0 00D540A0#0000000300FBFF20
(1728630401.799199) can0 00D540A0#9B0F00002D012900
(1728630401.799506) can0 00D540A0#014A010800000020
(1728630401.799855) can0 00D540A0#FA0035FF00000040
(1728630401.818756) can0 00D5A0C0#401FC0
(1728630401.819110) can0 00D540A0#97C60000401F0080
(1728630401.820195) can0 00D540A0#0000000600FBFF20
(1728630401.820298) can0 00D540A0#990F00002D012900
(1728630401.820539) can0 00D540A0#014A010800000020
(1728630401.820894) can0 00D540A0#F00037FF00000040
(1728630401.834973) can0 00D5A0C0#401FC0
(1728630401.835411) can0 00D540A0#E94A0000401F0080
(1728630401.835734) can0 00D540A0#0000001200F9FF20
(1728630401.835999) can0 00D540A0#9D0F00002D012900
(1728630401.836277) can0 00D540A0#014A010800000020
(1728630401.836574) can0 00D540A0#FA0039FF00000040
(1728630401.851472) can0 00D5A0C0#401FC0
(1728630401.851910) can0 00D540A0#09690000401F0080
(1728630401.852204) can0 00D540A0#000000F6FFFBFF20
(1728630401.852509) can0 00D540A0#9D0F00002D012900
(1728630401.852820) can0 00D540A0#014A010800000020
(1728630401.853079) can0 00D540A0#F0003BFF00000040
(1728630401.869501) can0 00D5A0C0#401FC0
(1728630401.869980) can0 00D540A0#EE910000401F0080
(1728630401.870260) can0 00D540A0#000000F3FFFBFF20
(1728630401.870561) can0 00D540A0#9B0F00002D012900
(1728630401.870878) can0 00D540A0#014A010800000020
(1728630401.871135) can0 00D540A0#F0003CFF00000040
(1728630401.898226) can0 00D5A0C0#401FC0
(1728630401.898726) can0 00D540A0#FDCB0000401F0080
(1728630401.899002) can0 00D540A0#000000F5FFF9FF20
(1728630401.899303) can0 00D540A0#9B0F00002D012900
(1728630401.899699) can0 00D540A0#014A010800000020
(1728630401.899910) can0 00D540A0#FA003FFF00000040
(1728630401.918504) can0 00D5A0C0#401FC0
(1728630401.918796) can0 00D540A0#3F650000401F0080
(1728630401.919094) can0 00D540A0#000000F4FFFBFF20
(1728630401.919370) can0 00D540A0#9B0F00002D012900
(1728630401.919676) can0 00D540A0#014A010800000020
(1728630401.919975) can0 00D540A0#F00041FF00000040
(1728630401.935452) can0 00D5A0C0#401FC0
(1728630401.935807) can0 00D540A0#0E880000401F0080
(1728630401.936090) can0 00D540A0#000000FEFFFBFF20
(1728630401.936384) can0 00D540A0#9D0F00002D012900
(1728630401.936697) can0 00D540A0#014A010800000020
(1728630401.936963) can0 00D540A0#FA0043FF00000040
(1728630401.952274) can0 00D5A0C0#401FC0
(1728630401.952512) can0 00D540A0#7A710000401F0080
(1728630401.952875) can0 00D540A0#0000000300F9FF20
(1728630401.953141) can0 00D540A0#9D0F00002D012900
(1728630401.953430) can0 00D540A0#014A010800000020
(1728630401.953747) can0 00D540A0#F00045FF00000040
(1728630401.969103) can0 00D5A0C0#401FC0
(1728630401.969344) can0 00D540A0#9DDE0000401F0080
(1728630401.969698) can0 00D540A0#000000F4FFFBFF20
(1728630401.969950) can0 00D540A0#9D0F00002D012900
(1728630401.970240) can0 00D540A0#014A010800000020
(1728630401.970537) can0 00D540A0#F00046FF00000040
(1728630401.999283) can0 00D5A0C0#401FC0
(1728630401.999808) can0 00D540A0#9E0D0000401F0080
(1728630402.000081) can0 00D540A0#000000F5FFFBFF20
(1728630402.000383) can0 00D540A0#9D0F00002D012900
(1728630402.000694) can0 00D540A0#014A010800000020
(1728630402.000959) can0 00D540A0#FA0049FF00000040
(1728630402.019853) can0 00D5A0C0#401FC0
(1728630402.020261) can0 00D540A0#63030000401F0080
(1728630402.020555) can0 00D540A0#0000000400FCFF20
(1728630402.020862) can0 00D540A0#9D0F00002D012900
(1728630402.021147) can0 00D540A0#014A010800000020
(1728630402.021430) can0 00D540A0#FA004CFF00000040
(1728630402.035159) can0 00D5A0C0#401FC0
(1728630402.035389) can0 00D540A0#79960000401F0080
(1728630402.035749) can0 00D540A0#0000000300FBFF20
(1728630402.036000) can0 00D540A0#9B0F00002D012900
(1728630402.036282) can0 00D540A0#014A010800000020
(1728630402.036570) can0 00D540A0#FA004DFF00000040
(1728630402.052193) can0 00D5A0C0#401FC0
(1728630402.052669) can0 00D540A0#DCAA0000401F0080
(1728630402.052940) can0 00D540A0#0000000100FBFF20
(1728630402.053237) can0 00D540A0#9B0F00002D012900
(1728630402.053521) can0 00D540A0#014A010800000020
(1728630402.053858) can0 00D540A0#F0004FFF00000040
(1728630402.069005) can0 00D5A0C0#401FC0
(1728630402.069141) can0 00D540A0#E6790000401F0080
(1728630402.069729) can0 00D540A0#000000F5FFFCFF20
(1728630402.069850) can0 00D540A0#9D0F00002D012900
(1728630402.070027) can0 00D540A0#014A010800000020
(1728630402.070329) can0 00D540A0#F00050FF00000040
(1728630402.098745) can0 00D5A0C0#401FC0
(1728630402.099147) can0 00D540A0#CE210000401F0080
(1728630402.099436) can0 00D540A0#000000F4FFFCFF20
(1728630402.099797) can0 00D540A0#9D0F00002D012900
(1728630402.100026) can0 00D540A0#014A010800000020
(1728630402.100315) can0 00D540A0#FA0053FF00000040
(1728630402.118211) can0 00D5A0C0#401FC0
(1728630402.118688) can0 00D540A0#4E1F0000401F0080
(1728630402.118937) can0 00D540A0#0000000100FCFF20
(1728630402.119242) can0 00D540A0#9D0F00002D012900
(1728630402.119532) can0 00D540A0#014A010800000020
(1728630402.119857) can0 00D540A0#F00055FF00000040
(1728630402.136451) can0 00D5A0C0#401FC0
(1728630402.136739) can0 00D540A0#511A0000401F0080
(1728630402.136997) can0 00D540A0#0000000000FBFF20
(1728630402.137301) can0 00D540A0#9B0F00002D012900
(1728630402.137582) can0 00D540A0#014A010800000020
(1728630402.137874) can0 00D540A0#FA0057FF00000040
(1728630402.151907) can0 00D5A0C0#401FC0
(1728630402.152361) can0 00D540A0#48630000401F0080
(1728630402.152714) can0 00D540A0#000000F4FFFBFF20
(1728630402.152984) can0 00D540A0#9B0F00002D012900
(1728630402.153262) can0 00D540A0#014A010800000020
(1728630402.153551) can0 00D540A0#F00059FF00000040
(1728630402.168973) can0 00D5A0C0#401FC0
(1728630402.169231) can0 00D540A0#FC7A0000401F0080
(1728630402.169511) can0 00D540A0#000000F4FFFCFF20
(1728630402.169830) can0 00D540A0#9D0F00002D012900
(1728630402.170084) can0 00D540A0#014A010800000020
(1728630402.170365) can0 00D540A0#F0005AFF00000040
(1728630402.198298) can0 00D5A0C0#401FC0
(1728630402.198497) can0 00D540A0#8C730000401F0080
(1728630402.198802) can0 00D540A0#000000F5FFFBFF20
(1728630402.199042) can0 00D540A0#9D0F00002D012900
(1728630402.199340) can0 00D540A0#014A010800000020
(1728630402.199695) can0 00D540A0#F0005DFF00000040
(1728630402.219516) can0 00D5A0C0#401FC0
(1728630402.219659) can0 00D540A0#CB700000401F0080
(1728630402.219934) can0 00D540A0#0000000600F9FF20
(1728630402.220231) can0 00D540A0#9D0F00002D012900
(1728630402.220513) can0 00D540A0#014A010800000020
(1728630402.220861) can0 00D540A0#F0005FFF00000040
(1728630402.235445) can0 00D5A0C0#401FC0
(1728630402.235767) can0 00D540A0#4C070000401F0080
(1728630402.236021) can0 00D540A0#0000000000FBFF20
(1728630402.236311) can0 00D540A0#9D0F00002D012900
(1728630402.236666) can0 00D540A0#014A010800000020
(1728630402.236924) can0 00D540A0#FA0061FF00000040
(1728630402.251946) can0 00D5A0C0#401FC0
(1728630402.252196) can0 00D540A0#55E30000401F0080
(1728630402.252514) can0 00D540A0#0000000100F9FF20
(1728630402.252845) can0 00D540A0#9B0F00002D012900
(1728630402.253080) can0 00D540A0#014A010800000020
(1728630402.253367) can0 00D540A0#F00063FF00000040
(1728630402.268417) can0 00D5A0C0#401FC0
(1728630402.268865) can0 00D540A0#E1920000401F0080
(1728630402.269183) can0 00D540A0#0000000100FBFF20
(1728630402.269505) can0 00D540A0#9D0F00002D012900
(1728630402.269789) can0 00D540A0#014A010800000020
(1728630402.270047) can0 00D540A0#F00064FF00000040
(1728630402.298439) can0 00D5A0C0#401FC0
(1728630402.298760) can0 00D540A0#BAE50000401F0080
(1728630402.299015) can0 00D540A0#000000F5FFFBFF20
(1728630402.299297) can0 00D540A0#9B0F00002D012900
(1728630402.299662) can0 00D540A0#014A010800000020
(1728630402.299918) can0 00D540A0#F00067FF00000040
(1728630402.318945) can0 00D5A0C0#401FC0
(1728630402.319197) can0 00D540A0#FD440000401F0080
(1728630402.319510) can0 00D540A0#0000000100FCFF20
(1728630402.319838) can0 00D540A0#9B0F00002D012900
(1728630402.320083) can0 00D540A0#014A010800000020
(1728630402.320369) can0 00D540A0#F00069FF00000040
(1728630402.334846) can0 00D5A0C0#401FC0
(1728630402.335318) can0 00D540A0#20D80000401F0080
(1728630402.335655) can0 00D540A0#0000000100FBFF20
(1728630402.335908) can0 00D540A0#9B0F00002D012900
(1728630402.336192) can0 00D540A0#014A010800000020
(1728630402.336487) can0 00D540A0#FA006BFF00000040
(1728630402.366447) can0 00D5A0C0#401FC0
(1728630402.366940) can0 00D540A0#47490000401F0080
(1728630402.367222) can0 00D540A0#0000000300F9FF20
(1728630402.367525) can0 00D540A0#9B0F00002D012900
(1728630402.367857) can0 00D540A0#014A010800000020
(1728630402.368100) can0 00D540A0#F0006EFF00000040
(1728630402.372859) can0 00D5A0C0#401FC0
(1728630402.373352) can0 00D540A0#6D510000401F0080
(1728630402.373703) can0 00D540A0#000000F4FFFBFF20
(1728630402.373995) can0 00D540A0#9B0F00002D012900
(1728630402.374251) can0 00D540A0#014A010800000020
(1728630402.374551) can0 00D540A0#FA006FFF00000040
(1728630402.398663) can0 00D5A0C0#401FC0
(1728630402.399099) can0 00D540A0#34FA0000401F0080
(1728630402.399407) can0 00D540A0#0000000600FBFF20
(1728630402.399748) can0 00D540A0#970F00002D012900
(1728630402.399996) can0 00D540A0#014A010800000020
(1728630402.400291) can0 00D540A0#FA0071FF00000040
(1728630402.419885) can0 00D5A0C0#401FC0
(1728630402.420125) can0 00D540A0#AE4E0000401F0080
(1728630402.420431) can0 00D540A0#000000F4FFFCFF20
(1728630402.420780) can0 00D540A0#9D0F00002D012900
(1728630402.421005) can0 00D540A0#014A010800000020
(1728630402.421294) can0 00D540A0#FA0074FF00000040
(1728630402.435680) can0 00D5A0C0#401FC0
(1728630402.436078) can0 00D540A0#DA8E0000401F0080
(1728630402.436352) can0 00D540A0#0000000300F9FF20
(1728630402.436673) can0 00D540A0#9D0F00002D012900
(1728630402.436937) can0 00D540A0#014A010800000020
(1728630402.437226) can0 00D540A0#FA0075FF00000040
(1728630402.452555) can0 00D5A0C0#401FC0
(1728630402.453055) can0 00D540A0#32530000401F0080
(1728630402.453344) can0 00D540A0#000000F4FFFCFF20
(1728630402.453679) can0 00D540A0#9D0F00002D012900
(1728630402.453937) can0 00D540A0#014A010800000020
(1728630402.454221) can0 00D540A0#F00077FF00000040
(1728630402.469066) can0 00D5A0C0#401FC0
(1728630402.469475) can0 00D540A0#F8960000401F0080
(1728630402.470115) can0 00D540A0#0000000300FBFF20
(1728630402.470123) can0 00D540A0#9D0F00002D012900
(1728630402.470375) can0 00D540A0#014A010800000020
(1728630402.472095) can0 00D540A0#F00078FF00000040
(1728630402.498064) can0 00D5A0C0#401FC0
(1728630402.498358) can0 00D540A0#E58F0000401F0080
(1728630402.498684) can0 00D540A0#000000F5FFF9FF20
(1728630402.498955) can0 00D540A0#9D0F00002D012900
(1728630402.499243) can0 00D540A0#014A010800000020
(1728630402.499539) can0 00D540A0#FA007BFF00000040
(1728630402.518144) can0 00D5A0C0#401FC0
(1728630402.518653) can0 00D540A0#40E40000401F0080
(1728630402.518895) can0 00D540A0#0000000500FBFF20
(1728630402.519159) can0 00D540A0#9B0F00002D012900
(1728630402.519471) can0 00D540A0#014A010800000020
(1728630402.519816) can0 00D540A0#F0007DFF00000040
(1728630402.535388) can0 00D5A0C0#401FC0
(1728630402.535715) can0 00D540A0#41890000401F0080
(1728630402.535967) can0 00D540A0#000000F4FFFBFF20
(1728630402.536289) can0 00D540A0#9D0F00002D012900
(1728630402.536572) can0 00D540A0#014A010800000020
(1728630402.536882) can0 00D540A0#FA007FFF00000040
(1728630402.551996) can0 00D5A0C0#401FC0
(1728630402.552458) can0 00D540A0#DF6F0000401F0080
(1728630402.552810) can0 00D540A0#000000F4FFF9FF20
(1728630402.553075) can0 00D540A0#9B0F00002D012900
(1728630402.553363) can0 00D540A0#014A010800000020
(1728630402.553691) can0 00D540A0#FA0081FF00000040
(1728630402.568440) can0 00D5A0C0#401FC0
(1728630402.568735) can0 00D540A0#6B7B0000401F0080
(1728630402.568977) can0 00D540A0#000000FFFFFBFF20
(1728630402.569269) can0 00D540A0#9B0F00002D012900
(1728630402.569565) can0 00D540A0#014A010800000020
(1728630402.569853) can0 00D540A0#F00082FF00000040
(1728630402.598535) can0 00D5A0C0#401FC0
(1728630402.599076) can0 00D540A0#F2F00000401F0080
(1728630402.599345) can0 00D540A0#0000000100FBFF20
(1728630402.599668) can0 00D540A0#9D0F00002D012900
(1728630402.599933) can0 00D540A0#014A010800000020
(1728630402.600224) can0 00D540A0#FA0085FF00000040
(1728630402.618568) can0 00D5A0C0#401FC0
(1728630402.619057) can0 00D540A0#57CC0000401F0080
(1728630402.619332) can0 00D540A0#0000000300FBFF20
(1728630402.619640) can0 00D540A0#9D0F00002D012900
(1728630402.619917) can0 00D540A0#014A010800000020
(1728630402.620218) can0 00D540A0#F00087FF00000040
(1728630402.636046) can0 00D5A0C0#401FC0
(1728630402.636289) can0 00D540A0#927B0000401F0080
(1728630402.636667) can0 00D540A0#000000F4FFFBFF20
(1728630402.636894) can0 00D540A0#9D0F00002D012900
(1728630402.637566) can0 00D540A0#014A010800000020
(1728630402.637574) can0 00D540A0#FA0089FF00000040
(1728630402.652245) can0 00D5A0C0#401FC0
(1728630402.652738) can0 00D540A0#69A00000401F0080
(1728630402.652991) can0 00D540A0#0000000400FBFF20
(1728630402.653275) can0 00D540A0#9B0F00002D012900
(1728630402.653639) can0 00D540A0#014A010800000020
(1728630402.653902) can0 00D540A0#FA008BFF00000040
(1728630402.668891) can0 00D5A0C0#401FC0
(1728630402.669100) can0 00D540A0#C3B40000401F0080
(1728630402.669377) can0 00D540A0#000000FFFFFBFF20
(1728630402.669716) can0 00D540A0#9B0F00002D012900
(1728630402.669962) can0 00D540A0#014A010800000020
(1728630402.670276) can0 00D540A0#F0008CFF00000040
(1728630402.698574) can0 00D5A0C0#401FC0
(1728630402.698867) can0 00D540A0#3A220000401F0080
(1728630402.699152) can0 00D540A0#0000001000F9FF20
(1728630402.699452) can0 00D540A0#9D0F00002D012900
(1728630402.699789) can0 00D540A0#014A010800000020
(1728630402.700028) can0 00D540A0#FA008FFF00000040
(1728630402.719162) can0 00D5A0C0#401FC0
(1728630402.719660) can0 00D540A0#A0010000401F0080
(1728630402.719896) can0 00D540A0#0000000300FCFF20
(1728630402.720216) can0 00D540A0#9B0F00002D012900
(1728630402.720503) can0 00D540A0#014A010800000020
(1728630402.720823) can0 00D540A0#FA0091FF00000040
(1728630402.735249) can0 00D5A0C0#401FC0
(1728630402.735475) can0 00D540A0#CC140000401F0080
(1728630402.735798) can0 00D540A0#0000000500FCFF20
(1728630402.736096) can0 00D540A0#9D0F00002D012900
(1728630402.736363) can0 00D540A0#014A010800000020
(1728630402.736688) can0 00D540A0#FA0093FF00000040
(1728630402.752387) can0 00D5A0C0#401FC0
(1728630402.752698) can0 00D540A0#DD080000401F0080
(1728630402.752962) can0 00D540A0#0000000D00FCFF20
(1728630402.753285) can0 00D540A0#9B0F00002D012900
(1728630402.753555) can0 00D540A0#014A010800000020
(1728630402.753858) can0 00D540A0#FA0095FF00000040
(1728630402.768991) can0 00D5A0C0#401FC0
(1728630402.769216) can0 00D540A0#311A0000401F0080
(1728630402.769522) can0 00D540A0#000000F4FFFBFF20
(1728630402.769844) can0 00D540A0#9D0F00002D012900
(1728630402.770105) can0 00D540A0#014A010800000020
(1728630402.770394) can0 00D540A0#FA0096FF00000040
(1728630402.798361) can0 00D5A0C0#401FC0
(1728630402.798461) can0 00D540A0#7C3A0000401F0080
(1728630402.798804) can0 00D540A0#000000F5FFFBFF20
(1728630402.799071) can0 00D540A0#9D0F00002D012900
(1728630402.799353) can0 00D540A0#014A010800000020
(1728630402.799677) can0 00D540A0#FA0099FF00000040
(1728630402.818524) can0 00D5A0C0#401FC0
(1728630402.818953) can0 00D540A0#05C80000401F0080
(1728630402.819295) can0 00D540A0#000000F4FFFBFF20
(1728630402.819665) can0 00D540A0#9D0F00002D012900
(1728630402.819875) can0 00D540A0#014A010800000020
(1728630402.820147) can0 00D540A0#F0009BFF00000040
(1728630402.835558) can0 00D5A0C0#401FC0
(1728630402.836032) can0 00D540A0#B3A50000401F0080
(1728630402.836315) can0 00D540A0#0000000300FCFF20
(1728630402.836630) can0 00D540A0#9D0F00002D012900
(1728630402.836906) can0 00D540A0#014A010800000020
(1728630402.837195) can0 00D540A0#F0009DFF00000040
(1728630402.852406) can0 00D5A0C0#401FC0
(1728630402.852729) can0 00D540A0#901D0000401F0080
(1728630402.853017) can0 00D540A0#0000000600FBFF20
(1728630402.853317) can0 00D540A0#990F00002D012900
(1728630402.853663) can0 00D540A0#014A010800000020
(1728630402.853886) can0 00D540A0#FA009FFF00000040
(1728630402.869001) can0 00D5A0C0#401FC0
(1728630402.869434) can0 00D540A0#B0460000401F0080
(1728630402.869793) can0 00D540A0#000000F5FFFCFF20
(1728630402.870053) can0 00D540A0#9D0F00002D012900
(1728630402.870336) can0 00D540A0#014A010800000020
(1728630402.870665) can0 00D540A0#F000A0FF00000040
(1728630402.898388) can0 00D5A0C0#401FC0
(1728630402.898857) can0 00D540A0#CBA80000401F0080
(1728630402.899124) can0 00D540A0#0000000300F9FF20
(1728630402.899431) can0 00D540A0#9B0F00002D012900
(1728630402.899755) can0 00D540A0#014A010800000020
(1728630402.900013) can0 00D540A0#FA00A3FF00000040
(1728630402.918291) can0 00D5A0C0#401FC0
(1728630402.918830) can0 00D540A0#0DF80000401F0080
(1728630402.919076) can0 00D540A0#000000F4FFFBFF20
(1728630402.919373) can0 00D540A0#9D0F00002D012900
(1728630402.919727) can0 00D540A0#014A010800000020
(1728630402.919950) can0 00D540A0#FA00A5FF00000040
(1728630402.935131) can0 00D5A0C0#401FC0
(1728630402.935318) can0 00D540A0#8B4F0000401F0080
(1728630402.935686) can0 00D540A0#0000000100FBFF20
(1728630402.935930) can0 00D540A0#9D0F00002D012900
(1728630402.936229) can0 00D540A0#014A010800000020
(1728630402.936511) can0 00D540A0#F000A7FF00000040
(1728630402.951982) can0 00D5A0C0#401FC0
(1728630402.952229) can0 00D540A0#AEB40000401F0080
(1728630402.952530) can0 00D540A0#0000000300FCFF20
(1728630402.952829) can0 00D540A0#990F00002D012900
(1728630402.953112) can0 00D540A0#014A010800000020
(1728630402.953396) can0 00D540A0#FA00A9FF00000040
(1728630402.968485) can0 00D5A0C0#401FC0
(1728630402.969020) can0 00D540A0#E4B60000401F0080
(1728630402.969314) can0 00D540A0#000000F4FFFCFF20
(1728630402.969625) can0 00D540A0#9D0F00002D012900
(1728630402.969903) can0 00D540A0#014A010800000020
(1728630402.970187) can0 00D540A0#FA00AAFF00000040
(1728630402.997962) can0 00D5A0C0#401FC0
(1728630402.998435) can0 00D540A0#0E2D0000401F0080
(1728630402.998775) can0 00D540A0#0000000D00FBFF20
(1728630402.999059) can0 00D540A0#9B0F00002D012900
(1728630402.999335) can0 00D540A0#014A010800000020
(1728630402.999624) can0 00D540A0#FA00ADFF00000040
(1728630403.018825) can0 00D5A0C0#401FC0
(1728630403.019220) can0 00D540A0#41B30000401F0080
(1728630403.019502) can0 00D540A0#000000FCFFFBFF20
(1728630403.019825) can0 00D540A0#9D0F00002D012900
(1728630403.020090) can0 00D540A0#014A010800000020
(1728630403.020373) can0 00D540A0#FA00AFFF00000040
(1728630403.035833) can0 00D5A0C0#401FC0
(1728630403.036290) can0 00D540A0#95000000401F0080
(1728630403.037189) can0 00D540A0#000000FEFFFBFF20
(1728630403.037197) can0 00D540A0#9D0F00002D012900
(1728630403.037201) can0 00D540A0#014A010800000020
(1728630403.037446) can0 00D540A0#F000B1FF00000040
(1728630403.051749) can0 00D5A0C0#401FC0
(1728630403.052177) can0 00D540A0#891A0000401F0080
(1728630403.052494) can0 00D540A0#0000000100FCFF20
(1728630403.052824) can0 00D540A0#9D0F00002D012900
(1728630403.053083) can0 00D540A0#014A010800000020
(1728630403.053374) can0 00D540A0#FA00B3FF00000040
(1728630403.069064) can0 00D5A0C0#401FC0
(1728630403.069518) can0 00D540A0#E95B0000401F0080
(1728630403.069821) can0 00D540A0#0000001100F9FF20
(1728630403.070118) can0 00D540A0#9B0F00002D012900
(1728630403.070410) can0 00D540A0#014A010800000020
(1728630403.071185) can0 00D540A0#FA00B4FF00000040
(1728630403.098855) can0 00D5A0C0#401FC0
(1728630403.099267) can0 00D540A0#8F930000401F0080
(1728630403.099928) can0 00D540A0#0000000100FCFF20
(1728630403.099936) can0 00D540A0#9D0F00002D012900
(1728630403.100158) can0 00D540A0#014A010800000020
(1728630403.100466) can0 00D540A0#FA00B7FF00000040
(1728630403.118210) can0 00D5A0C0#401FC0
(1728630403.118703) can0 00D540A0#C8320000401F0080
(1728630403.118957) can0 00D540A0#000000F5FFFBFF20
(1728630403.119233) can0 00D540A0#9D0F00002D012900
(1728630403.119617) can0 00D540A0#014A010800000020
(1728630403.119864) can0 00D540A0#FA00B9FF00000040
(1728630403.135233) can0 00D5A0C0#401FC0
(1728630403.135670) can0 00D540A0#924B0000401F0080
(1728630403.135942) can0 00D540A0#0000000300FBFF20
(1728630403.136234) can0 00D540A0#9D0F00002D012900
(1728630403.136530) can0 00D540A0#014A010800000020
(1728630403.137284) can0 00D540A0#F000BBFF00000040
(1728630403.151716) can0 00D5A0C0#401FC0
(1728630403.152132) can0 00D540A0#85BB0000401F0080
(1728630403.152434) can0 00D540A0#0000000000FBFF20
(1728630403.152769) can0 00D540A0#9D0F00002D012900
(1728630403.153016) can0 00D540A0#014A010800000020
(1728630403.153299) can0 00D540A0#FA00BDFF00000040
(1728630403.168706) can0 00D5A0C0#401FC0
(1728630403.169028) can0 00D540A0#E3100000401F0080
(1728630403.169312) can0 00D540A0#0000000100FBFF20
(1728630403.169650) can0 00D540A0#9D0F00002D012900
(1728630403.169895) can0 00D540A0#014A010800000020
(1728630403.170182) can0 00D540A0#FA00BEFF00000040
(1728630403.198517) can0 00D5A0C0#401FC0
(1728630403.198830) can0 00D540A0#B1CE0000401F0080
(1728630403.199084) can0 00D540A0#0000001C00FBFF20
(1728630403.199372) can0 00D540A0#9D0F00002D012900
(1728630403.200021) can0 00D540A0#014A010800000020
(1728630403.200033) can0 00D540A0#F000C1FF00000040
(1728630403.218308) can0 00D5A0C0#401FC0
(1728630403.218785) can0 00D540A0#32DB0000401F0080
(1728630403.219044) can0 00D540A0#000000F4FFFCFF20
(1728630403.219352) can0 00D540A0#9B0F00002D012900
(1728630403.219669) can0 00D540A0#014A010800000020
(1728630403.219927) can0 00D540A0#FA00C3FF00000040
(1728630403.235681) can0 00D5A0C0#401FC0
(1728630403.235816) can0 00D540A0#AA530000401F0080
(1728630403.236077) can0 00D540A0#0000000300F9FF20
(1728630403.236653) can0 00D540A0#9D0F00002D012900
(1728630403.236705) can0 00D540A0#014A010800000020
(1728630403.236983) can0 00D540A0#F000C5FF00000040
(1728630403.251641) can0 00D5A0C0#401FC0
(1728630403.252123) can0 00D540A0#24790000401F0080
(1728630403.252442) can0 00D540A0#000000F4FFFBFF20
(1728630403.252779) can0 00D540A0#9B0F00002D012900
(1728630403.253016) can0 00D540A0#014A010800000020
(1728630403.253309) can0 00D540A0#FA00C7FF00000040
(1728630403.268418) can0 00D5A0C0#401FC0
(1728630403.268786) can0 00D540A0#8B540000401F0080
(1728630403.269053) can0 00D540A0#000000FDFFFBFF20
(1728630403.269351) can0 00D540A0#9B0F00002D012900
(1728630403.269669) can0 00D540A0#014A010800000020
(1728630403.269916) can0 00D540A0#FA00C8FF00000040
(1728630403.298680) can0 00D5A0C0#401FC0
(1728630403.299012) can0 00D540A0#1A150000401F0080
(1728630403.299302) can0 00D540A0#000000F3FFFBFF20
(1728630403.299951) can0 00D540A0#9D0F00002D012900
(1728630403.299963) can0 00D540A0#014A010800000020
(1728630403.300170) can0 00D540A0#F000CBFF00000040
(1728630403.318649) can0 00D5A0C0#401FC0
(1728630403.319071) can0 00D540A0#EA290000401F0080
(1728630403.319330) can0 00D540A0#000000F4FFF9FF20
(1728630403.319618) can0 00D540A0#9D0F00002D012900
(1728630403.319928) can0 00D540A0#014A010800000020
(1728630403.320234) can0 00D540A0#FA00CDFF00000040
(1728630403.335396) can0 00D5A0C0#401FC0
(1728630403.335612) can0 00D540A0#12DF0000401F0080
(1728630403.335863) can0 00D540A0#0000000300FBFF20
(1728630403.336170) can0 00D540A0#9D0F00002D012900
(1728630403.336446) can0 00D540A0#014A010800000020
(1728630403.336768) can0 00D540A0#F000CFFF00000040
(1728630403.351885) can0 00D5A0C0#401FC0
(1728630403.352349) can0 00D540A0#FBB00000401F0080
(1728630403.352654) can0 00D540A0#000000F4FFFBFF20
(1728630403.352911) can0 00D540A0#9B0F00002D012900
(1728630403.353200) can0 00D540A0#014A010800000020
(1728630403.353773) can0 00D540A0#FA00D1FF00000040
(1728630403.368643) can0 00D5A0C0#401FC0
(1728630403.369361) can0 00D540A0#0000000500FCFF20
(1728630403.369698) can0 00D540A0#9F0F00002D012900
(1728630403.369968) can0 00D540A0#014A010800000020
(1728630403.370285) can0 00D540A0#FA00D2FF00000040
(1728630403.399007) can0 00D5A0C0#401FC0
(1728630403.399251) can0 00D540A0#C5160000401F0080
(1728630403.399612) can0 00D540A0#000000F4FFFBFF20
(1728630403.399843) can0 00D540A0#9D0F00002D012900
(1728630403.400142) can0 00D540A0#014A010800000020
(1728630403.400420) can0 00D540A0#F000D5FF00000040
(1728630403.418633) can0 00D5A0C0#401FC0
(1728630403.418895) can0 00D540A0#357D0000401F0080
(1728630403.419195) can0 00D540A0#0000000100FBFF20
(1728630403.419476) can0 00D540A0#9B0F00002D012900
(1728630403.419816) can0 00D540A0#014A010800000020
(1728630403.420050) can0 00D540A0#FA00D7FF00000040
(1728630403.435305) can0 00D5A0C0#401FC0
(1728630403.435780) can0 00D540A0#AE430000401F0080
(1728630403.436044) can0 00D540A0#0000001E00FBFF20
(1728630403.436334) can0 00D540A0#9D0F00002D012900
(1728630403.436659) can0 00D540A0#014A010800000020
(1728630403.436906) can0 00D540A0#F000D9FF00000040
(1728630403.451846) can0 00D5A0C0#401FC0
(1728630403.452076) can0 00D540A0#75620000401F0080
(1728630403.452348) can0 00D540A0#000000FDFFFBFF20
(1728630403.453014) can0 00D540A0#9D0F00002D012900
(1728630403.453026) can0 00D540A0#014A010800000020
(1728630403.453248) can0 00D540A0#FA00DBFF00000040
(1728630403.468922) can0 00D5A0C0#401FC0
(1728630403.469401) can0 00D540A0#B2310000401F0080
(1728630403.469724) can0 00D540A0#0000000300FCFF20
(1728630403.469968) can0 00D540A0#9B0F00002D012900
(1728630403.470278) can0 00D540A0#014A010800000020
(1728630403.470602) can0 00D540A0#FA00DCFF00000040
(1728630403.497949) can0 00D5A0C0#401FC0
(1728630403.498399) can0 00D540A0#DAE60000401F0080
(1728630403.498729) can0 00D540A0#0000000000FBFF20
(1728630403.498970) can0 00D540A0#9D0F00002D012900
(1728630403.499277) can0 00D540A0#014A010800000020
(1728630403.499601) can0 00D540A0#FA00DFFF00000040
(1728630403.519336) can0 00D5A0C0#401FC0
(1728630403.519624) can0 00D540A0#FB8C0000401F0080
(1728630403.519906) can0 00D540A0#0000000300FBFF20
(1728630403.520242) can0 00D540A0#990F00002D012900
(1728630403.520499) can0 00D540A0#014A010800000020
(1728630403.520835) can0 00D540A0#FA00E1FF00000040
(1728630403.535786) can0 00D5A0C0#401FC0
(1728630403.536229) can0 00D540A0#8D5C0000401F0080
(1728630403.537101) can0 00D540A0#0000000300FBFF20
(1728630403.537116) can0 00D540A0#9D0F00002D012900
(1728630403.537144) can0 00D540A0#014A010800000020
(1728630403.537411) can0 00D540A0#F000E3FF00000040
(1728630403.552548) can0 00D5A0C0#401FC0
(1728630403.552829) can0 00D540A0#50A80000401F0080
(1728630403.553093) can0 00D540A0#0000000300F9FF20
(1728630403.553394) can0 00D540A0#9D0F00002D012900
(1728630403.553716) can0 00D540A0#014A010800000020
(1728630403.553963) can0 00D540A0#FA00E5FF00000040
(1728630403.568986) can0 00D5A0C0#401FC0
(1728630403.569435) can0 00D540A0#58690000401F0080
(1728630403.569772) can0 00D540A0#0000000000FCFF20
(1728630403.570022) can0 00D540A0#9D0F00002D012900
(1728630403.570319) can0 00D540A0#014A010800000020
(1728630403.570607) can0 00D540A0#FA00E6FF00000040
(1728630403.598159) can0 00D5A0C0#401FC0
(1728630403.598646) can0 00D540A0#00910000401F0080
(1728630403.598909) can0 00D540A0#000000F4FFFBFF20
(1728630403.599199) can0 00D540A0#9D0F00002D012900
(1728630403.599488) can0 00D540A0#014A010800000020
(1728630403.599791) can0 00D540A0#F000E9FF00000040
(1728630403.618518) can0 00D5A0C0#401FC0
(1728630403.618988) can0 00D540A0#F8670000401F0080
(1728630403.619279) can0 00D540A0#0000000300F9FF20
(1728630403.619627) can0 00D540A0#9D0F00002D012900
(1728630403.619861) can0 00D540A0#014A010800000020
(1728630403.620150) can0 00D540A0#FA00EBFF00000040
(1728630403.635220) can0 00D5A0C0#401FC0
(1728630403.635979) can0 00D540A0#60EF0000401F0080
(1728630403.635987) can0 00D540A0#000000F4FFFCFF20
(1728630403.636272) can0 00D540A0#9B0F00002D012900
(1728630403.636602) can0 00D540A0#014A010800000020
(1728630403.636846) can0 00D540A0#F000EDFF00000040
(1728630403.651734) can0 00D5A0C0#401FC0
(1728630403.652169) can0 00D540A0#41290000401F0080
(1728630403.652456) can0 00D540A0#000000FEFFFBFF20
(1728630403.652795) can0 00D540A0#9D0F00002D012900
(1728630403.653041) can0 00D540A0#014A010800000020
(1728630403.653337) can0 00D540A0#FA00EFFF00000040
(1728630403.669020) can0 00D5A0C0#401FC0
(1728630403.669031) can0 00D540A0#978B0000401F0080
(1728630403.669343) can0 00D540A0#0000000000FBFF20
(1728630403.670021) can0 00D540A0#9D0F00002D012900
(1728630403.670227) can0 00D540A0#FA00F0FF00000040
(1728630403.698598) can0 00D5A0C0#401FC0
(1728630403.698609) can0 00D540A0#364A0000401F0080
(1728630403.698812) can0 00D540A0#000000F5FFFBFF20
(1728630403.699075) can0 00D540A0#9B0F00002D012900
(1728630403.699371) can0 00D540A0#014A010800000020
(1728630403.699718) can0 00D540A0#F000F3FF00000040
(1728630403.719180) can0 00D5A0C0#401FC0
(1728630403.719642) can0 00D540A0#1C660000401F0080
(1728630403.719901) can0 00D540A0#0000000300FBFF20
(1728630403.720203) can0 00D540A0#9D0F00002D012900
(1728630403.720510) can0 00D540A0#014A010800000020
(1728630403.720807) can0 00D540A0#FA00F5FF00000040
(1728630403.738139) can0 00D5A0C0#401FC0
(1728630403.738433) can0 00D540A0#B1A40000401F0080
(1728630403.738770) can0 00D540A0#0000001200FCFF20
(1728630403.739016) can0 00D540A0#9D0F00002D012900
(1728630403.739299) can0 00D540A0#014A010800000020
(1728630403.739593) can0 00D540A0#F000F7FF00000040
(1728630403.751811) can0 00D5A0C0#401FC0
(1728630403.752225) can0 00D540A0#29BA0000401F0080
(1728630403.752589) can0 00D540A0#0000000100FBFF20
(1728630403.752823) can0 00D540A0#9B0F00002D012900
(1728630403.753106) can0 00D540A0#014A010800000020
(1728630403.753397) can0 00D540A0#FA00F9FF00000040
(1728630403.769010) can0 00D5A0C0#401FC0
(1728630403.769221) can0 00D540A0#EB7F0000401F0080
(1728630403.769895) can0 00D540A0#0000000100FCFF20
(1728630403.769906) can0 00D540A0#9B0F00002D012900
(1728630403.770114) can0 00D540A0#014A010800000020
(1728630403.770399) can0 00D540A0#FA00FAFF00000040
(1728630403.798271) can0 00D5A0C0#401FC0
(1728630403.798383) can0 00D540A0#6CA30000401F0080
(1728630403.798738) can0 00D540A0#000000FDFFFCFF20
(1728630403.799016) can0 00D540A0#9B0F00002D012900
(1728630403.799299) can0 00D540A0#014A010800000020
(1728630403.799600) can0 00D540A0#F000FDFF00000040
(1728630403.818417) can0 00D5A0C0#401FC0
(1728630403.818917) can0 00D540A0#7F9B0000401F0080
(1728630403.819206) can0 00D540A0#0000000300FBFF20
(1728630403.819514) can0 00D540A0#9F0F00002D012900
(1728630403.819855) can0 00D540A0#014A010800000020
(1728630403.820171) can0 00D540A0#FA00FFFF00000040
(1728630403.835330) can0 00D5A0C0#401FC0
(1728630403.835433) can0 00D540A0#0B7A0000401F0080
(1728630403.835744) can0 00D540A0#0000000000FBFF20
(1728630403.836008) can0 00D540A0#9B0F00002D012900
(1728630403.836293) can0 00D540A0#014A010800000020
(1728630403.836591) can0 00D540A0#F000010000000040
(1728630403.851854) can0 00D5A0C0#401FC0
(1728630403.852274) can0 00D540A0#39880000401F0080
(1728630403.852597) can0 00D540A0#000000F4FFFBFF20
(1728630403.853230) can0 00D540A0#9B0F00002D012900
(1728630403.853241) can0 00D540A0#014A010800000020
(1728630403.853455) can0 00D540A0#FA00030000000040
(1728630403.868288) can0 00D5A0C0#401FC0
(1728630403.868773) can0 00D540A0#9B330000401F0080
(1728630403.869021) can0 00D540A0#000000F4FFFBFF20
(1728630403.869316) can0 00D540A0#9D0F00002D012900
(1728630403.869632) can0 00D540A0#014A010800000020
(1728630403.869892) can0 00D540A0#FA00040000000040
(1728630403.898606) can0 00D5A0C0#401FC0
(1728630403.898974) can0 00D540A0#072E0000401F0080
(1728630403.899265) can0 00D540A0#000000F4FFFBFF20
(1728630403.899588) can0 00D540A0#9D0F00002D012900
(1728630403.899848) can0 00D540A0#014A010800000020
(1728630403.900134) can0 00D540A0#F000070000000040
(1728630403.918643) can0 00D5A0C0#401FC0
(1728630403.918977) can0 00D540A0#A9320000401F0080
(1728630403.919282) can0 00D540A0#0000000D00FCFF20
(1728630403.919593) can0 00D540A0#9D0F00002D012900
(1728630403.919852) can0 00D540A0#014A010800000020
(1728630403.920148) can0 00D540A0#FA00090000000040
(1728630403.935353) can0 00D5A0C0#401FC0
(1728630403.935782) can0 00D540A0#22E60000401F0080
(1728630403.936071) can0 00D540A0#0000000400FBFF20
(1728630403.936366) can0 00D540A0#9D0F00002D012900
(1728630403.936688) can0 00D540A0#014A010800000020
(1728630403.936939) can0 00D540A0#F0000B0000000040
(1728630403.953222) can0 00D5A0C0#401FC0
(1728630403.953759) can0 00D540A0#6E020000401F0080
(1728630403.954017) can0 00D540A0#0000000000FBFF20
(1728630403.954320) can0 00D540A0#9B0F00002D012900
(1728630403.954652) can0 00D540A0#014A010800000020
(1728630403.954885) can0 00D540A0#FA000D0000000040
(1728630403.968894) can0 00D5A0C0#401FC0
(1728630403.969378) can0 00D540A0#8E120000401F0080
(1728630403.969726) can0 00D540A0#000000F4FFFBFF20
(1728630403.969997) can0 00D540A0#990F00002D012900
(1728630403.970281) can0 00D540A0#014A010800000020
(1728630403.970580) can0 00D540A0#FA000E0000000040
(1728630404.000416) can0 00D5A0C0#401FC0
(1728630404.000956) can0 00D540A0#690D0000401F0080
(1728630404.001251) can0 00D540A0#0000000100FCFF20
(1728630404.001579) can0 00D540A0#9B0F00002D012900
(1728630404.001855) can0 00D540A0#014A010800000020
(1728630404.002126) can0 00D540A0#FA00120000000040
(1728630404.018383) can0 00D5A0C0#401FC0
(1728630404.018831) can0 00D540A0#9CC90000401F0080
(1728630404.019145) can0 00D540A0#0000000000FBFF20
(1728630404.019439) can0 00D540A0#9B0F00002D012900
(1728630404.019770) can0 00D540A0#014A010800000020
(1728630404.020011) can0 00D540A0#FA00130000000040
(1728630404.034886) can0 00D5A0C0#401FC0
(1728630404.035371) can0 00D540A0#8B390000401F0080
(1728630404.035687) can0 00D540A0#0000000300FBFF20
(1728630404.035940) can0 00D540A0#9B0F00002D012900
(1728630404.036241) can0 00D540A0#014A010800000020
(1728630404.036577) can0 00D540A0#F000150000000040
(1728630404.051996) can0 00D5A0C0#401FC0
(1728630404.052212) can0 00D540A0#26980000401F0080
(1728630404.052501) can0 00D540A0#0000000300F9FF20
(1728630404.052828) can0 00D540A0#9D0F00002D012900
(1728630404.053108) can0 00D540A0#014A010800000020
(1728630404.053384) can0 00D540A0#FA00170000000040
(1728630404.068290) can0 00D5A0C0#401FC0
(1728630404.068772) can0 00D540A0#758C0000401F0080
(1728630404.069025) can0 00D540A0#0000001100FCFF20
(1728630404.069302) can0 00D540A0#9D0F00002D012900
(1728630404.069619) can0 00D540A0#014A010800000020
(1728630404.069887) can0 00D540A0#FA00180000000040
(1728630404.098605) can0 00D5A0C0#401FC0
(1728630404.099026) can0 00D540A0#007D0000401F0080
(1728630404.099310) can0 00D540A0#000000F4FFFBFF20
(1728630404.099646) can0 00D540A0#9B0F00002D012900
(1728630404.099899) can0 00D540A0#014A010800000020
(1728630404.100188) can0 00D540A0#F0001B0000000040
(1728630404.118980) can0 00D5A0C0#401FC0
(1728630404.118992) can0 00D540A0#42DA0000401F0080
(1728630404.119255) can0 00D540A0#0000000000FBFF20
(1728630404.119579) can0 00D540A0#9D0F00002D012900
(1728630404.119832) can0 00D540A0#014A010800000020
(1728630404.120126) can0 00D540A0#FA001D0000000040
(1728630404.135797) can0 00D5A0C0#401FC0
(1728630404.135947) can0 00D540A0#5DE00000401F0080
(1728630404.136249) can0 00D540A0#000000F3FFFBFF20
(1728630404.136607) can0 00D540A0#9D0F00002D012900
(1728630404.136842) can0 00D540A0#014A010800000020
(1728630404.137131) can0 00D540A0#F0001F0000000040
(1728630404.151673) can0 00D5A0C0#401FC0
(1728630404.152083) can0 00D540A0#BBE00000401F0080
(1728630404.152390) can0 00D540A0#0000000400FBFF20
(1728630404.152717) can0 00D540A0#9F0F00002D012900
(1728630404.152986) can0 00D540A0#014A010800000020
(1728630404.153303) can0 00D540A0#FA00210000000040
(1728630404.170107) can0 00D5A0C0#401FC0
(1728630404.170394) can0 00D540A0#E0F80000401F0080
(1728630404.170752) can0 00D540A0#0000000300FBFF20
(1728630404.170998) can0 00D540A0#9B0F00002D012900
(1728630404.171274) can0 00D540A0#014A010800000020
(1728630404.171582) can0 00D540A0#F000230000000040
(1728630404.198333) can0 00D5A0C0#401FC0
(1728630404.198622) can0 00D540A0#BF790000401F0080
(1728630404.198872) can0 00D540A0#0000001100FBFF20
(1728630404.199170) can0 00D540A0#9D0F00002D012900
(1728630404.199462) can0 00D540A0#014A010800000020
(1728630404.199795) can0 00D540A0#F000250000000040
(1728630404.219197) can0 00D5A0C0#401FC0
(1728630404.219660) can0 00D540A0#DE5E0000401F0080
(1728630404.219951) can0 00D540A0#0000000300FBFF20
(1728630404.220222) can0 00D540A0#9D0F00002D012900
(1728630404.220569) can0 00D540A0#014A010800000020
(1728630404.220798) can0 00D540A0#FA00270000000040
(1728630404.236143) can0 00D5A0C0#401FC0
(1728630404.236430) can0 00D540A0#7D1E0000401F0080
(1728630404.236802) can0 00D540A0#000000F4FFFCFF20
(1728630404.237047) can0 00D540A0#9B0F00002D012900
(1728630404.237339) can0 00D540A0#014A010800000020
(1728630404.237682) can0 00D540A0#F000290000000040
(1728630404.252215) can0 00D5A0C0#401FC0
(1728630404.252719) can0 00D540A0#8D4A0000401F0080
(1728630404.252984) can0 00D540A0#000000F3FFFBFF20
(1728630404.253296) can0 00D540A0#9B0F00002D012900
(1728630404.253615) can0 00D540A0#014A010800000020
(1728630404.253871) can0 00D540A0#FA002B0000000040
(1728630404.268466) can0 00D5A0C0#401FC0
(1728630404.268955) can0 00D540A0#42BB0000401F0080
(1728630404.269247) can0 00D540A0#000000FDFFF9FF20
(1728630404.269602) can0 00D540A0#9D0F00002D012900
(1728630404.269845) can0 00D540A0#014A010800000020
(1728630404.270127) can0 00D540A0#FA002C0000000040
(1728630404.298519) can0 00D5A0C0#401FC0
(1728630404.298799) can0 00D540A0#CDF10000401F0080
(1728630404.299663) can0 00D540A0#0000001200FBFF20
(1728630404.299674) can0 00D540A0#9D0F00002D012900
(1728630404.299730) can0 00D540A0#014A010800000020
(1728630404.300019) can0 00D540A0#F0002F0000000040
(1728630404.319139) can0 00D5A0C0#401FC0
(1728630404.319639) can0 00D540A0#54C00000401F0080
(1728630404.319897) can0 00D540A0#000000F4FFFBFF20
(1728630404.320178) can0 00D540A0#9B0F00002D012900
(1728630404.320501) can0 00D540A0#014A010800000020
(1728630404.320813) can0 00D540A0#FA00310000000040
(1728630404.335087) can0 00D5A0C0#401FC0
(1728630404.335278) can0 00D540A0#0DA60000401F0080
(1728630404.335588) can0 00D540A0#000000FCFFFBFF20
(1728630404.335866) can0 00D540A0#9D0F00002D012900
(1728630404.336134) can0 00D540A0#014A010800000020
(1728630404.336429) can0 00D540A0#F000330000000040
(1728630404.352258) can0 00D5A0C0#401FC0
(1728630404.352780) can0 00D540A0#49ED0000401F0080
(1728630404.353025) can0 00D540A0#0000000300FBFF20
(1728630404.353301) can0 00D540A0#9D0F00002D012900
(1728630404.353670) can0 00D540A0#014A010800000020
(1728630404.353928) can0 00D540A0#F000350000000040
(1728630404.368541) can0 00D5A0C0#401FC0
(1728630404.368790) can0 00D540A0#D5F00000401F0080
(1728630404.369050) can0 00D540A0#0000000300FBFF20
(1728630404.369357) can0 00D540A0#9D0F00002D012900
(1728630404.369669) can0 00D540A0#014A010800000020
(1728630404.369922) can0 00D540A0#FA00360000000040
(1728630404.398470) can0 00D5A0C0#401FC0
(1728630404.398754) can0 00D540A0#37310000401F0080
(1728630404.398992) can0 00D540A0#000000F4FFFBFF20
(1728630404.399289) can0 00D540A0#9B0F00002D012900
(1728630404.399644) can0 00D540A0#014A010800000020
(1728630404.399862) can0 00D540A0#F000390000000040
(1728630404.419833) can0 00D5A0C0#401FC0
