(1728458489.567252) can0 00D540A0#0000000000F7FF20
(1728458489.567350) can0 00D540A0#CE070000F800F600
(1728458489.567600) can0 00D540A0#000E010800000020
(1728458489.567885) can0 00D540A0#D2004E0A00000040
(1728458489.587321) can0 00D5A0C0#401FC0
(1728458489.587762) can0 00D540A0#755D0000401F0080
(1728458489.588087) can0 00D540A0#0000000000F6FF20
(1728458489.588334) can0 00D540A0#CC070000F800F600
(1728458489.588630) can0 00D540A0#000E010800000020
(1728458489.588922) can0 00D540A0#D200500A00000040
(1728458489.609456) can0 00D5A0C0#401FC0
(1728458489.610025) can0 00D540A0#3BA20000401F0080
(1728458489.610262) can0 00D540A0#0000000000F6FF20
(1728458489.610554) can0 00D540A0#CE070000F800F600
(1728458489.610830) can0 00D540A0#000E010800000020
(1728458489.611163) can0 00D540A0#D200520A00000040
(1728458489.631304) can0 00D5A0C0#401FC0
(1728458489.631717) can0 00D540A0#B50A0000401F0080
(1728458489.632024) can0 00D540A0#0000000000F7FF20
(1728458489.632313) can0 00D540A0#CE070000F800F600
(1728458489.632606) can0 00D540A0#000E010800000020
(1728458489.632884) can0 00D540A0#D200540A00000040
(1728458489.653237) can0 00D5A0C0#401FC0
(1728458489.653638) can0 00D540A0#A13A0000401F0080
(1728458489.653943) can0 00D540A0#0000000000F6FF20
(1728458489.654230) can0 00D540A0#CC070000F800F600
(1728458489.654525) can0 00D540A0#000E010800000020
(1728458489.654815) can0 00D540A0#D200570A00000040
(1728458489.675485) can0 00D5A0C0#401FC0
(1728458489.676029) can0 00D540A0#09F50000401F0080
(1728458489.676260) can0 00D540A0#0000000000F6FF20
(1728458489.676545) can0 00D540A0#CC070000F800F600
(1728458489.676838) can0 00D540A0#000E010800000020
(1728458489.677158) can0 00D540A0#D200590A00000040
(1728458489.697409) can0 00D5A0C0#401FC0
(1728458489.697823) can0 00D540A0#72CE0000401F0080
(1728458489.698167) can0 00D540A0#0000000000F6FF20
(1728458489.698415) can0 00D540A0#CE070000F800F600
(1728458489.698704) can0 00D540A0#000E010800000020
(1728458489.699033) can0 00D540A0#C8005B0A00000040
(1728458489.719436) can0 00D5A0C0#401FC0
(1728458489.719885) can0 00D540A0#04190000401F0080
(1728458489.720232) can0 00D540A0#0000000000F7FF20
(1728458489.720480) can0 00D540A0#CC070000F800F600
(1728458489.720778) can0 00D540A0#000E010800000020
(1728458489.721106) can0 00D540A0#D2005D0A00000040
(1728458489.738040) can0 00D5A0C0#401FC0
(1728458489.738399) can0 00D540A0#4AE60000401F0080
(1728458489.738703) can0 00D540A0#0000000000F7FF20
(1728458489.739028) can0 00D540A0#CE070000F800F600
(1728458489.739294) can0 00D540A0#000E010800000020
(1728458489.739581) can0 00D540A0#D2005F0A00000040
(1728458489.756684) can0 00D5A0C0#401FC0
(1728458489.757164) can0 00D540A0#FF3F0000401F0080
(1728458489.757417) can0 00D540A0#0000000000F6FF20
(1728458489.757710) can0 00D540A0#CC070000F800F600
(1728458489.758027) can0 00D540A0#000E010800000020
(1728458489.758295) can0 00D540A0#C800610A00000040
(1728458489.778955) can0 00D5A0C0#401FC0
(1728458489.779386) can0 00D540A0#8F610000401F0080
(1728458489.779676) can0 00D540A0#0000000000F7FF20
(1728458489.780026) can0 00D540A0#CE070000F800F600
(1728458489.780264) can0 00D540A0#000E010800000020
(1728458489.780536) can0 00D540A0#D200630A00000040
(1728458489.799330) can0 00D5A0C0#401FC0
(1728458489.799768) can0 00D540A0#C7170000401F0080
(1728458489.800107) can0 00D540A0#0000000000F7FF20
(1728458489.800356) can0 00D540A0#CC070000F800F600
(1728458489.800647) can0 00D540A0#000E010800000020
(1728458489.800951) can0 00D540A0#D200650A00000040
(1728458489.821149) can0 00D5A0C0#401FC0
(1728458489.821537) can0 00D540A0#89E80000401F0080
(1728458489.821828) can0 00D540A0#0000000000F7FF20
(1728458489.822141) can0 00D540A0#CE070000F800F600
(1728458489.822404) can0 00D540A0#000E010800000020
(1728458489.822691) can0 00D540A0#D200670A00000040
(1728458489.843118) can0 00D5A0C0#401FC0
(1728458489.843514) can0 00D540A0#F8AC0000401F0080
(1728458489.843799) can0 00D540A0#0000000000F6FF20
(1728458489.844115) can0 00D540A0#CE070000F800F600
(1728458489.844386) can0 00D540A0#000E010800000020
(1728458489.844674) can0 00D540A0#D2006A0A00000040
(1728458489.865702) can0 00D5A0C0#401FC0
(1728458489.866171) can0 00D540A0#9BE90000401F0080
(1728458489.866433) can0 00D540A0#0000000000F9FF20
(1728458489.866708) can0 00D540A0#CC070000F800F600
(1728458489.867034) can0 00D540A0#000E010800000020
(1728458489.867301) can0 00D540A0#D2006C0A00000040
(1728458489.886879) can0 00D5A0C0#401FC0
(1728458489.887305) can0 00D540A0#FE250000401F0080
(1728458489.887587) can0 00D540A0#0000000000F6FF20
(1728458489.887883) can0 00D540A0#CE070000F800F600
(1728458489.888209) can0 00D540A0#000E010800000020
(1728458489.888456) can0 00D540A0#D2006E0A00000040
(1728458489.907132) can0 00D5A0C0#401FC0
(1728458489.907532) can0 00D540A0#0CEE0000401F0080
(1728458489.907824) can0 00D540A0#0000000000F6FF20
(1728458489.908144) can0 00D540A0#CE070000F800F600
(1728458489.908395) can0 00D540A0#000E010800000020
(1728458489.908702) can0 00D540A0#D200700A00000040
(1728458489.928347) can0 00D5A0C0#401FC0
(1728458489.928786) can0 00D540A0#66DF0000401F0080
(1728458489.929115) can0 00D540A0#0000000000F7FF20
(1728458489.929376) can0 00D540A0#CE070000F900F600
(1728458489.929671) can0 00D540A0#000E010800000020
(1728458489.929959) can0 00D540A0#D200720A00000040
(1728458489.950776) can0 00D5A0C0#401FC0
(1728458489.951237) can0 00D540A0#E3120000401F0080
(1728458489.951489) can0 00D540A0#0000000000F7FF20
(1728458489.951776) can0 00D540A0#CE070000F900F600
(1728458489.952116) can0 00D540A0#000E010800000020
(1728458489.952366) can0 00D540A0#D200740A00000040
(1728458489.972689) can0 00D5A0C0#401FC0
(1728458489.973172) can0 00D540A0#2B930000401F0080
(1728458489.973446) can0 00D540A0#0000000000F7FF20
(1728458489.973726) can0 00D540A0#CC070000F800F600
(1728458489.974042) can0 00D540A0#000E010800000020
(1728458489.974307) can0 00D540A0#C800770A00000040
(1728458489.994128) can0 00D5A0C0#401FC0
(1728458489.994528) can0 00D540A0#BDFD0000401F0080
(1728458489.994831) can0 00D540A0#0000000000F6FF20
(1728458489.995150) can0 00D540A0#CC070000F800F600
(1728458489.995404) can0 00D540A0#000E010800000020
(1728458489.995705) can0 00D540A0#D200790A00000040
(1728458490.017220) can0 00D5A0C0#401FC0
(1728458490.017588) can0 00D540A0#3EB90000401F0080
(1728458490.017897) can0 00D540A0#0000000000F6FF20
(1728458490.018209) can0 00D540A0#CC070000F800F600
(1728458490.018464) can0 00D540A0#000E010800000020
(1728458490.018767) can0 00D540A0#D2007B0A00000040
(1728458490.041347) can0 00D5A0C0#401FC0
(1728458490.041782) can0 00D540A0#486E0000401F0080
(1728458490.042106) can0 00D540A0#0000000000F7FF20
(1728458490.042348) can0 00D540A0#CE070000F800F600
(1728458490.042648) can0 00D540A0#000E010800000020
(1728458490.042933) can0 00D540A0#C8007D0A00000040
(1728458490.062476) can0 00D5A0C0#401FC0
(1728458490.063051) can0 00D540A0#51B40000401F0080
(1728458490.063332) can0 00D540A0#0000000000F7FF20
(1728458490.063594) can0 00D540A0#CE070000F800F600
(1728458490.063892) can0 00D540A0#000E010800000020
(1728458490.064213) can0 00D540A0#D200800A00000040
(1728458490.083401) can0 00D5A0C0#401FC0
(1728458490.083834) can0 00D540A0#D2F00000401F0080
(1728458490.084153) can0 00D540A0#0000000000F7FF20
(1728458490.084402) can0 00D540A0#CE070000F800F600
(1728458490.084704) can0 00D540A0#000E010800000020
(1728458490.085045) can0 00D540A0#D200820A00000040
(1728458490.100276) can0 00D5A0C0#401FC0
(1728458490.100684) can0 00D540A0#4EE10000401F0080
(1728458490.101046) can0 00D540A0#0000000000F7FF20
(1728458490.101279) can0 00D540A0#CC070000F800F600
(1728458490.101560) can0 00D540A0#000E010800000020
(1728458490.101840) can0 00D540A0#D200830A00000040
(1728458490.121659) can0 00D5A0C0#401FC0
(1728458490.122121) can0 00D540A0#C0490000401F0080
(1728458490.122373) can0 00D540A0#0000000000F6FF20
(1728458490.122661) can0 00D540A0#CC070000F800F600
(1728458490.122963) can0 00D540A0#000E010800000020
(1728458490.123243) can0 00D540A0#D200850A00000040
(1728458490.144230) can0 00D5A0C0#401FC0
(1728458490.144604) can0 00D540A0#B10D0000401F0080
(1728458490.144896) can0 00D540A0#0000000000F7FF20
(1728458490.145238) can0 00D540A0#CC070000F800F600
(1728458490.145487) can0 00D540A0#000E010800000020
(1728458490.145783) can0 00D540A0#D200880A00000040
(1728458490.165262) can0 00D5A0C0#401FC0
(1728458490.165675) can0 00D540A0#392C0000401F0080
(1728458490.165972) can0 00D540A0#0000000000F6FF20
(1728458490.166257) can0 00D540A0#CC070000F800F600
(1728458490.166528) can0 00D540A0#000E010800000020
(1728458490.166841) can0 00D540A0#D2008A0A00000040
(1728458490.188271) can0 00D5A0C0#401FC0
(1728458490.188665) can0 00D540A0#B7840000401F0080
(1728458490.188966) can0 00D540A0#0000000000F7FF20
(1728458490.189258) can0 00D540A0#CC070000F800F600
(1728458490.189539) can0 00D540A0#000E010800000020
(1728458490.189836) can0 00D540A0#D2008C0A00000040
(1728458490.210122) can0 00D5A0C0#401FC0
(1728458490.210535) can0 00D540A0#F97B0000401F0080
(1728458490.210831) can0 00D540A0#0000000000F7FF20
(1728458490.211143) can0 00D540A0#CE070000F800F600
(1728458490.211409) can0 00D540A0#000E010800000020
(1728458490.211696) can0 00D540A0#D2008E0A00000040
(1728458490.231723) can0 00D5A0C0#401FC0
(1728458490.232202) can0 00D540A0#00D50000401F0080
(1728458490.232469) can0 00D540A0#0000000000F6FF20
(1728458490.232770) can0 00D540A0#CE070000F800F600
(1728458490.233065) can0 00D540A0#000E010800000020
(1728458490.233344) can0 00D540A0#D200900A00000040
(1728458490.252379) can0 00D5A0C0#401FC0
(1728458490.252792) can0 00D540A0#B6550000401F0080
(1728458490.253118) can0 00D540A0#0000000000F6FF20
(1728458490.253367) can0 00D540A0#CE070000F800F600
(1728458490.253657) can0 00D540A0#000E010800000020
(1728458490.253962) can0 00D540A0#C800920A00000040
(1728458490.270481) can0 00D5A0C0#401FC0
(1728458490.271184) can0 00D540A0#CBE70000401F0080
(1728458490.271391) can0 00D540A0#0000000000F6FF20
(1728458490.271598) can0 00D540A0#CC070000F800F600
(1728458490.271853) can0 00D540A0#000E010800000020
(1728458490.272190) can0 00D540A0#D200940A00000040
(1728458490.291586) can0 00D5A0C0#401FC0
(1728458490.292058) can0 00D540A0#85180000401F0080
(1728458490.292313) can0 00D540A0#0000000000F6FF20
(1728458490.292598) can0 00D540A0#CE070000F800F600
(1728458490.292902) can0 00D540A0#000E010800000020
(1728458490.293223) can0 00D540A0#D200960A00000040
(1728458490.315786) can0 00D5A0C0#401FC0
(1728458490.316255) can0 00D540A0#49B90000401F0080
(1728458490.316509) can0 00D540A0#0000000000F6FF20
(1728458490.316800) can0 00D540A0#CE070000F800F600
(1728458490.317129) can0 00D540A0#000E010800000020
(1728458490.317376) can0 00D540A0#C800990A00000040
(1728458490.338122) can0 00D5A0C0#401FC0
(1728458490.338534) can0 00D540A0#C1980000401F0080
(1728458490.338836) can0 00D540A0#0000000000F7FF20
(1728458490.339147) can0 00D540A0#CE070000F800F600
(1728458490.339414) can0 00D540A0#000E010800000020
(1728458490.339710) can0 00D540A0#C8009B0A00000040
(1728458490.360188) can0 00D5A0C0#401FC0
(1728458490.360560) can0 00D540A0#BC2A0000401F0080
(1728458490.360858) can0 00D540A0#0000000000F7FF20
(1728458490.361194) can0 00D540A0#CC070000F800F600
(1728458490.361447) can0 00D540A0#000E010800000020
(1728458490.361726) can0 00D540A0#D2009D0A00000040
(1728458490.382319) can0 00D5A0C0#401FC0
(1728458490.382742) can0 00D540A0#F2D50000401F0080
(1728458490.383068) can0 00D540A0#0000000000F7FF20
(1728458490.383346) can0 00D540A0#CE070000F800F600
(1728458490.383640) can0 00D540A0#000E010800000020
(1728458490.383917) can0 00D540A0#D2009F0A00000040
(1728458490.403183) can0 00D5A0C0#401FC0
(1728458490.403583) can0 00D540A0#66F80000401F0080
(1728458490.403869) can0 00D540A0#0000000000F7FF20
(1728458490.404199) can0 00D540A0#CE070000F800F600
(1728458490.404453) can0 00D540A0#000E010800000020
(1728458490.404734) can0 00D540A0#D200A20A00000040
(1728458490.424763) can0 00D5A0C0#401FC0
(1728458490.425069) can0 00D540A0#2E8E0000401F0080
(1728458490.425322) can0 00D540A0#0000000000F7FF20
(1728458490.425610) can0 00D540A0#CC070000F800F600
(1728458490.425911) can0 00D540A0#000E010800000020
(1728458490.426226) can0 00D540A0#D200A40A00000040
(1728458490.442223) can0 00D5A0C0#401FC0
(1728458490.442620) can0 00D540A0#B29F0000401F0080
(1728458490.442907) can0 00D540A0#0000000000F7FF20
(1728458490.443251) can0 00D540A0#CE070000F800F600
(1728458490.443496) can0 00D540A0#000E010800000020
(1728458490.443783) can0 00D540A0#D200A50A00000040
(1728458490.462411) can0 00D5A0C0#401FC0
(1728458490.462816) can0 00D540A0#C2C10000401F0080
(1728458490.463138) can0 00D540A0#0000000000F6FF20
(1728458490.463406) can0 00D540A0#CC070000F800F600
(1728458490.463700) can0 00D540A0#000E010800000020
(1728458490.463985) can0 00D540A0#C800A70A00000040
(1728458490.483930) can0 00D5A0C0#401FC0
(1728458490.484367) can0 00D540A0#409F0000401F0080
(1728458490.484658) can0 00D540A0#0000000000F6FF20
(1728458490.484945) can0 00D540A0#CE070000F800F600
(1728458490.485268) can0 00D540A0#000E010800000020
(1728458490.485534) can0 00D540A0#D200AA0A00000040
(1728458490.505765) can0 00D5A0C0#401FC0
(1728458490.506211) can0 00D540A0#08E90000401F0080
(1728458490.506473) can0 00D540A0#0000000000F6FF20
(1728458490.506754) can0 00D540A0#CC070000F800F600
(1728458490.507064) can0 00D540A0#000E010800000020
(1728458490.507339) can0 00D540A0#D200AC0A00000040
(1728458490.527188) can0 00D5A0C0#401FC0
(1728458490.527554) can0 00D540A0#BE690000401F0080
(1728458490.527845) can0 00D540A0#0000000000F6FF20
(1728458490.528168) can0 00D540A0#CC070000F800F600
(1728458490.528424) can0 00D540A0#000E010800000020
(1728458490.528726) can0 00D540A0#C800AE0A00000040
(1728458490.547810) can0 00D5A0C0#401FC0
(1728458490.548262) can0 00D540A0#BFB80000401F0080
(1728458490.548534) can0 00D540A0#0000000000F7FF20
(1728458490.548819) can0 00D540A0#CE070000F800F600
(1728458490.549150) can0 00D540A0#000E010800000020
(1728458490.549405) can0 00D540A0#D200B00A00000040
(1728458490.570705) can0 00D5A0C0#401FC0
(1728458490.571156) can0 00D540A0#3CFC0000401F0080
(1728458490.571414) can0 00D540A0#0000000000F7FF20
(1728458490.571917) can0 00D540A0#CE070000F800F600
(1728458490.572154) can0 00D540A0#000E010800000020
(1728458490.572361) can0 00D540A0#D200B20A00000040
(1728458490.591819) can0 00D5A0C0#401FC0
(1728458490.592266) can0 00D540A0#414E0000401F0080
(1728458490.592550) can0 00D540A0#0000000000F7FF20
(1728458490.592842) can0 00D540A0#CC070000F800F600
(1728458490.593169) can0 00D540A0#000E010800000020
(1728458490.593414) can0 00D540A0#C800B40A00000040
(1728458490.614333) can0 00D5A0C0#401FC0
(1728458490.614751) can0 00D540A0#60BA0000401F0080
(1728458490.615077) can0 00D540A0#0000000000F6FF20
(1728458490.615320) can0 00D540A0#CE070000F800F600
(1728458490.615611) can0 00D540A0#000E010800000020
(1728458490.615910) can0 00D540A0#D200B70A00000040
(1728458490.631534) can0 00D5A0C0#401FC0
(1728458490.631983) can0 00D540A0#92BA0000401F0080
(1728458490.632296) can0 00D540A0#0000000000F7FF20
(1728458490.632591) can0 00D540A0#CE070000F800F600
(1728458490.632886) can0 00D540A0#000E010800000020
(1728458490.633214) can0 00D540A0#D200B80A00000040
(1728458490.653290) can0 00D5A0C0#401FC0
(1728458490.653694) can0 00D540A0#40540000401F0080
(1728458490.653987) can0 00D540A0#0000000000F7FF20
(1728458490.654287) can0 00D540A0#CE070000F800F600
(1728458490.654581) can0 00D540A0#000E010800000020
(1728458490.654862) can0 00D540A0#D200BB0A00000040
(1728458490.675286) can0 00D5A0C0#401FC0
(1728458490.675704) can0 00D540A0#28740000401F0080
(1728458490.675995) can0 00D540A0#0000000000F9FF20
(1728458490.676289) can0 00D540A0#CC070000F800F600
(1728458490.676571) can0 00D540A0#000E010800000020
(1728458490.676875) can0 00D540A0#D200BD0A00000040
(1728458490.697229) can0 00D5A0C0#401FC0
(1728458490.697622) can0 00D540A0#8B660000401F0080
(1728458490.697921) can0 00D540A0#0000000000F7FF20
(1728458490.698242) can0 00D540A0#CC070000F800F600
(1728458490.698498) can0 00D540A0#000E010800000020
(1728458490.698795) can0 00D540A0#D200BF0A00000040
(1728458490.717840) can0 00D5A0C0#401FC0
(1728458490.718285) can0 00D540A0#680F0000401F0080
(1728458490.718549) can0 00D540A0#0000000000F7FF20
(1728458490.718846) can0 00D540A0#CE070000F800F600
(1728458490.719171) can0 00D540A0#000E010800000020
(1728458490.719426) can0 00D540A0#D200C10A00000040
(1728458490.738779) can0 00D5A0C0#401FC0
(1728458490.739226) can0 00D540A0#13340000401F0080
(1728458490.739484) can0 00D540A0#0000000000F7FF20
(1728458490.739793) can0 00D540A0#CC070000F800F600
(1728458490.740116) can0 00D540A0#000E010800000020
(1728458490.740371) can0 00D540A0#C800C30A00000040
(1728458490.760176) can0 00D5A0C0#401FC0
(1728458490.760566) can0 00D540A0#65E30000401F0080
(1728458490.760846) can0 00D540A0#0000000000F6FF20
(1728458490.761171) can0 00D540A0#CE070000F800F600
(1728458490.761419) can0 00D540A0#000E010800000020
(1728458490.761720) can0 00D540A0#D200C50A00000040
(1728458490.781413) can0 00D5A0C0#401FC0
(1728458490.781828) can0 00D540A0#2B1C0000401F0080
(1728458490.782157) can0 00D540A0#0000000000F6FF20
(1728458490.782424) can0 00D540A0#CC070000F800F600
(1728458490.782709) can0 00D540A0#000E010800000020
(1728458490.783000) can0 00D540A0#D200C70A00000040
(1728458490.799181) can0 00D5A0C0#401FC0
(1728458490.799558) can0 00D540A0#450D0000401F0080
(1728458490.799870) can0 00D540A0#0000000000F7FF20
(1728458490.800199) can0 00D540A0#CE070000F800F600
(1728458490.800455) can0 00D540A0#000E010800000020
(1728458490.800732) can0 00D540A0#D200C90A00000040
(1728458490.820089) can0 00D5A0C0#401FC0
(1728458490.820455) can0 00D540A0#3E360000401F0080
(1728458490.820748) can0 00D540A0#0000000000F7FF20
(1728458490.821087) can0 00D540A0#CC070000F800F600
(1728458490.821338) can0 00D540A0#000E010800000020
(1728458490.821620) can0 00D540A0#C800CB0A00000040
(1728458490.841946) can0 00D5A0C0#401FC0
(1728458490.842363) can0 00D540A0#8E3F0000401F0080
(1728458490.842684) can0 00D540A0#0000000000F7FF20
(1728458490.842986) can0 00D540A0#CC070000F800F600
(1728458490.843291) can0 00D540A0#000E010800000020
(1728458490.843549) can0 00D540A0#D200CD0A00000040
(1728458490.862990) can0 00D5A0C0#401FC0
(1728458490.863430) can0 00D540A0#9BDE0000401F0080
(1728458490.863721) can0 00D540A0#0000000000F7FF20
(1728458490.864004) can0 00D540A0#CC070000F800F600
(1728458490.864304) can0 00D540A0#000E010800000020
(1728458490.864588) can0 00D540A0#C800D00A00000040
(1728458490.885354) can0 00D5A0C0#401FC0
(1728458490.885776) can0 00D540A0#189A0000401F0080
(1728458490.886091) can0 00D540A0#0000000000F7FF20
(1728458490.886364) can0 00D540A0#CC070000F800F600
(1728458490.886648) can0 00D540A0#000E010800000020
(1728458490.886939) can0 00D540A0#C800D20A00000040
(1728458490.908092) can0 00D5A0C0#401FC0
(1728458490.908494) can0 00D540A0#A8930000401F0080
(1728458490.908789) can0 00D540A0#0000000000F7FF20
(1728458490.909096) can0 00D540A0#CC070000F800F600
(1728458490.909369) can0 00D540A0#000E010800000020
(1728458490.909664) can0 00D540A0#D200D40A00000040
(1728458490.928976) can0 00D5A0C0#401FC0
(1728458490.929430) can0 00D540A0#E66C0000401F0080
(1728458490.929723) can0 00D540A0#0000000000F7FF20
(1728458490.930012) can0 00D540A0#CE070000F800F600
(1728458490.930306) can0 00D540A0#000E010800000020
(1728458490.930594) can0 00D540A0#D200D60A00000040
(1728458490.951364) can0 00D5A0C0#401FC0
(1728458490.951815) can0 00D540A0#B6DC0000401F0080
(1728458490.952146) can0 00D540A0#0000000000F7FF20
(1728458490.952392) can0 00D540A0#CC070000F800F600
(1728458490.952690) can0 00D540A0#000E010800000020
(1728458490.952970) can0 00D540A0#C800D80A00000040
(1728458490.968643) can0 00D5A0C0#401FC0
(1728458490.969095) can0 00D540A0#76800000401F0080
(1728458490.969374) can0 00D540A0#0000000000F7FF20
(1728458490.969661) can0 00D540A0#CA070000F800F600
(1728458490.969949) can0 00D540A0#000E010800000020
(1728458490.970280) can0 00D540A0#D200DA0A00000040
(1728458490.991222) can0 00D5A0C0#401FC0
(1728458490.991581) can0 00D540A0#78070000401F0080
(1728458490.991868) can0 00D540A0#0000000000F6FF20
(1728458490.992209) can0 00D540A0#D1070000F800F600
(1728458490.992470) can0 00D540A0#000E010800000020
(1728458490.992748) can0 00D540A0#D200DC0A00000040
(1728458491.013383) can0 00D5A0C0#401FC0
(1728458491.013818) can0 00D540A0#62BB0000401F0080
(1728458491.014158) can0 00D540A0#0000000000F7FF20
(1728458491.014407) can0 00D540A0#CC070000F800F600
(1728458491.014694) can0 00D540A0#000E010800000020
(1728458491.014992) can0 00D540A0#C800DF0A00000040
(1728458491.035982) can0 00D5A0C0#401FC0
(1728458491.036437) can0 00D540A0#11BC0000401F0080
(1728458491.036742) can0 00D540A0#0000000000F7FF20
(1728458491.037098) can0 00D540A0#CC070000F800F600
(1728458491.037329) can0 00D540A0#000E010800000020
(1728458491.037621) can0 00D540A0#D200E10A00000040
(1728458491.058305) can0 00D5A0C0#401FC0
(1728458491.058714) can0 00D540A0#5F430000401F0080
(1728458491.059004) can0 00D540A0#0000000000F7FF20
(1728458491.059299) can0 00D540A0#CE070000F800F600
(1728458491.059595) can0 00D540A0#000E010800000020
(1728458491.059869) can0 00D540A0#D200E30A00000040
(1728458491.081974) can0 00D5A0C0#401FC0
(1728458491.082387) can0 00D540A0#17350000401F0080
(1728458491.082692) can0 00D540A0#0000000000F7FF20
(1728458491.082991) can0 00D540A0#CC070000F800F600
(1728458491.083297) can0 00D540A0#000E010800000020
(1728458491.083567) can0 00D540A0#D200E50A00000040
(1728458491.103914) can0 00D5A0C0#401FC0
(1728458491.104327) can0 00D540A0#A0AF0000401F0080
(1728458491.104625) can0 00D540A0#0000000000F7FF20
(1728458491.104937) can0 00D540A0#CE070000F800F600
(1728458491.105256) can0 00D540A0#000E010800000020
(1728458491.105505) can0 00D540A0#D200E80A00000040
(1728458491.125712) can0 00D5A0C0#401FC0
(1728458491.126166) can0 00D540A0#EE500000401F0080
(1728458491.126440) can0 00D540A0#0000000000F7FF20
(1728458491.126739) can0 00D540A0#CC070000F800F600
(1728458491.127101) can0 00D540A0#000E010800000020
(1728458491.127332) can0 00D540A0#D200EA0A00000040
(1728458491.149749) can0 00D5A0C0#401FC0
(1728458491.150220) can0 00D540A0#553C0000401F0080
(1728458491.150476) can0 00D540A0#0000000000F6FF20
(1728458491.150770) can0 00D540A0#CC070000F800F600
(1728458491.151107) can0 00D540A0#000E010800000020
(1728458491.151345) can0 00D540A0#C800EC0A00000040
(1728458491.165840) can0 00D5A0C0#401FC0
(1728458491.166295) can0 00D540A0#25620000401F0080
(1728458491.166568) can0 00D540A0#0000000000F7FF20
(1728458491.166864) can0 00D540A0#CE070000F800F600
(1728458491.167187) can0 00D540A0#000E010800000020
(1728458491.167442) can0 00D540A0#D200EE0A00000040
(1728458491.187112) can0 00D5A0C0#401FC0
(1728458491.187513) can0 00D540A0#1A120000401F0080
(1728458491.187819) can0 00D540A0#0000000000F7FF20
(1728458491.188157) can0 00D540A0#CC070000F800F600
(1728458491.188412) can0 00D540A0#000E010800000020
(1728458491.188701) can0 00D540A0#D200F00A00000040
(1728458491.211209) can0 00D5A0C0#401FC0
(1728458491.211601) can0 00D540A0#92330000401F0080
(1728458491.211889) can0 00D540A0#0000000000F6FF20
(1728458491.212218) can0 00D540A0#CC070000F800F600
(1728458491.212474) can0 00D540A0#000E010800000020
(1728458491.212760) can0 00D540A0#D200F20A00000040
(1728458491.232698) can0 00D5A0C0#401FC0
(1728458491.233164) can0 00D540A0#46540000401F0080
(1728458491.233420) can0 00D540A0#0000000000F6FF20
(1728458491.233708) can0 00D540A0#CC070000F800F600
(1728458491.234006) can0 00D540A0#000E010800000020
(1728458491.234308) can0 00D540A0#D200F50A00000040
(1728458491.253782) can0 00D5A0C0#401FC0
(1728458491.254232) can0 00D540A0#CE750000401F0080
(1728458491.254498) can0 00D540A0#0000000000F7FF20
(1728458491.254789) can0 00D540A0#CC070000F800F600
(1728458491.255107) can0 00D540A0#000E010800000020
(1728458491.255380) can0 00D540A0#D200F70A00000040
(1728458491.276803) can0 00D5A0C0#401FC0
(1728458491.277255) can0 00D540A0#A0640000401F0080
(1728458491.277505) can0 00D540A0#0000000000F6FF20
(1728458491.277793) can0 00D540A0#CE070000F800F600
(1728458491.278108) can0 00D540A0#000E010800000020
(1728458491.278364) can0 00D540A0#D200F90A00000040
(1728458491.299410) can0 00D5A0C0#401FC0
(1728458491.299836) can0 00D540A0#16E40000401F0080
(1728458491.300158) can0 00D540A0#0000000000F6FF20
(1728458491.300416) can0 00D540A0#CE070000F800F600
(1728458491.300700) can0 00D540A0#000E010800000020
(1728458491.301000) can0 00D540A0#C800FB0A00000040
(1728458491.320924) can0 00D5A0C0#401FC0
(1728458491.321351) can0 00D540A0#6B560000401F0080
(1728458491.321642) can0 00D540A0#0000000000F6FF20
(1728458491.321922) can0 00D540A0#CC070000F800F600
(1728458491.322246) can0 00D540A0#000E010800000020
(1728458491.322501) can0 00D540A0#D200FD0A00000040
(1728458491.338229) can0 00D5A0C0#401FC0
(1728458491.338637) can0 00D540A0#25A90000401F0080
(1728458491.338917) can0 00D540A0#0000000000F6FF20
(1728458491.339241) can0 00D540A0#CE070000F800F600
(1728458491.339508) can0 00D540A0#000E010800000020
(1728458491.339782) can0 00D540A0#D200FF0A00000040
(1728458491.360235) can0 00D5A0C0#401FC0
(1728458491.360637) can0 00D540A0#5AEB0000401F0080
(1728458491.360944) can0 00D540A0#0000000000F6FF20
(1728458491.361256) can0 00D540A0#CE070000F800F600
(1728458491.361512) can0 00D540A0#000E010800000020
(1728458491.361814) can0 00D540A0#C800010B00000040
(1728458491.382191) can0 00D5A0C0#401FC0
(1728458491.382582) can0 00D540A0#2AB50000401F0080
(1728458491.382879) can0 00D540A0#0000000000F7FF20
(1728458491.383209) can0 00D540A0#CC070000F800F600
(1728458491.383458) can0 00D540A0#000E010800000020
(1728458491.383754) can0 00D540A0#D200030B00000040
(1728458491.403680) can0 00D5A0C0#401FC0
(1728458491.404118) can0 00D540A0#BB480000401F0080
(1728458491.404386) can0 00D540A0#0000000000F6FF20
(1728458491.404675) can0 00D540A0#CE070000F800F600
(1728458491.404960) can0 00D540A0#000E010800000020
(1728458491.405284) can0 00D540A0#D200060B00000040
(1728458491.423726) can0 00D5A0C0#401FC0
(1728458491.424176) can0 00D540A0#26430000401F0080
(1728458491.424436) can0 00D540A0#0000000000F6FF20
(1728458491.424717) can0 00D540A0#CE070000F800F600
(1728458491.425013) can0 00D540A0#000E010800000020
(1728458491.425319) can0 00D540A0#C800080B00000040
(1728458491.447186) can0 00D5A0C0#401FC0
(1728458491.447580) can0 00D540A0#561D0000401F0080
(1728458491.447889) can0 00D540A0#0000000000F7FF20
(1728458491.448205) can0 00D540A0#CC070000F800F600
(1728458491.448454) can0 00D540A0#000E010800000020
(1728458491.448763) can0 00D540A0#D2000A0B00000040
(1728458491.470529) can0 00D5A0C0#401FC0
(1728458491.471021) can0 00D540A0#D8B50000401F0080
(1728458491.471320) can0 00D540A0#0000000000F6FF20
(1728458491.471613) can0 00D540A0#CC070000F800F600
(1728458491.471895) can0 00D540A0#000E010800000020
(1728458491.472225) can0 00D540A0#D2000C0B00000040
(1728458491.492363) can0 00D5A0C0#401FC0
(1728458491.492774) can0 00D540A0#50940000401F0080
(1728458491.493120) can0 00D540A0#0000000000F7FF20
(1728458491.493381) can0 00D540A0#CC070000F800F600
(1728458491.493668) can0 00D540A0#000E010800000020
(1728458491.493956) can0 00D540A0#D2000E0B00000040
(1728458491.510522) can0 00D5A0C0#401FC0
(1728458491.510966) can0 00D540A0#51450000401F0080
(1728458491.511293) can0 00D540A0#0000000000F6FF20
(1728458491.511542) can0 00D540A0#CE070000F800F600
(1728458491.511833) can0 00D540A0#000E010800000020
(1728458491.512168) can0 00D540A0#C800100B00000040
(1728458491.530342) can0 00D5A0C0#401FC0
(1728458491.530779) can0 00D540A0#E7C50000401F0080
(1728458491.531122) can0 00D540A0#0000000000F6FF20
(1728458491.531362) can0 00D540A0#CE070000F800F600
(1728458491.531646) can0 00D540A0#000E010800000020
(1728458491.531957) can0 00D540A0#D200120B00000040
(1728458491.551318) can0 00D5A0C0#401FC0
(1728458491.551715) can0 00D540A0#62080000401F0080
(1728458491.552006) can0 00D540A0#0000000000F6FF20
(1728458491.552317) can0 00D540A0#CE070000F800F600
(1728458491.552575) can0 00D540A0#000E010800000020
(1728458491.552882) can0 00D540A0#D200140B00000040
(1728458491.575262) can0 00D5A0C0#401FC0
(1728458491.575653) can0 00D540A0#85220000401F0080
(1728458491.575942) can0 00D540A0#0000000000F6FF20
(1728458491.576265) can0 00D540A0#CE070000F800F600
(1728458491.576532) can0 00D540A0#000E010800000020
(1728458491.576822) can0 00D540A0#C800170B00000040
(1728458491.597285) can0 00D5A0C0#401FC0
(1728458491.597707) can0 00D540A0#D5920000401F0080
(1728458491.597985) can0 00D540A0#0000000000F6FF20
(1728458491.598309) can0 00D540A0#CC070000F800F600
(1728458491.598578) can0 00D540A0#000E010800000020
(1728458491.598860) can0 00D540A0#D200190B00000040
(1728458491.618641) can0 00D5A0C0#401FC0
(1728458491.619129) can0 00D540A0#90080000401F0080
(1728458491.619396) can0 00D540A0#0000000000F7FF20
(1728458491.619679) can0 00D540A0#CE070000F800F600
(1728458491.619968) can0 00D540A0#000E010800000020
(1728458491.620299) can0 00D540A0#D2001B0B00000040
(1728458491.639426) can0 00D5A0C0#401FC0
(1728458491.639841) can0 00D540A0#D31B0000401F0080
(1728458491.640172) can0 00D540A0#0000000000F6FF20
(1728458491.640422) can0 00D540A0#CC070000F800F600
(1728458491.640699) can0 00D540A0#000E010800000020
(1728458491.641012) can0 00D540A0#D2001D0B00000040
(1728458491.660449) can0 00D5A0C0#401FC0
(1728458491.660857) can0 00D540A0#5B3A0000401F0080
(1728458491.661183) can0 00D540A0#0000000000F7FF20
(1728458491.661447) can0 00D540A0#CC070000F800F600
(1728458491.661744) can0 00D540A0#000E010800000020
(1728458491.662030) can0 00D540A0#D2001F0B00000040
(1728458491.682136) can0 00D5A0C0#401FC0
(1728458491.682523) can0 00D540A0#1DF90000401F0080
(1728458491.682833) can0 00D540A0#0000000000F7FF20
(1728458491.683169) can0 00D540A0#CC070000F800F600
(1728458491.683423) can0 00D540A0#000E010800000020
(1728458491.683705) can0 00D540A0#D200210B00000040
(1728458491.699925) can0 00D5A0C0#401FC0
(1728458491.700346) can0 00D540A0#58630000401F0080
(1728458491.700647) can0 00D540A0#0000000000F6FF20
(1728458491.700928) can0 00D540A0#CE070000F800F600
(1728458491.701253) can0 00D540A0#000E010800000020
(1728458491.701515) can0 00D540A0#D200230B00000040
(1728458491.720303) can0 00D5A0C0#401FC0
(1728458491.720706) can0 00D540A0#DDAE0000401F0080
(1728458491.721002) can0 00D540A0#0000000000F6FF20
(1728458491.721323) can0 00D540A0#CE070000F800F600
(1728458491.721584) can0 00D540A0#000E010800000020
(1728458491.721870) can0 00D540A0#D200250B00000040
(1728458491.743225) can0 00D5A0C0#401FC0
(1728458491.743611) can0 00D540A0#ACEA0000401F0080
(1728458491.743907) can0 00D540A0#0000000000F7FF20
(1728458491.744230) can0 00D540A0#CE070000F800F600
(1728458491.744491) can0 00D540A0#000E010800000020
(1728458491.744776) can0 00D540A0#D200280B00000040
(1728458491.765214) can0 00D5A0C0#401FC0
(1728458491.765600) can0 00D540A0#2FAE0000401F0080
(1728458491.765898) can0 00D540A0#0000000000F7FF20
(1728458491.766209) can0 00D540A0#CE070000F800F600
(1728458491.766473) can0 00D540A0#000E010800000020
(1728458491.766763) can0 00D540A0#D2002A0B00000040
(1728458491.786328) can0 00D5A0C0#401FC0
(1728458491.786760) can0 00D540A0#9FA70000401F0080
(1728458491.787132) can0 00D540A0#0000000000F7FF20
(1728458491.787362) can0 00D540A0#CE070000F800F600
(1728458491.787648) can0 00D540A0#000E010800000020
(1728458491.787930) can0 00D540A0#C8002C0B00000040
(1728458491.807782) can0 00D5A0C0#401FC0
(1728458491.808244) can0 00D540A0#E49C0000401F0080
(1728458491.808500) can0 00D540A0#0000000000F7FF20
(1728458491.808782) can0 00D540A0#CC070000F800F600
(1728458491.809133) can0 00D540A0#000E010800000020
(1728458491.809364) can0 00D540A0#D2002E0B00000040
(1728458491.828610) can0 00D5A0C0#401FC0
(1728458491.828859) can0 00D540A0#D0890000401F0080
(1728458491.829158) can0 00D540A0#0000000000F6FF20
(1728458491.829425) can0 00D540A0#CE070000F800F600
(1728458491.829731) can0 00D540A0#000E010800000020
(1728458491.830019) can0 00D540A0#D200300B00000040
(1728458491.850707) can0 00D5A0C0#401FC0
(1728458491.851159) can0 00D540A0#9E760000401F0080
(1728458491.851414) can0 00D540A0#0000000000F6FF20
(1728458491.851702) can0 00D540A0#CC070000F800F600
(1728458491.851990) can0 00D540A0#000E010800000020
(1728458491.852325) can0 00D540A0#D200320B00000040
(1728458491.867829) can0 00D5A0C0#401FC0
(1728458491.868285) can0 00D540A0#10DE0000401F0080
(1728458491.868534) can0 00D540A0#0000000000F7FF20
(1728458491.868830) can0 00D540A0#CC070000F800F600
(1728458491.869135) can0 00D540A0#000E010800000020
(1728458491.869408) can0 00D540A0#D200340B00000040
(1728458491.886902) can0 00D5A0C0#401FC0
(1728458491.887355) can0 00D540A0#718A0000401F0080
(1728458491.887657) can0 00D540A0#0000000000F7FF20
(1728458491.887955) can0 00D540A0#CC070000F900F600
(1728458491.888274) can0 00D540A0#000E010800000020
(1728458491.888529) can0 00D540A0#D200360B00000040
(1728458491.910975) can0 00D5A0C0#401FC0
(1728458491.911416) can0 00D540A0#D9450000401F0080
(1728458491.911717) can0 00D540A0#0000000000F7FF20
(1728458491.912015) can0 00D540A0#CC070000F900F600
(1728458491.912334) can0 00D540A0#000E010800000020
(1728458491.912591) can0 00D540A0#D200380B00000040
(1728458491.932705) can0 00D5A0C0#401FC0
(1728458491.932982) can0 00D540A0#4B0B0000401F0080
(1728458491.933324) can0 00D540A0#0000000000F6FF20
(1728458491.933582) can0 00D540A0#CE070000F800F600
(1728458491.933870) can0 00D540A0#000E010800000020
(1728458491.934205) can0 00D540A0#C8003A0B00000040
(1728458491.953489) can0 00D5A0C0#401FC0
(1728458491.953938) can0 00D540A0#6C760000401F0080
(1728458491.954271) can0 00D540A0#0000000000F7FF20
(1728458491.954537) can0 00D540A0#CC070000F800F600
(1728458491.954827) can0 00D540A0#000E010800000020
(1728458491.955163) can0 00D540A0#D2003D0B00000040
(1728458491.975690) can0 00D5A0C0#401FC0
(1728458491.976140) can0 00D540A0#E4570000401F0080
(1728458491.976400) can0 00D540A0#0000000000F6FF20
(1728458491.976694) can0 00D540A0#CC070000F800F600
(1728458491.976973) can0 00D540A0#000E010800000020
(1728458491.977307) can0 00D540A0#D2003F0B00000040
(1728458491.997219) can0 00D5A0C0#401FC0
(1728458491.997609) can0 00D540A0#32FA0000401F0080
(1728458491.997907) can0 00D540A0#0000000000F6FF20
(1728458491.998218) can0 00D540A0#CE070000F800F600
(1728458491.998472) can0 00D540A0#000E010800000020
(1728458491.998784) can0 00D540A0#C800410B00000040
(1728458492.019669) can0 00D5A0C0#401FC0
(1728458492.020146) can0 00D540A0#8F1F0000401F0080
(1728458492.020407) can0 00D540A0#0000000000F7FF20
(1728458492.020688) can0 00D540A0#CE070000F800F600
(1728458492.020972) can0 00D540A0#000E010800000020
(1728458492.021303) can0 00D540A0#D200430B00000040
(1728458492.037911) can0 00D5A0C0#401FC0
(1728458492.038351) can0 00D540A0#01B70000401F0080
(1728458492.038650) can0 00D540A0#0000000000F6FF20
(1728458492.038928) can0 00D540A0#CE070000F800F600
(1728458492.039253) can0 00D540A0#000E010800000020
(1728458492.039529) can0 00D540A0#D200450B00000040
(1728458492.058156) can0 00D5A0C0#401FC0
(1728458492.058567) can0 00D540A0#89960000401F0080
(1728458492.058860) can0 00D540A0#0000000000F7FF20
(1728458492.059144) can0 00D540A0#CE070000F800F600
(1728458492.059430) can0 00D540A0#000E010800000020
(1728458492.059711) can0 00D540A0#D200470B00000040
(1728458492.080496) can0 00D5A0C0#401FC0
(1728458492.080921) can0 00D540A0#1FF80000401F0080
(1728458492.081259) can0 00D540A0#0000000000F6FF20
(1728458492.081520) can0 00D540A0#CE070000F800F600
(1728458492.081805) can0 00D540A0#000E010800000020
(1728458492.082145) can0 00D540A0#C800490B00000040
(1728458492.102348) can0 00D5A0C0#401FC0
(1728458492.102774) can0 00D540A0#54EE0000401F0080
(1728458492.103151) can0 00D540A0#0000000000F7FF20
(1728458492.103388) can0 00D540A0#D3070000F800F600
(1728458492.103658) can0 00D540A0#000E010800000020
(1728458492.103943) can0 00D540A0#D2004B0B00000040
(1728458492.123040) can0 00D5A0C0#401FC0
(1728458492.123471) can0 00D540A0#F53E0000401F0080
(1728458492.123768) can0 00D540A0#0000000000F7FF20
(1728458492.124065) can0 00D540A0#CE070000F800F600
(1728458492.124354) can0 00D540A0#000E010800000020
(1728458492.124658) can0 00D540A0#D2004E0B00000040
(1728458492.146395) can0 00D5A0C0#401FC0
(1728458492.146794) can0 00D540A0#F4EF0000401F0080
(1728458492.147148) can0 00D540A0#0000000000F6FF20
(1728458492.147379) can0 00D540A0#CC070000F800F600
(1728458492.147666) can0 00D540A0#000E010800000020
(1728458492.147978) can0 00D540A0#C800500B00000040
(1728458492.168220) can0 00D5A0C0#401FC0
(1728458492.168600) can0 00D540A0#490A0000401F0080
(1728458492.168905) can0 00D540A0#0000000000F7FF20
(1728458492.169220) can0 00D540A0#CC070000F800F600
(1728458492.169481) can0 00D540A0#000E010800000020
(1728458492.169771) can0 00D540A0#D200520B00000040
(1728458492.190792) can0 00D5A0C0#401FC0
(1728458492.191277) can0 00D540A0#C7A20000401F0080
(1728458492.191531) can0 00D540A0#0000000000F6FF20
(1728458492.191815) can0 00D540A0#CC070000F800F600
(1728458492.192150) can0 00D540A0#000E010800000020
(1728458492.192404) can0 00D540A0#D200540B00000040
(1728458492.213310) can0 00D5A0C0#401FC0
(1728458492.213725) can0 00D540A0#2BED0000401F0080
(1728458492.214014) can0 00D540A0#0000000000F7FF20
(1728458492.214324) can0 00D540A0#CC070000F800F600
(1728458492.214593) can0 00D540A0#000E010800000020
(1728458492.214881) can0 00D540A0#C800570B00000040
(1728458492.230587) can0 00D5A0C0#401FC0
(1728458492.231049) can0 00D540A0#2AF70000401F0080
(1728458492.231344) can0 00D540A0#0000000000F7FF20
(1728458492.231647) can0 00D540A0#CE070000F800F600
(1728458492.231936) can0 00D540A0#000E010800000020
(1728458492.232253) can0 00D540A0#D200580B00000040
(1728458492.252200) can0 00D5A0C0#401FC0
(1728458492.252598) can0 00D540A0#6F6D0000401F0080
(1728458492.252883) can0 00D540A0#0000000000F6FF20
(1728458492.253200) can0 00D540A0#CC070000F800F600
(1728458492.253469) can0 00D540A0#000E010800000020
(1728458492.253759) can0 00D540A0#D2005A0B00000040
(1728458492.274500) can0 00D5A0C0#401FC0
(1728458492.274921) can0 00D540A0#76B10000401F0080
(1728458492.275254) can0 00D540A0#0000000000F6FF20
(1728458492.275665) can0 00D540A0#CE070000F800F600
(1728458492.275868) can0 00D540A0#000E010800000020
(1728458492.276151) can0 00D540A0#D2005D0B00000040
(1728458492.295354) can0 00D5A0C0#401FC0
(1728458492.295736) can0 00D540A0#06EF0000401F0080
(1728458492.296027) can0 00D540A0#0000000000F7FF20
(1728458492.296356) can0 00D540A0#CC070000F800F600
(1728458492.296620) can0 00D540A0#000E010800000020
(1728458492.296907) can0 00D540A0#C8005F0B00000040
(1728458492.317959) can0 00D5A0C0#401FC0
(1728458492.318376) can0 00D540A0#75E80000401F0080
(1728458492.318670) can0 00D540A0#0000000000F7FF20
(1728458492.318970) can0 00D540A0#CC070000F800F600
(1728458492.319293) can0 00D540A0#000E010800000020
(1728458492.319542) can0 00D540A0#D200610B00000040
(1728458492.340015) can0 00D5A0C0#401FC0
(1728458492.340467) can0 00D540A0#FDC90000401F0080
(1728458492.340767) can0 00D540A0#0000000000F6FF20
(1728458492.341054) can0 00D540A0#CC070000F800F600
(1728458492.341353) can0 00D540A0#000E010800000020
(1728458492.341640) can0 00D540A0#D200630B00000040
(1728458492.361526) can0 00D5A0C0#401FC0
(1728458492.361963) can0 00D540A0#73610000401F0080
(1728458492.362286) can0 00D540A0#0000000000F7FF20
(1728458492.362537) can0 00D540A0#CC070000F800F600
(1728458492.362857) can0 00D540A0#000E010800000020
(1728458492.363158) can0 00D540A0#D200650B00000040
(1728458492.382304) can0 00D5A0C0#401FC0
(1728458492.382719) can0 00D540A0#36FB0000401F0080
(1728458492.383009) can0 00D540A0#0000000000F6FF20
(1728458492.383332) can0 00D540A0#CE070000F800F600
(1728458492.383602) can0 00D540A0#000E010800000020
(1728458492.383890) can0 00D540A0#D200670B00000040
(1728458492.399741) can0 00D5A0C0#401FC0
(1728458492.400206) can0 00D540A0#9E340000401F0080
(1728458492.400470) can0 00D540A0#0000000000F6FF20
(1728458492.400774) can0 00D540A0#CE070000F800F600
(1728458492.401051) can0 00D540A0#000E010800000020
(1728458492.401358) can0 00D540A0#D200690B00000040
(1728458492.421414) can0 00D5A0C0#401FC0
(1728458492.421846) can0 00D540A0#DBAE0000401F0080
(1728458492.422161) can0 00D540A0#0000000000F7FF20
(1728458492.422421) can0 00D540A0#CC070000F800F600
(1728458492.422726) can0 00D540A0#000E010800000020
(1728458492.423007) can0 00D540A0#D2006B0B00000040
(1728458492.443307) can0 00D5A0C0#401FC0
(1728458492.443722) can0 00D540A0#87E80000401F0080
(1728458492.444023) can0 00D540A0#0000000000F6FF20
(1728458492.444336) can0 00D540A0#CC070000F800F600
(1728458492.444605) can0 00D540A0#000E010800000020
(1728458492.444900) can0 00D540A0#D2006E0B00000040
(1728458492.465326) can0 00D540A0#AE520000401F0080
(1728458492.465592) can0 00D540A0#0000000000F4FF20
(1728458492.465888) can0 00D540A0#CE070000F800F600
(1728458492.466195) can0 00D540A0#000E010800000020
(1728458492.466463) can0 00D540A0#D200700B00000040
(1728458492.485698) can0 00D5A0C0#401FC0
(1728458492.486164) can0 00D540A0#30B90000401F0080
(1728458492.486412) can0 00D540A0#0000000000F7FF20
(1728458492.486697) can0 00D540A0#CE070000F800F600
(1728458492.486993) can0 00D540A0#000E010800000020
(1728458492.487318) can0 00D540A0#D200720B00000040
(1728458492.507235) can0 00D5A0C0#401FC0
(1728458492.507620) can0 00D540A0#466E0000401F0080
(1728458492.507914) can0 00D540A0#0000000000F6FF20
(1728458492.508237) can0 00D540A0#CC070000F800F600
(1728458492.508489) can0 00D540A0#000E010800000020
(1728458492.508792) can0 00D540A0#C800740B00000040
(1728458492.529304) can0 00D5A0C0#401FC0
(1728458492.529697) can0 00D540A0#3D550000401F0080
(1728458492.529987) can0 00D540A0#0000000000F6FF20
(1728458492.530298) can0 00D540A0#CE070000F800F600
(1728458492.530553) can0 00D540A0#000E010800000020
(1728458492.530849) can0 00D540A0#D200760B00000040
(1728458492.551172) can0 00D5A0C0#401FC0
(1728458492.551608) can0 00D540A0#9EFF0000401F0080
(1728458492.551891) can0 00D540A0#0000000000F7FF20
(1728458492.552214) can0 00D540A0#CE070000F800F600
(1728458492.552480) can0 00D540A0#000E010800000020
(1728458492.552768) can0 00D540A0#D200780B00000040
(1728458492.569543) can0 00D5A0C0#401FC0
(1728458492.569975) can0 00D540A0#231A0000401F0080
(1728458492.570305) can0 00D540A0#0000000000F6FF20
(1728458492.570536) can0 00D540A0#CE070000F800F600
(1728458492.570855) can0 00D540A0#000E010800000020
(1728458492.571167) can0 00D540A0#C8007A0B00000040
(1728458492.589182) can0 00D5A0C0#401FC0
(1728458492.589602) can0 00D540A0#93130000401F0080
(1728458492.589886) can0 00D540A0#0000000000F6FF20
(1728458492.590210) can0 00D540A0#CE070000F800F600
(1728458492.590459) can0 00D540A0#000E010800000020
(1728458492.590747) can0 00D540A0#D2007C0B00000040
(1728458492.612401) can0 00D5A0C0#401FC0
(1728458492.612848) can0 00D540A0#D6890000401F0080
(1728458492.613171) can0 00D540A0#0000000000F7FF20
(1728458492.613432) can0 00D540A0#CC070000F800F600
(1728458492.613736) can0 00D540A0#000E010800000020
(1728458492.614019) can0 00D540A0#D2007E0B00000040
(1728458492.632883) can0 00D5A0C0#401FC0
(1728458492.633345) can0 00D540A0#81AC0000401F0080
(1728458492.633614) can0 00D540A0#0000000000F7FF20
(1728458492.633896) can0 00D540A0#CE070000F800F600
(1728458492.634225) can0 00D540A0#000E010800000020
(1728458492.634481) can0 00D540A0#C800810B00000040
(1728458492.654612) can0 00D5A0C0#401FC0
(1728458492.655058) can0 00D540A0#372C0000401F0080
(1728458492.655368) can0 00D540A0#0000000000F7FF20
(1728458492.655662) can0 00D540A0#CE070000F800F600
(1728458492.655945) can0 00D540A0#000E010800000020
(1728458492.656267) can0 00D540A0#D200830B00000040
(1728458492.677033) can0 00D5A0C0#401FC0
(1728458492.677484) can0 00D540A0#B2E10000401F0080
(1728458492.677784) can0 00D540A0#0000000000F7FF20
(1728458492.678061) can0 00D540A0#CE070000F800F600
(1728458492.678371) can0 00D540A0#000E010800000020
(1728458492.678645) can0 00D540A0#D200850B00000040
(1728458492.699616) can0 00D5A0C0#401FC0
(1728458492.700061) can0 00D540A0#3AC00000401F0080
(1728458492.700376) can0 00D540A0#0000000000F6FF20
(1728458492.700639) can0 00D540A0#CE070000F800F600
(1728458492.700932) can0 00D540A0#000E010800000020
(1728458492.701260) can0 00D540A0#D200870B00000040
(1728458492.720631) can0 00D5A0C0#401FC0
(1728458492.721055) can0 00D540A0#54D10000401F0080
(1728458492.721371) can0 00D540A0#0000000000F7FF20
(1728458492.721665) can0 00D540A0#CC070000F800F600
(1728458492.721948) can0 00D540A0#000E010800000020
(1728458492.722269) can0 00D540A0#D200890B00000040
(1728458492.743701) can0 00D5A0C0#401FC0
(1728458492.744175) can0 00D540A0#C52C0000401F0080
(1728458492.744418) can0 00D540A0#0000000000F6FF20
(1728458492.744703) can0 00D540A0#CE070000F800F600
(1728458492.744991) can0 00D540A0#000E010800000020
(1728458492.745330) can0 00D540A0#D2008C0B00000040
(1728458492.760587) can0 00D5A0C0#401FC0
(1728458492.761062) can0 00D540A0#94860000401F0080
(1728458492.761372) can0 00D540A0#0000000000F6FF20
(1728458492.761637) can0 00D540A0#CE070000F800F600
(1728458492.761921) can0 00D540A0#000E010800000020
(1728458492.762259) can0 00D540A0#D2008D0B00000040
(1728458492.781825) can0 00D5A0C0#401FC0
(1728458492.782284) can0 00D540A0#1CA70000401F0080
(1728458492.782550) can0 00D540A0#0000000000F7FF20
(1728458492.782853) can0 00D540A0#CE070000F800F600
(1728458492.783177) can0 00D540A0#000E010800000020
(1728458492.783426) can0 00D540A0#D2008F0B00000040
(1728458492.803635) can0 00D5A0C0#401FC0
(1728458492.804068) can0 00D540A0#FA5C0000401F0080
(1728458492.804379) can0 00D540A0#0000000000F6FF20
(1728458492.804656) can0 00D540A0#CC070000F800F600
(1728458492.804937) can0 00D540A0#000E010800000020
(1728458492.805272) can0 00D540A0#D200920B00000040
(1728458492.824920) can0 00D5A0C0#401FC0
(1728458492.825382) can0 00D540A0#B22A0000401F0080
(1728458492.825661) can0 00D540A0#0000000000F6FF20
(1728458492.825943) can0 00D540A0#CE070000F800F600
(1728458492.826266) can0 00D540A0#000E010800000020
(1728458492.826533) can0 00D540A0#D200940B00000040
(1728458492.846188) can0 00D5A0C0#401FC0
(1728458492.846554) can0 00D540A0#FCD50000401F0080
(1728458492.846833) can0 00D540A0#0000000000F6FF20
(1728458492.847181) can0 00D540A0#CC070000F800F600
(1728458492.847433) can0 00D540A0#000E010800000020
(1728458492.847716) can0 00D540A0#D200960B00000040
(1728458492.868189) can0 00D5A0C0#401FC0
(1728458492.868605) can0 00D540A0#99A10000401F0080
(1728458492.868904) can0 00D540A0#0000000000F6FF20
(1728458492.869214) can0 00D540A0#CE070000F800F600
(1728458492.869482) can0 00D540A0#000E010800000020
(1728458492.869767) can0 00D540A0#D200980B00000040
(1728458492.890304) can0 00D5A0C0#401FC0
(1728458492.890681) can0 00D540A0#DC3B0000401F0080
(1728458492.890996) can0 00D540A0#0000000000F7FF20
(1728458492.891321) can0 00D540A0#CC070000F800F600
(1728458492.891579) can0 00D540A0#000E010800000020
(1728458492.891865) can0 00D540A0#D2009A0B00000040
(1728458492.913646) can0 00D5A0C0#401FC0
(1728458492.914070) can0 00D540A0#15F30000401F0080
(1728458492.914382) can0 00D540A0#0000000000F4FF20
(1728458492.914656) can0 00D540A0#CC070000F800F600
(1728458492.914938) can0 00D540A0#000E010800000020
(1728458492.915272) can0 00D540A0#D2009D0B00000040
(1728458492.930709) can0 00D5A0C0#401FC0
(1728458492.931188) can0 00D540A0#D1D70000401F0080
(1728458492.931422) can0 00D540A0#0000000000F6FF20
(1728458492.931720) can0 00D540A0#CC070000F800F600
(1728458492.931997) can0 00D540A0#000E010800000020
(1728458492.932344) can0 00D540A0#D2009E0B00000040
(1728458492.957085) can0 00D5A0C0#401FC0
(1728458492.957506) can0 00D540A0#C6BE0000401F0080
(1728458492.957842) can0 00D540A0#0000000000F6FF20
(1728458492.958097) can0 00D540A0#CC070000F800F600
(1728458492.958383) can0 00D540A0#000E010800000020
(1728458492.958671) can0 00D540A0#D200A10B00000040
(1728458492.980713) can0 00D5A0C0#401FC0
(1728458492.981186) can0 00D540A0#5B0D0000401F0080
(1728458492.981429) can0 00D540A0#0000000000F9FF20
(1728458492.981733) can0 00D540A0#CC070000F800F600
(1728458492.982022) can0 00D540A0#000E010800000020
(1728458492.982341) can0 00D540A0#C800A30B00000040
(1728458493.004075) can0 00D5A0C0#401FC0
(1728458493.004513) can0 00D540A0#19BC0000401F0080
(1728458493.004812) can0 00D540A0#0000000000F7FF20
(1728458493.005091) can0 00D540A0#CC070000F800F600
(1728458493.005384) can0 00D540A0#000E010800000020
(1728458493.005689) can0 00D540A0#D200A60B00000040
(1728458493.025550) can0 00D5A0C0#401FC0
(1728458493.025980) can0 00D540A0#BA160000401F0080
(1728458493.026303) can0 00D540A0#0000000000F6FF20
(1728458493.026552) can0 00D540A0#CC070000F800F600
(1728458493.026837) can0 00D540A0#000E010800000020
(1728458493.027193) can0 00D540A0#D200A80B00000040
(1728458493.047741) can0 00D5A0C0#401FC0
(1728458493.048209) can0 00D540A0#32370000401F0080
(1728458493.048459) can0 00D540A0#0000000000F7FF20
(1728458493.048737) can0 00D540A0#CC070000F800F600
(1728458493.049029) can0 00D540A0#000E010800000020
(1728458493.049357) can0 00D540A0#D200AA0B00000040
(1728458493.069723) can0 00D5A0C0#401FC0
(1728458493.070185) can0 00D540A0#B7FA0000401F0080
(1728458493.070447) can0 00D540A0#0000000000F7FF20
(1728458493.070740) can0 00D540A0#CC070000F800F600
(1728458493.071025) can0 00D540A0#000E010800000020
(1728458493.071345) can0 00D540A0#D200AC0B00000040
(1728458493.090622) can0 00D5A0C0#401FC0
(1728458493.091072) can0 00D540A0#3FDB0000401F0080
(1728458493.091388) can0 00D540A0#0000000000F6FF20
(1728458493.091657) can0 00D540A0#CC070000F800F600
(1728458493.091939) can0 00D540A0#000E010800000020
(1728458493.092274) can0 00D540A0#D200AE0B00000040
(1728458493.111221) can0 00D5A0C0#401FC0
(1728458493.111588) can0 00D540A0#F8D40000401F0080
(1728458493.111868) can0 00D540A0#0000000000F6FF20
(1728458493.112195) can0 00D540A0#CC070000F800F600
(1728458493.112436) can0 00D540A0#000E010800000020
(1728458493.112746) can0 00D540A0#C800B00B00000040
(1728458493.131980) can0 00D5A0C0#401FC0
(1728458493.132280) can0 00D540A0#61FF0000401F0080
(1728458493.132526) can0 00D540A0#0000000000F6FF20
(1728458493.132816) can0 00D540A0#CE070000F900F600
(1728458493.133194) can0 00D540A0#000E010800000020
(1728458493.133425) can0 00D540A0#D200B20B00000040
(1728458493.155555) can0 00D5A0C0#401FC0
(1728458493.155782) can0 00D540A0#78230000401F0080
(1728458493.156079) can0 00D540A0#0000000000F6FF20
(1728458493.156398) can0 00D540A0#CC070000F900F600
(1728458493.156660) can0 00D540A0#000E010800000020
(1728458493.156949) can0 00D540A0#D200B50B00000040
(1728458493.178470) can0 00D5A0C0#401FC0
(1728458493.178885) can0 00D540A0#19770000401F0080
(1728458493.179195) can0 00D540A0#0000000000F6FF20
(1728458493.179469) can0 00D540A0#CC070000F800F600
(1728458493.179754) can0 00D540A0#000E010800000020
(1728458493.180051) can0 00D540A0#D200B70B00000040
(1728458493.199945) can0 00D5A0C0#401FC0
(1728458493.200397) can0 00D540A0#B1B80000401F0080
(1728458493.200687) can0 00D540A0#0000000000F6FF20
(1728458493.200973) can0 00D540A0#CC070000F800F600
(1728458493.201296) can0 00D540A0#000E010800000020
(1728458493.201557) can0 00D540A0#D200B90B00000040
(1728458493.221401) can0 00D5A0C0#401FC0
(1728458493.221823) can0 00D540A0#39990000401F0080
(1728458493.222201) can0 00D540A0#0000000000F7FF20
(1728458493.222435) can0 00D540A0#CC070000F800F600
(1728458493.222721) can0 00D540A0#000E010800000020
(1728458493.223001) can0 00D540A0#D200BB0B00000040
(1728458493.245548) can0 00D5A0C0#401FC0
(1728458493.245731) can0 00D540A0#6EBA0000401F0080
(1728458493.246028) can0 00D540A0#0000000000F7FF20
(1728458493.246341) can0 00D540A0#CC070000F800F600
(1728458493.246589) can0 00D540A0#000E010800000020
(1728458493.246902) can0 00D540A0#D200BE0B00000040
(1728458493.267595) can0 00D5A0C0#401FC0
(1728458493.268079) can0 00D540A0#40680000401F0080
(1728458493.268395) can0 00D540A0#0000000000F7FF20
(1728458493.268661) can0 00D540A0#CC070000F800F600
(1728458493.268944) can0 00D540A0#000E010800000020
(1728458493.269287) can0 00D540A0#D200C00B00000040
(1728458493.288641) can0 00D5A0C0#401FC0
(1728458493.289074) can0 00D540A0#C8490000401F0080
(1728458493.289397) can0 00D540A0#0000000000F6FF20
(1728458493.289660) can0 00D540A0#CC070000F800F600
(1728458493.289948) can0 00D540A0#000E010800000020
(1728458493.290283) can0 00D540A0#D200C20B00000040
(1728458493.307410) can0 00D5A0C0#401FC0
(1728458493.307809) can0 00D540A0#BE9E0000401F0080
(1728458493.308103) can0 00D540A0#0000000000F7FF20
(1728458493.308395) can0 00D540A0#CE070000F800F600
(1728458493.308684) can0 00D540A0#000E010800000020
(1728458493.308979) can0 00D540A0#C800C40B00000040
(1728458493.328070) can0 00D5A0C0#401FC0
(1728458493.328317) can0 00D540A0#E5F30000401F0080
(1728458493.328606) can0 00D540A0#0000000000F9FF20
(1728458493.328876) can0 00D540A0#CC070000F800F600
(1728458493.329227) can0 00D540A0#000E010800000020
(1728458493.329458) can0 00D540A0#D200C60B00000040
(1728458493.351240) can0 00D5A0C0#401FC0
(1728458493.351491) can0 00D540A0#6D6A0000401F0080
(1728458493.351787) can0 00D540A0#0000000000F7FF20
(1728458493.352083) can0 00D540A0#CC070000F800F600
(1728458493.352407) can0 00D540A0#000E010800000020
(1728458493.352646) can0 00D540A0#D200C80B00000040
(1728458493.373917) can0 00D5A0C0#401FC0
(1728458493.374364) can0 00D540A0#81250000401F0080
(1728458493.374635) can0 00D540A0#0000000000F6FF20
(1728458493.374910) can0 00D540A0#CC070000F800F600
(1728458493.375204) can0 00D540A0#000E010800000020
(1728458493.375506) can0 00D540A0#C800CB0B00000040
(1728458493.396822) can0 00D5A0C0#401FC0
(1728458493.397313) can0 00D540A0#3A490000401F0080
(1728458493.397577) can0 00D540A0#0000000000F7FF20
(1728458493.397853) can0 00D540A0#CC070000F800F600
(1728458493.398228) can0 00D540A0#000E010800000020
(1728458493.398459) can0 00D540A0#D200CD0B00000040
(1728458493.418565) can0 00D5A0C0#401FC0
(1728458493.418985) can0 00D540A0#7FD30000401F0080
(1728458493.419310) can0 00D540A0#0000000000F6FF20
(1728458493.419529) can0 00D540A0#CE070000F800F600
(1728458493.419848) can0 00D540A0#000E010800000020
(1728458493.420144) can0 00D540A0#D200CF0B00000040
(1728458493.441605) can0 00D5A0C0#401FC0
(1728458493.442047) can0 00D540A0#7E020000401F0080
(1728458493.442374) can0 00D540A0#0000000000F7FF20
(1728458493.442643) can0 00D540A0#CC070000F800F600
(1728458493.442937) can0 00D540A0#000E010800000020
(1728458493.443230) can0 00D540A0#C800D10B00000040
(1728458493.462676) can0 00D5A0C0#401FC0
(1728458493.463207) can0 00D540A0#CCF10000401F0080
(1728458493.463439) can0 00D540A0#0000000000F4FF20
(1728458493.463700) can0 00D540A0#CE070000F800F600
(1728458493.464002) can0 00D540A0#000E010800000020
(1728458493.464327) can0 00D540A0#D200D40B00000040
(1728458493.480346) can0 00D5A0C0#401FC0
(1728458493.480738) can0 00D540A0#80F40000401F0080
(1728458493.481029) can0 00D540A0#0000000000F7FF20
(1728458493.481376) can0 00D540A0#CE070000F800F600
(1728458493.481621) can0 00D540A0#000E010800000020
(1728458493.481910) can0 00D540A0#D200D50B00000040
(1728458493.500795) can0 00D5A0C0#401FC0
(1728458493.501245) can0 00D540A0#36740000401F0080
(1728458493.501512) can0 00D540A0#0000000000F7FF20
(1728458493.501808) can0 00D540A0#CE070000F800F600
(1728458493.502099) can0 00D540A0#000E010800000020
(1728458493.502407) can0 00D540A0#C800D70B00000040
(1728458493.522103) can0 00D5A0C0#401FC0
(1728458493.522529) can0 00D540A0#58650000401F0080
(1728458493.522815) can0 00D540A0#0000000000F6FF20
(1728458493.523101) can0 00D540A0#CC070000F800F600
(1728458493.523413) can0 00D540A0#000E010800000020
(1728458493.523700) can0 00D540A0#C800D90B00000040
(1728458493.545933) can0 00D5A0C0#401FC0
(1728458493.546384) can0 00D540A0#F7390000401F0080
(1728458493.546639) can0 00D540A0#0000000000F6FF20
(1728458493.546921) can0 00D540A0#CE070000F800F600
(1728458493.547213) can0 00D540A0#000E010800000020
(1728458493.547502) can0 00D540A0#D200DC0B00000040
(1728458493.567908) can0 00D5A0C0#401FC0
(1728458493.568369) can0 00D540A0#4ADC0000401F0080
(1728458493.568640) can0 00D540A0#0000000000F7FF20
(1728458493.568934) can0 00D540A0#CE070000F800F600
(1728458493.569260) can0 00D540A0#000E010800000020
(1728458493.569513) can0 00D540A0#C800DE0B00000040
(1728458493.588904) can0 00D5A0C0#401FC0
(1728458493.589368) can0 00D540A0#32BE0000401F0080
(1728458493.589652) can0 00D540A0#0000000000F6FF20
(1728458493.589916) can0 00D540A0#CE070000F800F600
(1728458493.590215) can0 00D540A0#000E010800000020
(1728458493.590506) can0 00D540A0#D200E00B00000040
(1728458493.613112) can0 00D5A0C0#401FC0
(1728458493.613528) can0 00D540A0#2DEB0000401F0080
(1728458493.613822) can0 00D540A0#0000000000F6FF20
(1728458493.614106) can0 00D540A0#CC070000F800F600
(1728458493.614411) can0 00D540A0#000E010800000020
(1728458493.614696) can0 00D540A0#D200E30B00000040
(1728458493.634225) can0 00D5A0C0#401FC0
(1728458493.634639) can0 00D540A0#50590000401F0080
(1728458493.634924) can0 00D540A0#0000000000F6FF20
(1728458493.635217) can0 00D540A0#CE070000F800F600
(1728458493.635514) can0 00D540A0#000E010800000020
(1728458493.635807) can0 00D540A0#C800E50B00000040
(1728458493.651494) can0 00D5A0C0#401FC0
(1728458493.651908) can0 00D540A0#44690000401F0080
(1728458493.652218) can0 00D540A0#0000000000F7FF20
(1728458493.652503) can0 00D540A0#CC070000F800F600
(1728458493.652792) can0 00D540A0#000E010800000020
(1728458493.653095) can0 00D540A0#C800E60B00000040
(1728458493.672264) can0 00D5A0C0#401FC0
(1728458493.672651) can0 00D540A0#D9620000401F0080
(1728458493.672947) can0 00D540A0#0000000000F7FF20
(1728458493.673265) can0 00D540A0#CC070000F800F600
(1728458493.673521) can0 00D540A0#000E010800000020
(1728458493.673818) can0 00D540A0#D200E80B00000040
(1728458493.694293) can0 00D5A0C0#401FC0
(1728458493.694708) can0 00D540A0#7D500000401F0080
(1728458493.694984) can0 00D540A0#0000000000F7FF20
(1728458493.695308) can0 00D540A0#CA070000F800F600
(1728458493.695572) can0 00D540A0#000E010800000020
(1728458493.695861) can0 00D540A0#D200EB0B00000040
(1728458493.717068) can0 00D5A0C0#401FC0
(1728458493.717512) can0 00D540A0#F3F80000401F0080
(1728458493.717789) can0 00D540A0#0000000000F6FF20
(1728458493.718088) can0 00D540A0#CA070000F800F600
(1728458493.718410) can0 00D540A0#000E010800000020
(1728458493.718671) can0 00D540A0#D200ED0B00000040
(1728458493.741232) can0 00D5A0C0#401FC0
(1728458493.741590) can0 00D540A0#C0BE0000401F0080
(1728458493.741891) can0 00D540A0#0000000000F7FF20
(1728458493.742220) can0 00D540A0#CE070000F800F600
(1728458493.742488) can0 00D540A0#000E010800000020
(1728458493.742767) can0 00D540A0#D200EF0B00000040
(1728458493.763682) can0 00D5A0C0#401FC0
(1728458493.764131) can0 00D540A0#E09B0000401F0080
(1728458493.764431) can0 00D540A0#0000000000F7FF20
(1728458493.764710) can0 00D540A0#CE070000F800F600
(1728458493.765013) can0 00D540A0#000E010800000020
(1728458493.765334) can0 00D540A0#D200F20B00000040
(1728458493.785039) can0 00D5A0C0#401FC0
(1728458493.785467) can0 00D540A0#964C0000401F0080
(1728458493.785764) can0 00D540A0#0000000000F6FF20
(1728458493.786053) can0 00D540A0#CC070000F800F600
(1728458493.786376) can0 00D540A0#000E010800000020
(1728458493.786639) can0 00D540A0#C800F40B00000040
(1728458493.809334) can0 00D5A0C0#401FC0
(1728458493.809718) can0 00D540A0#ED770000401F0080
(1728458493.810013) can0 00D540A0#0000000000F6FF20
(1728458493.810330) can0 00D540A0#CE070000F800F600
(1728458493.810594) can0 00D540A0#000E010800000020
(1728458493.810888) can0 00D540A0#D200F60B00000040
(1728458493.831584) can0 00D5A0C0#401FC0
(1728458493.832024) can0 00D540A0#4EDD0000401F0080
(1728458493.832347) can0 00D540A0#0000000000F7FF20
(1728458493.832589) can0 00D540A0#CE070000F800F600
(1728458493.832896) can0 00D540A0#000E010800000020
(1728458493.833229) can0 00D540A0#D200F80B00000040
(1728458493.848246) can0 00D5A0C0#401FC0
(1728458493.848594) can0 00D540A0#CD990000401F0080
(1728458493.848896) can0 00D540A0#0000000000F7FF20
(1728458493.849231) can0 00D540A0#CE070000F800F600
(1728458493.849467) can0 00D540A0#000E010800000020
(1728458493.849773) can0 00D540A0#D200FA0B00000040
(1728458493.868493) can0 00D5A0C0#401FC0
(1728458493.868901) can0 00D540A0#43310000401F0080
(1728458493.869221) can0 00D540A0#0000000000F6FF20
(1728458493.869487) can0 00D540A0#CE070000F800F600
(1728458493.869779) can0 00D540A0#000E010800000020
(1728458493.870069) can0 00D540A0#D200FC0B00000040
(1728458493.891056) can0 00D5A0C0#401FC0
(1728458493.891481) can0 00D540A0#C0750000401F0080
(1728458493.891772) can0 00D540A0#0000000000F6FF20
(1728458493.892055) can0 00D540A0#CE070000F800F600
(1728458493.892370) can0 00D540A0#000E010800000020
(1728458493.892663) can0 00D540A0#D200FE0B00000040
(1728458493.914484) can0 00D5A0C0#401FC0
(1728458493.914909) can0 00D540A0#427E0000401F0080
(1728458493.915233) can0 00D540A0#0000000000F6FF20
(1728458493.915494) can0 00D540A0#CE070000F800F600
(1728458493.915775) can0 00D540A0#000E010800000020
(1728458493.916076) can0 00D540A0#D200010C00000040
(1728458493.936154) can0 00D5A0C0#401FC0
(1728458493.936605) can0 00D540A0#D7F00000401F0080
(1728458493.936906) can0 00D540A0#0000000000F4FF20
(1728458493.937234) can0 00D540A0#CE070000F800F600
(1728458493.937467) can0 00D540A0#000E010800000020
(1728458493.937773) can0 00D540A0#D200030C00000040
(1728458493.957866) can0 00D5A0C0#401FC0
(1728458493.958317) can0 00D540A0#894C0000401F0080
(1728458493.958583) can0 00D540A0#0000000000F6FF20
(1728458493.958861) can0 00D540A0#CC070000F800F600
(1728458493.959229) can0 00D540A0#000E010800000020
(1728458493.959460) can0 00D540A0#D200050C00000040
(1728458493.979351) can0 00D5A0C0#401FC0
(1728458493.979768) can0 00D540A0#016D0000401F0080
(1728458493.980057) can0 00D540A0#0000000000F7FF20
(1728458493.980375) can0 00D540A0#CC070000F800F600
(1728458493.980636) can0 00D540A0#000E010800000020
(1728458493.980923) can0 00D540A0#D200070C00000040
(1728458494.000766) can0 00D5A0C0#401FC0
(1728458494.001238) can0 00D540A0#A2C70000401F0080
(1728458494.001464) can0 00D540A0#0000000000F6FF20
(1728458494.001766) can0 00D540A0#CC070000F800F600
(1728458494.002062) can0 00D540A0#000E010800000020
(1728458494.002375) can0 00D540A0#D200090C00000040
(1728458494.016649) can0 00D5A0C0#401FC0
(1728458494.017104) can0 00D540A0#2AE60000401F0080
(1728458494.017430) can0 00D540A0#0000000000F7FF20
(1728458494.017703) can0 00D540A0#CC070000F800F600
(1728458494.017987) can0 00D540A0#000E010800000020
(1728458494.018311) can0 00D540A0#D2000B0C00000040
(1728458494.035849) can0 00D5A0C0#401FC0
(1728458494.036311) can0 00D540A0#A44E0000401F0080
(1728458494.036575) can0 00D540A0#0000000000F6FF20
(1728458494.036864) can0 00D540A0#CC070000F800F600
(1728458494.037234) can0 00D540A0#000E010800000020
(1728458494.037465) can0 00D540A0#D2000D0C00000040
(1728458494.056433) can0 00D5A0C0#401FC0
(1728458494.056802) can0 00D540A0#E1D40000401F0080
(1728458494.057088) can0 00D540A0#0000000000F7FF20
(1728458494.057421) can0 00D540A0#CE070000F800F600
(1728458494.057662) can0 00D540A0#000E010800000020
(1728458494.057960) can0 00D540A0#D2000F0C00000040
(1728458494.078846) can0 00D5A0C0#401FC0
(1728458494.079360) can0 00D540A0#DEA40000401F0080
(1728458494.079599) can0 00D540A0#0000000000F7FF20
(1728458494.079875) can0 00D540A0#CC070000F800F600
(1728458494.080235) can0 00D540A0#000E010800000020
(1728458494.080466) can0 00D540A0#D200110C00000040
(1728458494.099982) can0 00D5A0C0#401FC0
(1728458494.100438) can0 00D540A0#9B3E0000401F0080
(1728458494.100721) can0 00D540A0#0000000000F6FF20
(1728458494.101013) can0 00D540A0#CE070000F800F600
(1728458494.101319) can0 00D540A0#000E010800000020
(1728458494.101590) can0 00D540A0#D200130C00000040
(1728458494.121004) can0 00D5A0C0#401FC0
(1728458494.121434) can0 00D540A0#D82D0000401F0080
(1728458494.121712) can0 00D540A0#0000000000F7FF20
(1728458494.121997) can0 00D540A0#CC070000F800F600
(1728458494.122327) can0 00D540A0#000E010800000020
(1728458494.122585) can0 00D540A0#D200150C00000040
(1728458494.143884) can0 00D5A0C0#401FC0
(1728458494.144339) can0 00D540A0#A20C0000401F0080
(1728458494.144604) can0 00D540A0#0000000000F7FF20
(1728458494.144902) can0 00D540A0#CC070000F800F600
(1728458494.145244) can0 00D540A0#000E010800000020
(1728458494.145475) can0 00D540A0#D200180C00000040
(1728458494.165401) can0 00D5A0C0#401FC0
(1728458494.165792) can0 00D540A0#E7960000401F0080
(1728458494.166083) can0 00D540A0#0000000000F6FF20
(1728458494.166406) can0 00D540A0#CE070000F800F600
(1728458494.166661) can0 00D540A0#000E010800000020
(1728458494.166964) can0 00D540A0#D2001A0C00000040
(1728458494.180772) can0 00D5A0C0#401FC0
(1728458494.181241) can0 00D540A0#83F80000401F0080
(1728458494.181525) can0 00D540A0#0000000000F6FF20
(1728458494.181810) can0 00D540A0#CE070000F800F600
(1728458494.182096) can0 00D540A0#000E010800000020
(1728458494.182431) can0 00D540A0#C8001B0C00000040
(1728458494.201120) can0 00D5A0C0#401FC0
(1728458494.201541) can0 00D540A0#38940000401F0080
(1728458494.201855) can0 00D540A0#0000000000F7FF20
(1728458494.202148) can0 00D540A0#CE070000F800F600
(1728458494.202440) can0 00D540A0#000E010800000020
(1728458494.202719) can0 00D540A0#D2001D0C00000040
(1728458494.221714) can0 00D5A0C0#401FC0
(1728458494.222165) can0 00D540A0#7D0E0000401F0080
(1728458494.222465) can0 00D540A0#0000000000F6FF20
(1728458494.222753) can0 00D540A0#CC070000F800F600
(1728458494.223035) can0 00D540A0#000E010800000020
(1728458494.223375) can0 00D540A0#D2001F0C00000040
(1728458494.244883) can0 00D5A0C0#401FC0
(1728458494.245343) can0 00D540A0#E9230000401F0080
(1728458494.245605) can0 00D540A0#0000000000F6FF20
(1728458494.245894) can0 00D540A0#CC070000F800F600
(1728458494.246185) can0 00D540A0#000E010800000020
(1728458494.246498) can0 00D540A0#D200220C00000040
(1728458494.266812) can0 00D5A0C0#401FC0
(1728458494.267243) can0 00D540A0#678B0000401F0080
(1728458494.267528) can0 00D540A0#0000000000F7FF20
(1728458494.267830) can0 00D540A0#CC070000F800F600
(1728458494.268125) can0 00D540A0#000E010800000020
(1728458494.268440) can0 00D540A0#D200240C00000040
(1728458494.288293) can0 00D5A0C0#401FC0
(1728458494.288678) can0 00D540A0#EFAA0000401F0080
(1728458494.288970) can0 00D540A0#0000000000F6FF20
(1728458494.289293) can0 00D540A0#CC070000F800F600
(1728458494.289548) can0 00D540A0#000E010800000020
(1728458494.289838) can0 00D540A0#D200260C00000040
(1728458494.312663) can0 00D5A0C0#401FC0
(1728458494.312918) can0 00D540A0#79C40000401F0080
(1728458494.313248) can0 00D540A0#0000000000F7FF20
(1728458494.313509) can0 00D540A0#CC070000F800F600
(1728458494.313794) can0 00D540A0#000E010800000020
(1728458494.314083) can0 00D540A0#C800280C00000040
(1728458494.335174) can0 00D5A0C0#401FC0
(1728458494.335251) can0 00D540A0#58300000401F0080
(1728458494.335536) can0 00D540A0#0000000000F6FF20
(1728458494.335812) can0 00D540A0#CE070000F800F600
(1728458494.336109) can0 00D540A0#000E010800000020
(1728458494.336438) can0 00D540A0#D2002B0C00000040
(1728458494.356287) can0 00D5A0C0#401FC0
(1728458494.356658) can0 00D540A0#10460000401F0080
(1728458494.356939) can0 00D540A0#0000000000F6FF20
(1728458494.357248) can0 00D540A0#CC070000F800F600
(1728458494.357547) can0 00D540A0#000E010800000020
(1728458494.357805) can0 00D540A0#D2002D0C00000040
(1728458494.374890) can0 00D5A0C0#401FC0
(1728458494.375124) can0 00D540A0#93020000401F0080
(1728458494.375435) can0 00D540A0#0000000000F6FF20
(1728458494.375690) can0 00D540A0#CC070000F800F600
(1728458494.375978) can0 00D540A0#000E010800000020
(1728458494.376313) can0 00D540A0#D2002F0C00000040
(1728458494.394566) can0 00D5A0C0#401FC0
(1728458494.394607) can0 00D540A0#AC720000401F0080
(1728458494.394935) can0 00D540A0#0000000000F6FF20
(1728458494.395275) can0 00D540A0#CE070000F800F600
(1728458494.395507) can0 00D540A0#000E010800000020
(1728458494.395809) can0 00D540A0#D200310C00000040
(1728458494.416065) can0 00D5A0C0#401FC0
(1728458494.416277) can0 00D540A0#2F360000401F0080
(1728458494.416531) can0 00D540A0#0000000000F6FF20
(1728458494.416816) can0 00D540A0#CE070000F800F600
(1728458494.417124) can0 00D540A0#000E010800000020
(1728458494.417437) can0 00D540A0#D200330C00000040
(1728458494.437689) can0 00D5A0C0#401FC0
(1728458494.437813) can0 00D540A0#4C730000401F0080
(1728458494.438127) can0 00D540A0#0000000000F9FF20
(1728458494.438437) can0 00D540A0#CC070000F800F600
(1728458494.438713) can0 00D540A0#000E010800000020
(1728458494.439009) can0 00D540A0#D200350C00000040
(1728458494.457817) can0 00D5A0C0#401FC0
(1728458494.458252) can0 00D540A0#1C7B0000401F0080
(1728458494.458509) can0 00D540A0#0000000000F6FF20
(1728458494.458795) can0 00D540A0#CE070000F800F600
(1728458494.459085) can0 00D540A0#000E010800000020
(1728458494.459414) can0 00D540A0#C800370C00000040
(1728458494.484063) can0 00D5A0C0#401FC0
(1728458494.484072) can0 00D540A0#9E250000401F0080
(1728458494.484145) can0 00D540A0#0000000000F6FF20
(1728458494.484476) can0 00D540A0#CC070000F800F600
(1728458494.484752) can0 00D540A0#000E010800000020
(1728458494.485036) can0 00D540A0#D2003A0C00000040
(1728458494.505905) can0 00D5A0C0#401FC0
(1728458494.506357) can0 00D540A0#DD360000401F0080
(1728458494.506633) can0 00D540A0#0000000000F7FF20
(1728458494.506908) can0 00D540A0#CE070000F800F600
(1728458494.507192) can0 00D540A0#000E010800000020
(1728458494.507499) can0 00D540A0#D2003C0C00000040
(1728458494.527978) can0 00D5A0C0#401FC0
(1728458494.528284) can0 00D540A0#93C90000401F0080
(1728458494.528542) can0 00D540A0#0000000000F7FF20
(1728458494.528827) can0 00D540A0#CC070000F800F600
(1728458494.529123) can0 00D540A0#000E010800000020
(1728458494.529448) can0 00D540A0#D2003E0C00000040
(1728458494.544507) can0 00D5A0C0#401FC0
(1728458494.544751) can0 00D540A0#70A00000401F0080
(1728458494.545037) can0 00D540A0#0000000000F7FF20
(1728458494.545354) can0 00D540A0#CE070000F800F600
(1728458494.545618) can0 00D540A0#000E010800000020
(1728458494.545918) can0 00D540A0#D200400C00000040
(1728458494.563477) can0 00D5A0C0#401FC0
(1728458494.563938) can0 00D540A0#353A0000401F0080
(1728458494.564253) can0 00D540A0#0000000000F6FF20
(1728458494.564488) can0 00D540A0#CC070000F800F600
(1728458494.564784) can0 00D540A0#000E010800000020
(1728458494.565069) can0 00D540A0#D200420C00000040
(1728458494.584479) can0 00D5A0C0#401FC0
(1728458494.584893) can0 00D540A0#8E560000401F0080
(1728458494.585184) can0 00D540A0#0000000000F7FF20
(1728458494.585490) can0 00D540A0#CC070000F800F600
(1728458494.585781) can0 00D540A0#000E010800000020
(1728458494.586036) can0 00D540A0#C800440C00000040
(1728458494.607091) can0 00D5A0C0#401FC0
(1728458494.607509) can0 00D540A0#33B30000401F0080
(1728458494.607817) can0 00D540A0#0000000000F6FF20
(1728458494.608096) can0 00D540A0#CC070000F800F600
(1728458494.608431) can0 00D540A0#000E010800000020
(1728458494.608686) can0 00D540A0#D200460C00000040
(1728458494.627489) can0 00D5A0C0#401FC0
(1728458494.627879) can0 00D540A0#90190000401F0080
(1728458494.628194) can0 00D540A0#0000000000F7FF20
(1728458494.628494) can0 00D540A0#CC070000F800F600
(1728458494.628778) can0 00D540A0#000E010800000020
(1728458494.629070) can0 00D540A0#D200480C00000040
(1728458494.650916) can0 00D5A0C0#401FC0
(1728458494.651363) can0 00D540A0#E0470000401F0080
(1728458494.651606) can0 00D540A0#0000000000F6FF20
(1728458494.651909) can0 00D540A0#CE070000F800F600
(1728458494.652197) can0 00D540A0#000E010800000020
(1728458494.652498) can0 00D540A0#C8004A0C00000040
(1728458494.672014) can0 00D5A0C0#401FC0
(1728458494.672484) can0 00D540A0#5B2B0000401F0080
(1728458494.672737) can0 00D540A0#0000000000F7FF20
(1728458494.673019) can0 00D540A0#CE070000F800F600
(1728458494.673351) can0 00D540A0#000E010800000020
(1728458494.673602) can0 00D540A0#D2004C0C00000040
(1728458494.694306) can0 00D5A0C0#401FC0
(1728458494.694578) can0 00D540A0#39C70000401F0080
(1728458494.694877) can0 00D540A0#0000000000F6FF20
(1728458494.695174) can0 00D540A0#CA070000F800F600
(1728458494.695484) can0 00D540A0#000E010800000020
(1728458494.695754) can0 00D540A0#D2004F0C00000040
(1728458494.710310) can0 00D5A0C0#401FC0
(1728458494.710567) can0 00D540A0#D2DB0000401F0080
(1728458494.710855) can0 00D540A0#0000000000F7FF20
(1728458494.711151) can0 00D540A0#CC070000F800F600
(1728458494.711474) can0 00D540A0#000E010800000020
(1728458494.711730) can0 00D540A0#C800500C00000040
(1728458494.729723) can0 00D5A0C0#401FC0
(1728458494.730189) can0 00D540A0#A9E00000401F0080
(1728458494.730487) can0 00D540A0#0000000000F7FF20
(1728458494.730770) can0 00D540A0#CE070000F800F600
(1728458494.731063) can0 00D540A0#000E010800000020
(1728458494.731390) can0 00D540A0#D200520C00000040
(1728458494.750436) can0 00D5A0C0#401FC0
(1728458494.750831) can0 00D540A0#E1960000401F0080
(1728458494.751134) can0 00D540A0#0000000000F7FF20
(1728458494.751473) can0 00D540A0#CC070000F800F600
(1728458494.751730) can0 00D540A0#000E010800000020
(1728458494.752021) can0 00D540A0#D200540C00000040
(1728458494.774619) can0 00D5A0C0#401FC0
(1728458494.775071) can0 00D540A0#CB070000401F0080
(1728458494.775393) can0 00D540A0#0000000000F7FF20
(1728458494.775641) can0 00D540A0#CE070000F800F600
(1728458494.775931) can0 00D540A0#000E010800000020
(1728458494.776291) can0 00D540A0#C800570C00000040
(1728458494.797899) can0 00D5A0C0#401FC0
(1728458494.798358) can0 00D540A0#90D20000401F0080
(1728458494.798628) can0 00D540A0#0000000000F6FF20
(1728458494.798909) can0 00D540A0#CC070000F800F600
(1728458494.799200) can0 00D540A0#000E010800000020
(1728458494.799497) can0 00D540A0#D200590C00000040
(1728458494.818147) can0 00D5A0C0#401FC0
(1728458494.818585) can0 00D540A0#D5480000401F0080
(1728458494.818888) can0 00D540A0#0000000000F7FF20
(1728458494.819172) can0 00D540A0#CE070000F800F600
(1728458494.819490) can0 00D540A0#000E010800000020
(1728458494.819751) can0 00D540A0#D2005B0C00000040
(1728458494.840303) can0 00D5A0C0#401FC0
(1728458494.840639) can0 00D540A0#A39F0000401F0080
(1728458494.840941) can0 00D540A0#0000000000F6FF20
(1728458494.841294) can0 00D540A0#CC070000F800F600
(1728458494.841525) can0 00D540A0#000E010800000020
(1728458494.841816) can0 00D540A0#C8005D0C00000040
(1728458494.860397) can0 00D5A0C0#401FC0
(1728458494.860796) can0 00D540A0#D3C10000401F0080
(1728458494.861085) can0 00D540A0#0000000000F7FF20
(1728458494.861400) can0 00D540A0#CE070000F800F600
(1728458494.861675) can0 00D540A0#000E010800000020
(1728458494.861953) can0 00D540A0#D2005F0C00000040
(1728458494.881683) can0 00D5A0C0#401FC0
(1728458494.882123) can0 00D540A0#53DC0000401F0080
(1728458494.882457) can0 00D540A0#0000000000F6FF20
(1728458494.882712) can0 00D540A0#CC070000F800F600
(1728458494.883004) can0 00D540A0#000E010800000020
(1728458494.883326) can0 00D540A0#D200610C00000040
(1728458494.899030) can0 00D5A0C0#401FC0
(1728458494.899470) can0 00D540A0#28E70000401F0080
(1728458494.899736) can0 00D540A0#0000000000F6FF20
(1728458494.900019) can0 00D540A0#CE070000F800F600
(1728458494.900336) can0 00D540A0#000E010800000020
(1728458494.900619) can0 00D540A0#C800630C00000040
(1728458494.920540) can0 00D5A0C0#401FC0
(1728458494.920951) can0 00D540A0#98EE0000401F0080
(1728458494.921273) can0 00D540A0#0000000000F6FF20
(1728458494.921516) can0 00D540A0#CE070000F800F600
(1728458494.921806) can0 00D540A0#000E010800000020
(1728458494.922101) can0 00D540A0#D200650C00000040
(1728458494.944058) can0 00D5A0C0#401FC0
(1728458494.944478) can0 00D540A0#24110000401F0080
(1728458494.944761) can0 00D540A0#0000000000F7FF20
(1728458494.945052) can0 00D540A0#CC070000F800F600
(1728458494.945367) can0 00D540A0#000E010800000020
(1728458494.945625) can0 00D540A0#D200680C00000040
(1728458494.966004) can0 00D5A0C0#401FC0
(1728458494.966472) can0 00D540A0#99F40000401F0080
(1728458494.966736) can0 00D540A0#0000000000F6FF20
(1728458494.967020) can0 00D540A0#CC070000F800F600
(1728458494.967339) can0 00D540A0#000E010800000020
(1728458494.967598) can0 00D540A0#C8006A0C00000040
(1728458494.987197) can0 00D5A0C0#401FC0
(1728458494.987623) can0 00D540A0#29FD0000401F0080
(1728458494.987920) can0 00D540A0#0000000000F6FF20
(1728458494.988271) can0 00D540A0#CC070000F800F600
(1728458494.988501) can0 00D540A0#000E010800000020
(1728458494.988792) can0 00D540A0#D2006C0C00000040
(1728458495.009965) can0 00D5A0C0#401FC0
(1728458495.010408) can0 00D540A0#A1DC0000401F0080
(1728458495.010677) can0 00D540A0#0000000000F7FF20
(1728458495.010982) can0 00D540A0#CC070000F800F600
(1728458495.011271) can0 00D540A0#000E010800000020
(1728458495.011572) can0 00D540A0#D2006E0C00000040
(1728458495.031837) can0 00D5A0C0#401FC0
(1728458495.032278) can0 00D540A0#6DB60000401F0080
(1728458495.032549) can0 00D540A0#0000000000F6FF20
(1728458495.032831) can0 00D540A0#CC070000F800F600
(1728458495.033119) can0 00D540A0#000E010800000020
(1728458495.033450) can0 00D540A0#C800700C00000040
(1728458495.051644) can0 00D5A0C0#401FC0
(1728458495.052131) can0 00D540A0#168D0000401F0080
(1728458495.052462) can0 00D540A0#0000000000F6FF20
(1728458495.052709) can0 00D540A0#CE070000F800F600
(1728458495.053005) can0 00D540A0#000E010800000020
(1728458495.053330) can0 00D540A0#D200720C00000040
(1728458495.069908) can0 00D5A0C0#401FC0
(1728458495.070354) can0 00D540A0#5EFB0000401F0080
(1728458495.070619) can0 00D540A0#0000000000F6FF20
(1728458495.070901) can0 00D540A0#CC070000F800F600
(1728458495.071187) can0 00D540A0#000E010800000020
(1728458495.071483) can0 00D540A0#D200740C00000040
(1728458495.089666) can0 00D5A0C0#401FC0
(1728458495.090127) can0 00D540A0#E31E0000401F0080
(1728458495.090454) can0 00D540A0#0000000000F7FF20
(1728458495.090733) can0 00D540A0#CC070000F800F600
(1728458495.091025) can0 00D540A0#000E010800000020
(1728458495.091334) can0 00D540A0#C800760C00000040
(1728458495.113727) can0 00D5A0C0#401FC0
(1728458495.114134) can0 00D540A0#E2040000401F0080
(1728458495.114455) can0 00D540A0#0000000000F7FF20
(1728458495.114720) can0 00D540A0#CE070000F800F600
(1728458495.115018) can0 00D540A0#000E010800000020
(1728458495.115334) can0 00D540A0#D200790C00000040
(1728458495.134958) can0 00D5A0C0#401FC0
(1728458495.135424) can0 00D540A0#7CEF0000401F0080
(1728458495.135672) can0 00D540A0#0000000000F4FF20
(1728458495.135957) can0 00D540A0#CE070000F800F600
(1728458495.136273) can0 00D540A0#000E010800000020
(1728458495.136548) can0 00D540A0#D2007B0C00000040
(1728458495.155665) can0 00D5A0C0#401FC0
(1728458495.156139) can0 00D540A0#22530000401F0080
(1728458495.156457) can0 00D540A0#0000000000F6FF20
(1728458495.156708) can0 00D540A0#CC070000F800F600
(1728458495.157000) can0 00D540A0#000E010800000020
(1728458495.157333) can0 00D540A0#D2007D0C00000040
(1728458495.179737) can0 00D5A0C0#401FC0
(1728458495.180179) can0 00D540A0#67C90000401F0080
(1728458495.180476) can0 00D540A0#0000000000F7FF20
(1728458495.180748) can0 00D540A0#CE070000F800F600
(1728458495.181046) can0 00D540A0#000E010800000020
(1728458495.181362) can0 00D540A0#D2007F0C00000040
(1728458495.199654) can0 00D5A0C0#401FC0
(1728458495.200060) can0 00D540A0#54820000401F0080
(1728458495.200405) can0 00D540A0#0000000000F7FF20
(1728458495.200654) can0 00D540A0#CC070000F800F600
(1728458495.200938) can0 00D540A0#000E010800000020
(1728458495.201285) can0 00D540A0#D200810C00000040
(1728458495.220695) can0 00D5A0C0#401FC0
(1728458495.221129) can0 00D540A0#11180000401F0080
(1728458495.221455) can0 00D540A0#0000000000F6FF20
(1728458495.221712) can0 00D540A0#CE070000F800F600
(1728458495.221997) can0 00D540A0#000E010800000020
(1728458495.222333) can0 00D540A0#D200830C00000040
(1728458495.238522) can0 00D5A0C0#401FC0
(1728458495.238938) can0 00D540A0#9FB00000401F0080
(1728458495.239282) can0 00D540A0#0000000000F7FF20
(1728458495.239566) can0 00D540A0#CE070000F800F600
(1728458495.239833) can0 00D540A0#000E010800000020
(1728458495.240113) can0 00D540A0#D200850C00000040
(1728458495.257490) can0 00D5A0C0#401FC0
(1728458495.257932) can0 00D540A0#1CF40000401F0080
(1728458495.258281) can0 00D540A0#0000000000F7FF20
(1728458495.258520) can0 00D540A0#CE070000F800F600
(1728458495.258801) can0 00D540A0#000E010800000020
(1728458495.259090) can0 00D540A0#D200870C00000040
(1728458495.280298) can0 00D5A0C0#401FC0
(1728458495.280639) can0 00D540A0#72E50000401F0080
(1728458495.280934) can0 00D540A0#0000000000F6FF20
(1728458495.281284) can0 00D540A0#CC070000F800F600
(1728458495.281521) can0 00D540A0#000E010800000020
(1728458495.281806) can0 00D540A0#D200890C00000040
(1728458495.301967) can0 00D5A0C0#401FC0
(1728458495.302421) can0 00D540A0#F1A10000401F0080
(1728458495.302675) can0 00D540A0#0000000000F6FF20
(1728458495.302980) can0 00D540A0#CC070000F800F600
(1728458495.303290) can0 00D540A0#000E010800000020
(1728458495.303554) can0 00D540A0#D2008B0C00000040
(1728458495.324167) can0 00D5A0C0#401FC0
(1728458495.324578) can0 00D540A0#5EFD0000401F0080
(1728458495.324868) can0 00D540A0#0000000000F6FF20
(1728458495.325148) can0 00D540A0#CE070000F800F600
(1728458495.325470) can0 00D540A0#000E010800000020
(1728458495.325737) can0 00D540A0#C8008E0C00000040
(1728458495.347479) can0 00D5A0C0#401FC0
(1728458495.348161) can0 00D540A0#0000000000F7FF20
(1728458495.348471) can0 00D540A0#CC070000F800F600
(1728458495.348753) can0 00D540A0#000E010800000020
(1728458495.349038) can0 00D540A0#D200900C00000040
(1728458495.368918) can0 00D5A0C0#401FC0
(1728458495.369356) can0 00D540A0#11D30000401F0080
(1728458495.369628) can0 00D540A0#0000000000F7FF20
(1728458495.369923) can0 00D540A0#CE070000F800F600
(1728458495.370288) can0 00D540A0#000E010800000020
(1728458495.370525) can0 00D540A0#D200920C00000040
(1728458495.390342) can0 00D5A0C0#401FC0
(1728458495.390741) can0 00D540A0#BC750000401F0080
(1728458495.391027) can0 00D540A0#0000000000F4FF20
(1728458495.391342) can0 00D540A0#CE070000F800F600
(1728458495.391598) can0 00D540A0#000E010800000020
(1728458495.391898) can0 00D540A0#C800940C00000040
(1728458495.413439) can0 00D5A0C0#401FC0
(1728458495.413830) can0 00D540A0#8B4B0000401F0080
(1728458495.414130) can0 00D540A0#0000000000F7FF20
(1728458495.414450) can0 00D540A0#CC070000F800F600
(1728458495.414705) can0 00D540A0#000E010800000020
(1728458495.414994) can0 00D540A0#D200970C00000040
(1728458495.431218) can0 00D5A0C0#401FC0
(1728458495.431647) can0 00D540A0#BF950000401F0080
(1728458495.431949) can0 00D540A0#0000000000F7FF20
(1728458495.432300) can0 00D540A0#CE070000F800F600
(1728458495.432534) can0 00D540A0#000E010800000020
(1728458495.432812) can0 00D540A0#D200980C00000040
(1728458495.453304) can0 00D5A0C0#401FC0
(1728458495.453689) can0 00D540A0#58BF0000401F0080
(1728458495.453981) can0 00D540A0#0000000000F7FF20
(1728458495.454294) can0 00D540A0#CE070000F800F600
(1728458495.454577) can0 00D540A0#000E010800000020
(1728458495.454846) can0 00D540A0#C8009B0C00000040
(1728458495.477590) can0 00D5A0C0#401FC0
(1728458495.478013) can0 00D540A0#E3D30000401F0080
(1728458495.478347) can0 00D540A0#0000000000F6FF20
(1728458495.478611) can0 00D540A0#CE070000F800F600
(1728458495.478894) can0 00D540A0#000E010800000020
(1728458495.479184) can0 00D540A0#D2009D0C00000040
(1728458495.500448) can0 00D5A0C0#401FC0
(1728458495.500840) can0 00D540A0#6BF20000401F0080
(1728458495.501137) can0 00D540A0#0000000000F7FF20
(1728458495.501454) can0 00D540A0#CE070000F800F600
(1728458495.501709) can0 00D540A0#000E010800000020
(1728458495.501999) can0 00D540A0#D2009F0C00000040
(1728458495.522304) can0 00D5A0C0#401FC0
(1728458495.522708) can0 00D540A0#DE2B0000401F0080
(1728458495.523008) can0 00D540A0#0000000000F6FF20
(1728458495.523337) can0 00D540A0#CC070000F800F600
(1728458495.523576) can0 00D540A0#000E010800000020
(1728458495.523876) can0 00D540A0#C800A10C00000040
(1728458495.546900) can0 00D5A0C0#401FC0
(1728458495.547356) can0 00D540A0#B7A90000401F0080
(1728458495.547634) can0 00D540A0#0000000000F7FF20
(1728458495.547918) can0 00D540A0#CC070000F800F600
(1728458495.548196) can0 00D540A0#000E010800000020
(1728458495.548493) can0 00D540A0#D200A40C00000040
(1728458495.568639) can0 00D5A0C0#401FC0
(1728458495.569137) can0 00D540A0#3F880000401F0080
(1728458495.569474) can0 00D540A0#0000000000F6FF20
(1728458495.569719) can0 00D540A0#CC070000F800F600
(1728458495.570008) can0 00D540A0#000E010800000020
(1728458495.570342) can0 00D540A0#D200A60C00000040
(1728458495.590441) can0 00D5A0C0#401FC0
(1728458495.590823) can0 00D540A0#5AFC0000401F0080
(1728458495.591135) can0 00D540A0#0000000000F6FF20
(1728458495.591441) can0 00D540A0#CE070000F800F600
(1728458495.591693) can0 00D540A0#000E010800000020
(1728458495.591993) can0 00D540A0#D200A80C00000040
(1728458495.608017) can0 00D5A0C0#401FC0
(1728458495.608490) can0 00D540A0#1F660000401F0080
(1728458495.608765) can0 00D540A0#0000000000F7FF20
(1728458495.609035) can0 00D540A0#CC070000F800F600
(1728458495.609365) can0 00D540A0#000E010800000020
(1728458495.609619) can0 00D540A0#D200AA0C00000040
(1728458495.626942) can0 00D5A0C0#401FC0
(1728458495.627405) can0 00D540A0#57100000401F0080
(1728458495.627669) can0 00D540A0#0000000000F7FF20
(1728458495.627953) can0 00D540A0#CE070000F800F600
(1728458495.628297) can0 00D540A0#000E010800000020
(1728458495.628546) can0 00D540A0#D200AC0C00000040
(1728458495.650530) can0 00D5A0C0#401FC0
(1728458495.650955) can0 00D540A0#19EF0000401F0080
(1728458495.651298) can0 00D540A0#0000000000F7FF20
(1728458495.651561) can0 00D540A0#CC070000F800F600
(1728458495.651850) can0 00D540A0#000E010800000020
(1728458495.652128) can0 00D540A0#D200AE0C00000040
(1728458495.672313) can0 00D5A0C0#401FC0
(1728458495.672694) can0 00D540A0#269F0000401F0080
(1728458495.672981) can0 00D540A0#0000000000F7FF20
(1728458495.673301) can0 00D540A0#CE070000F800F600
(1728458495.673571) can0 00D540A0#000E010800000020
(1728458495.673845) can0 00D540A0#D200B00C00000040
(1728458495.694471) can0 00D5A0C0#401FC0
(1728458495.694872) can0 00D540A0#076B0000401F0080
(1728458495.695163) can0 00D540A0#0000000000F6FF20
(1728458495.695473) can0 00D540A0#CC070000F800F600
(1728458495.695746) can0 00D540A0#000E010800000020
(1728458495.696033) can0 00D540A0#C800B30C00000040
(1728458495.715649) can0 00D5A0C0#401FC0
(1728458495.716086) can0 00D540A0#BC070000401F0080
(1728458495.716409) can0 00D540A0#0000000000F7FF20
(1728458495.716663) can0 00D540A0#CC070000F800F600
(1728458495.716956) can0 00D540A0#000E010800000020
(1728458495.717304) can0 00D540A0#D200B50C00000040
(1728458495.736977) can0 00D5A0C0#401FC0
(1728458495.737434) can0 00D540A0#F2F80000401F0080
(1728458495.737698) can0 00D540A0#0000000000F7FF20
(1728458495.737990) can0 00D540A0#CE070000F800F600
(1728458495.738302) can0 00D540A0#000E010800000020
(1728458495.738561) can0 00D540A0#D200B70C00000040
(1728458495.758231) can0 00D5A0C0#401FC0
(1728458495.758644) can0 00D540A0#64960000401F0080
(1728458495.758940) can0 00D540A0#0000000000F6FF20
(1728458495.759307) can0 00D540A0#CE070000F800F600
(1728458495.759536) can0 00D540A0#000E010800000020
(1728458495.759816) can0 00D540A0#C800B90C00000040
(1728458495.776515) can0 00D5A0C0#401FC0
(1728458495.776956) can0 00D540A0#1FAD0000401F0080
(1728458495.777311) can0 00D540A0#0000000000F6FF20
(1728458495.777543) can0 00D540A0#CC070000F800F600
(1728458495.777822) can0 00D540A0#000E010800000020
(1728458495.778124) can0 00D540A0#D200BB0C00000040
(1728458495.795398) can0 00D5A0C0#401FC0
(1728458495.795764) can0 00D540A0#5CBE0000401F0080
(1728458495.796077) can0 00D540A0#0000000000F7FF20
(1728458495.796414) can0 00D540A0#CE070000F800F600
(1728458495.796662) can0 00D540A0#000E010800000020
(1728458495.796941) can0 00D540A0#D200BD0C00000040
(1728458495.817616) can0 00D5A0C0#401FC0
(1728458495.818416) can0 00D540A0#0000000000F7FF20
(1728458495.818664) can0 00D540A0#CC070000F800F600
(1728458495.818959) can0 00D540A0#000E010800000020
(1728458495.819305) can0 00D540A0#C800BF0C00000040
(1728458495.839030) can0 00D5A0C0#401FC0
(1728458495.839491) can0 00D540A0#37F60000401F0080
(1728458495.839759) can0 00D540A0#0000000000F6FF20
(1728458495.840048) can0 00D540A0#CC070000F800F600
(1728458495.840367) can0 00D540A0#000E010800000020
(1728458495.840622) can0 00D540A0#D200C10C00000040
(1728458495.860082) can0 00D5A0C0#401FC0
(1728458495.860511) can0 00D540A0#726C0000401F0080
(1728458495.860798) can0 00D540A0#0000000000F7FF20
(1728458495.861076) can0 00D540A0#CE070000F800F600
(1728458495.861421) can0 00D540A0#000E010800000020
(1728458495.861669) can0 00D540A0#D200C30C00000040
(1728458495.880440) can0 00D5A0C0#401FC0
(1728458495.880834) can0 00D540A0#04BB0000401F0080
(1728458495.881138) can0 00D540A0#0000000000F6FF20
(1728458495.881454) can0 00D540A0#CC070000F800F600
(1728458495.881707) can0 00D540A0#000E010800000020
(1728458495.882000) can0 00D540A0#C800C50C00000040
(1728458495.901319) can0 00D5A0C0#401FC0
(1728458495.901691) can0 00D540A0#74E50000401F0080
(1728458495.901988) can0 00D540A0#0000000000F7FF20
(1728458495.902308) can0 00D540A0#CE070000F800F600
(1728458495.902573) can0 00D540A0#000E010800000020
(1728458495.902855) can0 00D540A0#D200C70C00000040
(1728458495.922148) can0 00D5A0C0#401FC0
(1728458495.922581) can0 00D540A0#DC2A0000401F0080
(1728458495.922887) can0 00D540A0#0000000000F7FF20
(1728458495.923169) can0 00D540A0#CE070000F800F600
(1728458495.923494) can0 00D540A0#000E010800000020
(1728458495.923752) can0 00D540A0#D200C90C00000040
(1728458495.946678) can0 00D5A0C0#401FC0
(1728458495.947148) can0 00D540A0#8B090000401F0080
(1728458495.947491) can0 00D540A0#0000000000F7FF20
(1728458495.947754) can0 00D540A0#CE070000F800F600
(1728458495.948037) can0 00D540A0#000E010800000020
(1728458495.948358) can0 00D540A0#D200CC0C00000040
(1728458495.962395) can0 00D5A0C0#401FC0
(1728458495.962779) can0 00D540A0#1C7D0000401F0080
(1728458495.963074) can0 00D540A0#0000000000F6FF20
(1728458495.963389) can0 00D540A0#CC070000F800F600
(1728458495.963643) can0 00D540A0#000E010800000020
(1728458495.963937) can0 00D540A0#D200CD0C00000040
(1728458495.984470) can0 00D5A0C0#401FC0
(1728458495.984877) can0 00D540A0#3C580000401F0080
(1728458495.985159) can0 00D540A0#0000000000F6FF20
(1728458495.985477) can0 00D540A0#CC070000F800F600
(1728458495.985735) can0 00D540A0#000E010800000020
(1728458495.986021) can0 00D540A0#D200D00C00000040
(1728458496.006528) can0 00D5A0C0#401FC0
(1728458496.006947) can0 00D540A0#B4790000401F0080
(1728458496.007320) can0 00D540A0#0000000000F7FF20
(1728458496.007545) can0 00D540A0#CC070000F800F600
(1728458496.007830) can0 00D540A0#000E010800000020
(1728458496.008113) can0 00D540A0#D200D20C00000040
(1728458496.028027) can0 00D5A0C0#401FC0
(1728458496.028497) can0 00D540A0#3AD10000401F0080
(1728458496.028762) can0 00D540A0#0000000000F6FF20
(1728458496.029044) can0 00D540A0#CC070000F800F600
(1728458496.029369) can0 00D540A0#000E010800000020
(1728458496.029629) can0 00D540A0#D200D40C00000040
(1728458496.048531) can0 00D5A0C0#401FC0
(1728458496.048953) can0 00D540A0#B9950000401F0080
(1728458496.049237) can0 00D540A0#0000000000F6FF20
(1728458496.049521) can0 00D540A0#CC070000F800F600
(1728458496.049826) can0 00D540A0#000E010800000020
(1728458496.050109) can0 00D540A0#D200D60C00000040
(1728458496.070872) can0 00D5A0C0#401FC0
(1728458496.071330) can0 00D540A0#E2400000401F0080
(1728458496.071587) can0 00D540A0#0000000000F7FF20
(1728458496.071889) can0 00D540A0#CE070000F800F600
(1728458496.072174) can0 00D540A0#000E010800000020
(1728458496.072491) can0 00D540A0#C800D80C00000040
(1728458496.092222) can0 00D5A0C0#401FC0
(1728458496.092647) can0 00D540A0#54C00000401F0080
(1728458496.092968) can0 00D540A0#0000000000F7FF20
(1728458496.093321) can0 00D540A0#CE070000F800F600
(1728458496.093570) can0 00D540A0#000E010800000020
(1728458496.093834) can0 00D540A0#D200DA0C00000040
(1728458496.115045) can0 00D5A0C0#401FC0
(1728458496.115502) can0 00D540A0#80A70000401F0080
(1728458496.115767) can0 00D540A0#0000000000F7FF20
(1728458496.116067) can0 00D540A0#CE070000F800F600
(1728458496.116390) can0 00D540A0#000E010800000020
(1728458496.116639) can0 00D540A0#D200DD0C00000040
(1728458496.132968) can0 00D5A0C0#401FC0
(1728458496.133430) can0 00D540A0#08860000401F0080
(1728458496.133684) can0 00D540A0#0000000000F6FF20
(1728458496.133970) can0 00D540A0#CE070000F800F600
(1728458496.134325) can0 00D540A0#000E010800000020
(1728458496.134571) can0 00D540A0#D200DF0C00000040
(1728458496.154200) can0 00D5A0C0#401FC0
(1728458496.154608) can0 00D540A0#889B0000401F0080
(1728458496.154898) can0 00D540A0#0000000000F7FF20
(1728458496.155195) can0 00D540A0#CC070000F800F600
(1728458496.155513) can0 00D540A0#000E010800000020
(1728458496.155773) can0 00D540A0#D200E10C00000040
(1728458496.176414) can0 00D5A0C0#401FC0
(1728458496.176823) can0 00D540A0#CD010000401F0080
(1728458496.177107) can0 00D540A0#0000000000F6FF20
(1728458496.177425) can0 00D540A0#CE070000F800F600
(1728458496.177686) can0 00D540A0#000E010800000020
(1728458496.177966) can0 00D540A0#D200E30C00000040
(1728458496.198591) can0 00D5A0C0#401FC0
(1728458496.199015) can0 00D540A0#43A90000401F0080
(1728458496.199325) can0 00D540A0#0000000000F7FF20
(1728458496.199593) can0 00D540A0#CE070000F800F600
(1728458496.199886) can0 00D540A0#000E010800000020
(1728458496.200185) can0 00D540A0#D200E50C00000040
(1728458496.218435) can0 00D5A0C0#401FC0
(1728458496.218825) can0 00D540A0#C0ED0000401F0080
(1728458496.219116) can0 00D540A0#0000000000F7FF20
(1728458496.219448) can0 00D540A0#CE070000F800F600
(1728458496.219712) can0 00D540A0#000E010800000020
(1728458496.219992) can0 00D540A0#D200E70C00000040
(1728458496.241341) can0 00D5A0C0#401FC0
(1728458496.241768) can0 00D540A0#56830000401F0080
(1728458496.242047) can0 00D540A0#0000000000F6FF20
(1728458496.242372) can0 00D540A0#CE070000F800F600
(1728458496.242645) can0 00D540A0#000E010800000020
(1728458496.242932) can0 00D540A0#C800E90C00000040
(1728458496.262907) can0 00D5A0C0#401FC0
(1728458496.263377) can0 00D540A0#3F010000401F0080
(1728458496.263643) can0 00D540A0#0000000000F7FF20
(1728458496.263935) can0 00D540A0#CE070000F800F600
(1728458496.264230) can0 00D540A0#000E010800000020
(1728458496.264525) can0 00D540A0#D200EC0C00000040
(1728458496.285333) can0 00D5A0C0#401FC0
(1728458496.285721) can0 00D540A0#BC450000401F0080
(1728458496.286024) can0 00D540A0#0000000000F7FF20
(1728458496.286329) can0 00D540A0#CE070000F800F600
(1728458496.286597) can0 00D540A0#000E010800000020
(1728458496.286897) can0 00D540A0#D200EE0C00000040
(1728458496.302123) can0 00D5A0C0#401FC0
(1728458496.302546) can0 00D540A0#2B310000401F0080
(1728458496.302833) can0 00D540A0#0000000000F6FF20
(1728458496.303119) can0 00D540A0#CC070000F800F600
(1728458496.303437) can0 00D540A0#000E010800000020
(1728458496.303704) can0 00D540A0#D200EF0C00000040
(1728458496.323563) can0 00D5A0C0#401FC0
(1728458496.323980) can0 00D540A0#C6AF0000401F0080
(1728458496.324330) can0 00D540A0#0000000000F6FF20
(1728458496.324567) can0 00D540A0#CE070000F800F600
(1728458496.324847) can0 00D540A0#000E010800000020
(1728458496.325143) can0 00D540A0#D200F20C00000040
(1728458496.347170) can0 00D5A0C0#401FC0
(1728458496.347588) can0 00D540A0#8ED90000401F0080
(1728458496.347876) can0 00D540A0#0000000000F6FF20
(1728458496.348163) can0 00D540A0#CC070000F800F600
(1728458496.348509) can0 00D540A0#000E010800000020
(1728458496.348754) can0 00D540A0#D200F40C00000040
(1728458496.368346) can0 00D5A0C0#401FC0
(1728458496.368713) can0 00D540A0#CB430000401F0080
(1728458496.368999) can0 00D540A0#0000000000F7FF20
(1728458496.369333) can0 00D540A0#CE070000F800F600
(1728458496.369576) can0 00D540A0#000E010800000020
(1728458496.369862) can0 00D540A0#D200F60C00000040
(1728458496.389012) can0 00D5A0C0#401FC0
(1728458496.389453) can0 00D540A0#A5520000401F0080
(1728458496.389711) can0 00D540A0#0000000000F6FF20
(1728458496.389999) can0 00D540A0#CC070000F800F600
(1728458496.390331) can0 00D540A0#000E010800000020
(1728458496.390585) can0 00D540A0#D200F80C00000040
(1728458496.411386) can0 00D5A0C0#401FC0
(1728458496.411775) can0 00D540A0#EBAD0000401F0080
(1728458496.412066) can0 00D540A0#0000000000F6FF20
(1728458496.412382) can0 00D540A0#CE070000F800F600
(1728458496.412646) can0 00D540A0#000E010800000020
(1728458496.412938) can0 00D540A0#D200FA0C00000040
(1728458496.432722) can0 00D5A0C0#401FC0
(1728458496.433218) can0 00D540A0#3FCA0000401F0080
(1728458496.433535) can0 00D540A0#0000000000F6FF20
(1728458496.433804) can0 00D540A0#CE070000F800F600
(1728458496.434100) can0 00D540A0#000E010800000020
(1728458496.434432) can0 00D540A0#D200FD0C00000040
(1728458496.453773) can0 00D5A0C0#401FC0
(1728458496.454216) can0 00D540A0#7A500000401F0080
(1728458496.454537) can0 00D540A0#0000000000F7FF20
(1728458496.454815) can0 00D540A0#CC070000F800F600
(1728458496.455106) can0 00D540A0#000E010800000020
(1728458496.455426) can0 00D540A0#D200FF0C00000040
(1728458496.477892) can0 00D5A0C0#401FC0
(1728458496.478343) can0 00D540A0#30D60000401F0080
(1728458496.478598) can0 00D540A0#0000000000F7FF20
(1728458496.478894) can0 00D540A0#CC070000F800F600
(1728458496.479190) can0 00D540A0#000E010800000020
(1728458496.479506) can0 00D540A0#D200010D00000040
(1728458496.494169) can0 00D5A0C0#401FC0
(1728458496.494606) can0 00D540A0#4E040000401F0080
(1728458496.494903) can0 00D540A0#0000000000F6FF20
(1728458496.495189) can0 00D540A0#D1070000F800F600
(1728458496.495516) can0 00D540A0#000E010800000020
(1728458496.495784) can0 00D540A0#D200030D00000040
(1728458496.515154) can0 00D5A0C0#401FC0
(1728458496.515601) can0 00D540A0#F0810000401F0080
(1728458496.515895) can0 00D540A0#0000000000F6FF20
(1728458496.516186) can0 00D540A0#CE070000F800F600
(1728458496.516510) can0 00D540A0#000E010800000020
(1728458496.516775) can0 00D540A0#D200050D00000040
(1728458496.539438) can0 00D5A0C0#401FC0
(1728458496.539834) can0 00D540A0#73C50000401F0080
(1728458496.540130) can0 00D540A0#0000000000F6FF20
(1728458496.540443) can0 00D540A0#CE070000F800F600
(1728458496.540721) can0 00D540A0#000E010800000020
(1728458496.541006) can0 00D540A0#D200070D00000040
(1728458496.559785) can0 00D5A0C0#401FC0
(1728458496.560224) can0 00D540A0#16B10000401F0080
(1728458496.560552) can0 00D540A0#0000000000F6FF20
(1728458496.560802) can0 00D540A0#CC070000F800F600
(1728458496.561099) can0 00D540A0#000E010800000020
(1728458496.561420) can0 00D540A0#D200090D00000040
(1728458496.583010) can0 00D5A0C0#401FC0
(1728458496.583459) can0 00D540A0#74560000401F0080
(1728458496.583720) can0 00D540A0#0000000000F6FF20
(1728458496.584007) can0 00D540A0#CC070000F800F600
(1728458496.584349) can0 00D540A0#000E010800000020
(1728458496.584593) can0 00D540A0#C8000C0D00000040
(1728458496.605056) can0 00D5A0C0#401FC0
(1728458496.605517) can0 00D540A0#0F6D0000401F0080
(1728458496.605784) can0 00D540A0#0000000000F6FF20
(1728458496.606062) can0 00D540A0#CE070000F800F600
(1728458496.606388) can0 00D540A0#000E010800000020
(1728458496.606657) can0 00D540A0#D2000E0D00000040
(1728458496.627818) can0 00D5A0C0#401FC0
(1728458496.628260) can0 00D540A0#3B780000401F0080
(1728458496.628553) can0 00D540A0#0000000000F7FF20
(1728458496.628825) can0 00D540A0#CC070000F800F600
(1728458496.629122) can0 00D540A0#000E010800000020
(1728458496.629446) can0 00D540A0#D200100D00000040
(1728458496.650726) can0 00D5A0C0#401FC0
(1728458496.651184) can0 00D540A0#869D0000401F0080
(1728458496.651510) can0 00D540A0#0000000000F6FF20
(1728458496.651752) can0 00D540A0#CC070000F800F600
(1728458496.652057) can0 00D540A0#000E010800000020
(1728458496.652381) can0 00D540A0#C800120D00000040
(1728458496.666660) can0 00D5A0C0#401FC0
(1728458496.667113) can0 00D540A0#3DF10000401F0080
(1728458496.667463) can0 00D540A0#0000000000F7FF20
(1728458496.667713) can0 00D540A0#CC070000F800F600
(1728458496.667988) can0 00D540A0#000E010800000020
(1728458496.668353) can0 00D540A0#D200140D00000040
(1728458496.687396) can0 00D5A0C0#401FC0
(1728458496.687795) can0 00D540A0#786B0000401F0080
(1728458496.688098) can0 00D540A0#0000000000F6FF20
(1728458496.688414) can0 00D540A0#CE070000F800F600
(1728458496.688670) can0 00D540A0#000E010800000020
(1728458496.688977) can0 00D540A0#D200160D00000040
(1728458496.710447) can0 00D5A0C0#401FC0
(1728458496.710858) can0 00D540A0#23BE0000401F0080
(1728458496.711140) can0 00D540A0#0000000000F7FF20
(1728458496.711470) can0 00D540A0#CC070000F800F600
(1728458496.711727) can0 00D540A0#000E010800000020
(1728458496.712015) can0 00D540A0#C800180D00000040
(1728458496.731715) can0 00D5A0C0#401FC0
(1728458496.732179) can0 00D540A0#E3E20000401F0080
(1728458496.732518) can0 00D540A0#0000000000F7FF20
(1728458496.732794) can0 00D540A0#CA070000F800F600
(1728458496.733078) can0 00D540A0#000E010800000020
(1728458496.733402) can0 00D540A0#D2001A0D00000040
(1728458496.753007) can0 00D5A0C0#401FC0
(1728458496.753462) can0 00D540A0#41590000401F0080
(1728458496.753726) can0 00D540A0#0000000000F7FF20
(1728458496.754036) can0 00D540A0#CC070000F800F600
(1728458496.754376) can0 00D540A0#000E010800000020
(1728458496.776096) can0 00D5A0C0#401FC0
(1728458496.776534) can0 00D540A0#F7D90000401F0080
(1728458496.776796) can0 00D540A0#0000000000F7FF20
(1728458496.777083) can0 00D540A0#CC070000F800F600
