(1740609224.417457) vcan0 00001301#0000
(1740609224.417459) vcan0 00002001#00000000
(1740609224.417531) vcan0 00002201#0000
(1740609224.419807) vcan0 00001201#00
(1740609224.419863) vcan0 00001202#00
(1740609224.419891) vcan0 00001203#00
(1740609224.419918) vcan0 00001204#00
(1740609224.419946) vcan0 00001205#00
(1740609224.419973) vcan0 00001206#00
(1740609224.420001) vcan0 00001207#00
(1740609224.420028) vcan0 00001208#00
(1740609224.420054) vcan0 00001209#00
(1740609224.420082) vcan0 0000120A#00
(1740609224.420110) vcan0 0000120B#00
(1740609224.420139) vcan0 0000120C#00
(1740609224.420163) vcan0 00001221#00
(1740609224.420180) vcan0 00001222#00
(1740609224.420195) vcan0 0000120F#00
(1740609224.422671) vcan0 00001302#0000
(1740609224.422851) vcan0 00001303#0000
(1740609224.423136) vcan0 00001304#0000
(1740609224.423137) vcan0 00001307#0000
(1740609224.423218) vcan0 00001305#0000
(1740609224.423319) vcan0 00002007#00000000
(1740609224.423386) vcan0 00001306#0000
(1740609224.423496) vcan0 00002207#0000
(1740609224.423608) vcan0 00002002#00000000
(1740609224.423845) vcan0 00002003#00000000
(1740609224.424068) vcan0 00002004#00000000
(1740609224.424260) vcan0 00002005#00000000
(1740609224.424457) vcan0 00001309#0000
(1740609224.424501) vcan0 00002006#00000000
(1740609224.424662) vcan0 00002202#0000
(1740609224.424707) vcan0 00002009#00000000
(1740609224.424846) vcan0 00002203#0000
(1740609224.424892) vcan0 00001308#0000
(1740609224.425025) vcan0 00002204#0000
(1740609224.425071) vcan0 00002008#00000000
(1740609224.425206) vcan0 00002205#0000
(1740609224.425253) vcan0 00002208#0000
(1740609224.425386) vcan0 00002206#0000
(1740609224.425430) vcan0 00002209#0000
(1740609224.426495) vcan0 0000130A#0000
(1740609224.426718) vcan0 0000200A#00000000
(1740609224.426902) vcan0 0000220A#0000
(1740609224.427069) vcan0 0000130B#0000
(1740609224.427297) vcan0 0000200B#00000000
(1740609224.427467) vcan0 0000220B#0000
(1740609224.427662) vcan0 0000130C#0000
(1740609224.427875) vcan0 0000200C#00000000
(1740609224.428056) vcan0 0000220C#0000
(1740609224.450994) vcan0 0000250F#E801
(1740609225.417384) vcan0 00001301#0000
(1740609225.417386) vcan0 00002001#00000000
(1740609225.417443) vcan0 00002201#0000
(1740609225.420174) vcan0 00001201#00
(1740609225.420244) vcan0 00001202#00
(1740609225.420282) vcan0 00001203#00
(1740609225.420318) vcan0 00001204#00
(1740609225.420353) vcan0 00001205#00
(1740609225.420387) vcan0 00001206#00
(1740609225.420423) vcan0 00001207#00
(1740609225.420458) vcan0 00001208#00
(1740609225.420495) vcan0 00001209#00
(1740609225.420538) vcan0 0000120A#00
(1740609225.420544) vcan0 00001302#0000
(1740609225.420580) vcan0 0000120B#00
(1740609225.420622) vcan0 0000120C#00
(1740609225.420661) vcan0 00001221#00
(1740609225.420689) vcan0 00001222#00
(1740609225.420711) vcan0 0000120F#00
(1740609225.420716) vcan0 00002002#00000000
(1740609225.423112) vcan0 00001307#0000
(1740609225.423129) vcan0 00001303#0000
(1740609225.423337) vcan0 00001304#0000
(1740609225.423339) vcan0 00002007#00000000
(1740609225.423517) vcan0 00001305#0000
(1740609225.423519) vcan0 00002207#0000
(1740609225.423685) vcan0 00001306#0000
(1740609225.423903) vcan0 00002003#00000000
(1740609225.424127) vcan0 00002004#00000000
(1740609225.424345) vcan0 00002005#00000000
(1740609225.424460) vcan0 00001309#0000
(1740609225.424575) vcan0 00002006#00000000
(1740609225.424654) vcan0 00002009#00000000
(1740609225.424716) vcan0 00002202#0000
(1740609225.424871) vcan0 00001308#0000
(1740609225.424901) vcan0 00002203#0000
(1740609225.425053) vcan0 00002008#00000000
(1740609225.425099) vcan0 00002204#0000
(1740609225.425234) vcan0 00002208#0000
(1740609225.425279) vcan0 00002205#0000
(1740609225.425428) vcan0 00002209#0000
(1740609225.425473) vcan0 00002206#0000
(1740609225.426469) vcan0 0000130A#0000
(1740609225.426693) vcan0 0000200A#00000000
(1740609225.426894) vcan0 0000220A#0000
(1740609225.427054) vcan0 0000130B#0000
(1740609225.427281) vcan0 0000200B#00000000
(1740609225.427462) vcan0 0000220B#0000
(1740609225.427642) vcan0 0000130C#0000
(1740609225.427866) vcan0 0000200C#00000000
(1740609225.428049) vcan0 0000220C#0000
(1740609225.450987) vcan0 0000250F#E801
(1740609226.417300) vcan0 00001301#0000
(1740609226.417303) vcan0 00002001#00000000
(1740609226.417400) vcan0 00002201#0000
(1740609226.420120) vcan0 00001201#00
(1740609226.420190) vcan0 00001202#00
(1740609226.420232) vcan0 00001203#00
(1740609226.420270) vcan0 00001204#00
(1740609226.420272) vcan0 00001302#0000
(1740609226.420306) vcan0 00001205#00
(1740609226.420345) vcan0 00001206#00
(1740609226.420385) vcan0 00001207#00
(1740609226.420426) vcan0 00001208#00
(1740609226.420465) vcan0 00001209#00
(1740609226.420504) vcan0 0000120A#00
(1740609226.420542) vcan0 0000120B#00
(1740609226.420573) vcan0 00002002#00000000
(1740609226.420578) vcan0 0000120C#00
(1740609226.420612) vcan0 00001221#00
(1740609226.420646) vcan0 00001222#00
(1740609226.420674) vcan0 0000120F#00
(1740609226.423109) vcan0 00001307#0000
(1740609226.423111) vcan0 00001303#0000
(1740609226.423307) vcan0 00001304#0000
(1740609226.423310) vcan0 00002007#00000000
(1740609226.423496) vcan0 00001305#0000
(1740609226.423498) vcan0 00002207#0000
(1740609226.423680) vcan0 00001306#0000
(1740609226.423903) vcan0 00002003#00000000
(1740609226.424090) vcan0 00002004#00000000
(1740609226.424309) vcan0 00002005#00000000
(1740609226.424415) vcan0 00001309#0000
(1740609226.424517) vcan0 00002006#00000000
(1740609226.424637) vcan0 00002009#00000000
(1740609226.424705) vcan0 00002202#0000
(1740609226.424816) vcan0 00001308#0000
(1740609226.424884) vcan0 00002203#0000
(1740609226.425038) vcan0 00002008#00000000
(1740609226.425083) vcan0 00002204#0000
(1740609226.425218) vcan0 00002208#0000
(1740609226.425263) vcan0 00002205#0000
(1740609226.425397) vcan0 00002209#0000
(1740609226.425437) vcan0 00002206#0000
(1740609226.426453) vcan0 0000130A#0000
(1740609226.426666) vcan0 0000200A#00000000
(1740609226.426859) vcan0 0000220A#0000
(1740609226.427040) vcan0 0000130B#0000
(1740609226.427256) vcan0 0000200B#00000000
(1740609226.427436) vcan0 0000220B#0000
(1740609226.427627) vcan0 0000130C#0000
(1740609226.427840) vcan0 0000200C#00000000
(1740609226.428032) vcan0 0000220C#0000
(1740609226.451011) vcan0 0000250F#E801
(1740609227.417284) vcan0 00001301#0000
(1740609227.417286) vcan0 00002001#00000000
(1740609227.417379) vcan0 00002201#0000
(1740609227.420006) vcan0 00001201#00
(1740609227.420077) vcan0 00001202#00
(1740609227.420118) vcan0 00001203#00
(1740609227.420157) vcan0 00001204#00
(1740609227.420194) vcan0 00001205#00
(1740609227.420233) vcan0 00001206#00
(1740609227.420266) vcan0 00001302#0000
(1740609227.420269) vcan0 00001207#00
(1740609227.420306) vcan0 00001208#00
(1740609227.420345) vcan0 00001209#00
(1740609227.420382) vcan0 0000120A#00
(1740609227.420418) vcan0 0000120B#00
(1740609227.420454) vcan0 0000120C#00
(1740609227.420491) vcan0 00001221#00
(1740609227.420524) vcan0 00001222#00
(1740609227.420566) vcan0 0000120F#00
(1740609227.420662) vcan0 00002002#00000000
(1740609227.423079) vcan0 00001307#0000
(1740609227.423109) vcan0 00001303#0000
(1740609227.423296) vcan0 00002007#00000000
(1740609227.423299) vcan0 00001304#0000
(1740609227.423468) vcan0 00001305#0000
(1740609227.423501) vcan0 00002207#0000
(1740609227.423664) vcan0 00001306#0000
(1740609227.423888) vcan0 00002003#00000000
(1740609227.424101) vcan0 00002004#00000000
(1740609227.424317) vcan0 00002005#00000000
(1740609227.424396) vcan0 00001309#0000
(1740609227.424505) vcan0 00002006#00000000
(1740609227.424617) vcan0 00002009#00000000
(1740609227.424684) vcan0 00002202#0000
(1740609227.424795) vcan0 00001308#0000
(1740609227.424875) vcan0 00002203#0000
(1740609227.425017) vcan0 00002008#00000000
(1740609227.425062) vcan0 00002204#0000
(1740609227.425225) vcan0 00002208#0000
(1740609227.425267) vcan0 00002205#0000
(1740609227.425376) vcan0 00002209#0000
(1740609227.425415) vcan0 00002206#0000
(1740609227.426433) vcan0 0000130A#0000
(1740609227.426657) vcan0 0000200A#00000000
(1740609227.426837) vcan0 0000220A#0000
(1740609227.427019) vcan0 0000130B#0000
(1740609227.427245) vcan0 0000200B#00000000
(1740609227.427426) vcan0 0000220B#0000
(1740609227.427608) vcan0 0000130C#0000
(1740609227.427830) vcan0 0000200C#00000000
(1740609227.428000) vcan0 0000220C#0000
(1740609227.450992) vcan0 0000250F#E801
(1740609228.417264) vcan0 00001301#0000
(1740609228.417330) vcan0 00002001#00000000
(1740609228.417372) vcan0 00002201#0000
(1740609228.420090) vcan0 00001201#00
(1740609228.420161) vcan0 00001202#00
(1740609228.420199) vcan0 00001203#00
(1740609228.420233) vcan0 00001302#0000
(1740609228.420245) vcan0 00001204#00
(1740609228.420280) vcan0 00001205#00
(1740609228.420319) vcan0 00001206#00
(1740609228.420356) vcan0 00001207#00
(1740609228.420392) vcan0 00001208#00
(1740609228.420432) vcan0 00001209#00
(1740609228.420472) vcan0 0000120A#00
(1740609228.420508) vcan0 0000120B#00
(1740609228.420536) vcan0 00002002#00000000
(1740609228.420546) vcan0 0000120C#00
(1740609228.420583) vcan0 00001221#00
(1740609228.420613) vcan0 00001222#00
(1740609228.420640) vcan0 0000120F#00
(1740609228.423045) vcan0 00001307#0000
(1740609228.423078) vcan0 00001303#0000
(1740609228.423285) vcan0 00002007#00000000
(1740609228.423287) vcan0 00001304#0000
(1740609228.423450) vcan0 00002207#0000
(1740609228.423482) vcan0 00001305#0000
(1740609228.423650) vcan0 00001306#0000
(1740609228.423859) vcan0 00002003#00000000
(1740609228.424086) vcan0 00002004#00000000
(1740609228.424298) vcan0 00002005#00000000
(1740609228.424376) vcan0 00001309#0000
(1740609228.424486) vcan0 00002006#00000000
(1740609228.424597) vcan0 00002009#00000000
(1740609228.424675) vcan0 00002202#0000
(1740609228.424775) vcan0 00001308#0000
(1740609228.424855) vcan0 00002203#0000
(1740609228.424996) vcan0 00002008#00000000
(1740609228.425041) vcan0 00002204#0000
(1740609228.425218) vcan0 00002205#0000
(1740609228.425262) vcan0 00002208#0000
(1740609228.425366) vcan0 00002209#0000
(1740609228.425412) vcan0 00002206#0000
(1740609228.426423) vcan0 0000130A#0000
(1740609228.426636) vcan0 0000200A#00000000
(1740609228.426816) vcan0 0000220A#0000
(1740609228.427008) vcan0 0000130B#0000
(1740609228.427224) vcan0 0000200B#00000000
(1740609228.427405) vcan0 0000220B#0000
(1740609228.427586) vcan0 0000130C#0000
(1740609228.427809) vcan0 0000200C#00000000
(1740609228.427990) vcan0 0000220C#0000
(1740609228.450979) vcan0 0000250F#E801
(1740609229.417227) vcan0 00001301#0000
(1740609229.417293) vcan0 00002001#00000000
(1740609229.417343) vcan0 00002201#0000
(1740609229.420026) vcan0 00001201#00
(1740609229.420097) vcan0 00001202#00
(1740609229.420138) vcan0 00001203#00
(1740609229.420180) vcan0 00001204#00
(1740609229.420217) vcan0 00001205#00
(1740609229.420261) vcan0 00001206#00
(1740609229.420295) vcan0 00001302#0000
(1740609229.420297) vcan0 00001207#00
(1740609229.420332) vcan0 00001208#00
(1740609229.420369) vcan0 00001209#00
(1740609229.420404) vcan0 0000120A#00
(1740609229.420439) vcan0 0000120B#00
(1740609229.420477) vcan0 0000120C#00
(1740609229.420515) vcan0 00001221#00
(1740609229.420548) vcan0 00001222#00
(1740609229.420581) vcan0 00002002#00000000
(1740609229.420589) vcan0 0000120F#00
(1740609229.423047) vcan0 00001307#0000
(1740609229.423076) vcan0 00001303#0000
(1740609229.423274) vcan0 00002007#00000000
(1740609229.423276) vcan0 00001304#0000
(1740609229.423439) vcan0 00002207#0000
(1740609229.423471) vcan0 00001305#0000
(1740609229.423640) vcan0 00001306#0000
(1740609229.423848) vcan0 00002003#00000000
(1740609229.424059) vcan0 00002004#00000000
(1740609229.424286) vcan0 00002005#00000000
(1740609229.424368) vcan0 00001309#0000
(1740609229.424518) vcan0 00002006#00000000
(1740609229.424580) vcan0 00002009#00000000
(1740609229.424682) vcan0 00002202#0000
(1740609229.424760) vcan0 00001308#0000
(1740609229.424845) vcan0 00002203#0000
(1740609229.424976) vcan0 00002008#00000000
(1740609229.425022) vcan0 00002204#0000
(1740609229.425155) vcan0 00002208#0000
(1740609229.425215) vcan0 00002205#0000
(1740609229.425336) vcan0 00002209#0000
(1740609229.425382) vcan0 00002206#0000
(1740609229.426430) vcan0 0000130A#0000
(1740609229.426620) vcan0 0000200A#00000000
(1740609229.426806) vcan0 0000220A#0000
(1740609229.426995) vcan0 0000130B#0000
(1740609229.427225) vcan0 0000200B#00000000
(1740609229.427379) vcan0 0000220B#0000
(1740609229.427565) vcan0 0000130C#0000
(1740609229.427788) vcan0 0000200C#00000000
(1740609229.427969) vcan0 0000220C#0000
(1740609229.451104) vcan0 0000250F#EB01
(1740609230.417207) vcan0 00001301#0000
(1740609230.417210) vcan0 00002001#00000000
(1740609230.417342) vcan0 00002201#0000
(1740609230.419988) vcan0 00001201#00
(1740609230.420059) vcan0 00001202#00
(1740609230.420099) vcan0 00001203#00
(1740609230.420139) vcan0 00001204#00
(1740609230.420176) vcan0 00001205#00
(1740609230.420213) vcan0 00001206#00
(1740609230.420249) vcan0 00001207#00
(1740609230.420283) vcan0 00001302#0000
(1740609230.420285) vcan0 00001208#00
(1740609230.420322) vcan0 00001209#00
(1740609230.420364) vcan0 0000120A#00
(1740609230.420406) vcan0 0000120B#00
(1740609230.420442) vcan0 0000120C#00
(1740609230.420481) vcan0 00001221#00
(1740609230.420513) vcan0 00001222#00
(1740609230.420546) vcan0 0000120F#00
(1740609230.420664) vcan0 00002002#00000000
(1740609230.423034) vcan0 00001307#0000
(1740609230.423064) vcan0 00001303#0000
(1740609230.423256) vcan0 00001304#0000
(1740609230.423258) vcan0 00002007#00000000
(1740609230.423417) vcan0 00002207#0000
(1740609230.423449) vcan0 00001305#0000
(1740609230.423618) vcan0 00001306#0000
(1740609230.423841) vcan0 00002003#00000000
(1740609230.424054) vcan0 00002004#00000000
(1740609230.424270) vcan0 00002005#00000000
(1740609230.424338) vcan0 00001309#0000
(1740609230.424458) vcan0 00002006#00000000
(1740609230.424559) vcan0 00002009#00000000
(1740609230.424648) vcan0 00002202#0000
(1740609230.424738) vcan0 00001308#0000
(1740609230.424828) vcan0 00002203#0000
(1740609230.424960) vcan0 00002008#00000000
(1740609230.425006) vcan0 00002204#0000
(1740609230.425139) vcan0 00002208#0000
(1740609230.425215) vcan0 00002205#0000
(1740609230.425315) vcan0 00002209#0000
(1740609230.425372) vcan0 00002206#0000
(1740609230.426382) vcan0 0000130A#0000
(1740609230.426605) vcan0 0000200A#00000000
(1740609230.426785) vcan0 0000220A#0000
(1740609230.426968) vcan0 0000130B#0000
(1740609230.427225) vcan0 0000200B#00000000
(1740609230.427359) vcan0 0000220B#0000
(1740609230.427555) vcan0 0000130C#0000
(1740609230.427767) vcan0 0000200C#00000000
(1740609230.427959) vcan0 0000220C#0000
(1740609230.451016) vcan0 0000250F#E801
(1740609231.417211) vcan0 00001301#0000
(1740609231.417213) vcan0 00002001#00000000
(1740609231.417313) vcan0 00002201#0000
(1740609231.420010) vcan0 00001201#00
(1740609231.420081) vcan0 00001202#00
(1740609231.420122) vcan0 00001203#00
(1740609231.420162) vcan0 00001204#00
(1740609231.420198) vcan0 00001205#00
(1740609231.420238) vcan0 00001206#00
(1740609231.420268) vcan0 00001302#0000
(1740609231.420279) vcan0 00001207#00
(1740609231.420315) vcan0 00001208#00
(1740609231.420355) vcan0 00001209#00
(1740609231.420396) vcan0 0000120A#00
(1740609231.420434) vcan0 0000120B#00
(1740609231.420471) vcan0 0000120C#00
(1740609231.420507) vcan0 00001221#00
(1740609231.420539) vcan0 00002002#00000000
(1740609231.420540) vcan0 00001222#00
(1740609231.420572) vcan0 0000120F#00
(1740609231.423159) vcan0 00001307#0000
(1740609231.423162) vcan0 00001303#0000
(1740609231.423230) vcan0 00002007#00000000
(1740609231.423275) vcan0 00001304#0000
(1740609231.423392) vcan0 00002207#0000
(1740609231.423430) vcan0 00001305#0000
(1740609231.423603) vcan0 00001306#0000
(1740609231.423830) vcan0 00002003#00000000
(1740609231.424045) vcan0 00002004#00000000
(1740609231.424262) vcan0 00002005#00000000
(1740609231.424331) vcan0 00001309#0000
(1740609231.424482) vcan0 00002006#00000000
(1740609231.424539) vcan0 00002009#00000000
(1740609231.424657) vcan0 00002202#0000
(1740609231.424733) vcan0 00001308#0000
(1740609231.424806) vcan0 00002203#0000
(1740609231.424938) vcan0 00002008#00000000
(1740609231.424995) vcan0 00002204#0000
(1740609231.425128) vcan0 00002208#0000
(1740609231.425220) vcan0 00002205#0000
(1740609231.425299) vcan0 00002209#0000
(1740609231.425356) vcan0 00002206#0000
(1740609231.426365) vcan0 0000130A#0000
(1740609231.426590) vcan0 0000200A#00000000
(1740609231.426769) vcan0 0000220A#0000
(1740609231.426951) vcan0 0000130B#0000
(1740609231.427220) vcan0 0000200B#00000000
(1740609231.427343) vcan0 0000220B#0000
(1740609231.427539) vcan0 0000130C#0000
(1740609231.427752) vcan0 0000200C#00000000
(1740609231.427933) vcan0 0000220C#0000
(1740609231.450968) vcan0 0000250F#E801
(1740609232.417165) vcan0 00001301#0000
(1740609232.417167) vcan0 00002001#00000000
(1740609232.417303) vcan0 00002201#0000
(1740609232.419894) vcan0 00001201#00
(1740609232.419966) vcan0 00001202#00
(1740609232.420007) vcan0 00001203#00
(1740609232.420050) vcan0 00001204#00
(1740609232.420087) vcan0 00001205#00
(1740609232.420129) vcan0 00001206#00
(1740609232.420171) vcan0 00001207#00
(1740609232.420205) vcan0 00001208#00
(1740609232.420241) vcan0 00001209#00
(1740609232.420276) vcan0 0000120A#00
(1740609232.420316) vcan0 0000120B#00
(1740609232.420353) vcan0 0000120C#00
(1740609232.420389) vcan0 00001221#00
(1740609232.420412) vcan0 00001222#00
(1740609232.420417) vcan0 00001302#0000
(1740609232.420432) vcan0 0000120F#00
(1740609232.422797) vcan0 00001303#0000
(1740609232.423077) vcan0 00001307#0000
(1740609232.423079) vcan0 00001304#0000
(1740609232.423165) vcan0 00001305#0000
(1740609232.423221) vcan0 00002007#00000000
(1740609232.423376) vcan0 00001306#0000
(1740609232.423379) vcan0 00002207#0000
(1740609232.423597) vcan0 00002002#00000000
(1740609232.423806) vcan0 00002003#00000000
(1740609232.424034) vcan0 00002004#00000000
(1740609232.424251) vcan0 00002005#00000000
(1740609232.424300) vcan0 00001309#0000
(1740609232.424433) vcan0 00002006#00000000
(1740609232.424513) vcan0 00002009#00000000
(1740609232.424623) vcan0 00002202#0000
(1740609232.424702) vcan0 00001308#0000
(1740609232.424802) vcan0 00002203#0000
(1740609232.424924) vcan0 00002008#00000000
(1740609232.424981) vcan0 00002204#0000
(1740609232.425102) vcan0 00002208#0000
(1740609232.425216) vcan0 00002205#0000
(1740609232.425285) vcan0 00002209#0000
(1740609232.425341) vcan0 00002206#0000
(1740609232.426349) vcan0 0000130A#0000
(1740609232.426574) vcan0 0000200A#00000000
(1740609232.426754) vcan0 0000220A#0000
(1740609232.426936) vcan0 0000130B#0000
(1740609232.427147) vcan0 0000200B#00000000
(1740609232.427333) vcan0 0000220B#0000
(1740609232.427515) vcan0 0000130C#0000
(1740609232.427738) vcan0 0000200C#00000000
(1740609232.427908) vcan0 0000220C#0000
(1740609232.450964) vcan0 0000250F#EB01
(1740609233.417154) vcan0 00001301#0000
(1740609233.417156) vcan0 00002001#00000000
(1740609233.417286) vcan0 00002201#0000
(1740609233.419936) vcan0 00001201#00
(1740609233.420005) vcan0 00001202#00
(1740609233.420046) vcan0 00001203#00
(1740609233.420087) vcan0 00001204#00
(1740609233.420125) vcan0 00001205#00
(1740609233.420162) vcan0 00001206#00
(1740609233.420201) vcan0 00001207#00
(1740609233.420231) vcan0 00001302#0000
(1740609233.420237) vcan0 00001208#00
(1740609233.420273) vcan0 00001209#00
(1740609233.420307) vcan0 0000120A#00
(1740609233.420347) vcan0 0000120B#00
(1740609233.420385) vcan0 0000120C#00
(1740609233.420418) vcan0 00001221#00
(1740609233.420458) vcan0 00001222#00
(1740609233.420480) vcan0 0000120F#00
(1740609233.420625) vcan0 00002002#00000000
(1740609233.422994) vcan0 00001307#0000
(1740609233.423023) vcan0 00001303#0000
(1740609233.423188) vcan0 00002007#00000000
(1740609233.423218) vcan0 00001304#0000
(1740609233.423367) vcan0 00002207#0000
(1740609233.423400) vcan0 00001305#0000
(1740609233.423579) vcan0 00001306#0000
(1740609233.423812) vcan0 00002003#00000000
(1740609233.424014) vcan0 00002004#00000000
(1740609233.424261) vcan0 00002005#00000000
(1740609233.424295) vcan0 00001309#0000
(1740609233.424457) vcan0 00002006#00000000
(1740609233.424507) vcan0 00002009#00000000
(1740609233.424636) vcan0 00002202#0000
(1740609233.424691) vcan0 00001308#0000
(1740609233.424786) vcan0 00002203#0000
(1740609233.424897) vcan0 00002008#00000000
(1740609233.424965) vcan0 00002204#0000
(1740609233.425087) vcan0 00002208#0000
(1740609233.425144) vcan0 00002205#0000
(1740609233.425272) vcan0 00002209#0000
(1740609233.425327) vcan0 00002206#0000
(1740609233.426335) vcan0 0000130A#0000
(1740609233.426547) vcan0 0000200A#00000000
(1740609233.426728) vcan0 0000220A#0000
(1740609233.426910) vcan0 0000130B#0000
(1740609233.427133) vcan0 0000200B#00000000
(1740609233.427313) vcan0 0000220B#0000
(1740609233.427493) vcan0 0000130C#0000
(1740609233.427718) vcan0 0000200C#00000000
(1740609233.427898) vcan0 0000220C#0000
(1740609233.450954) vcan0 0000250F#E801
(1740609234.417149) vcan0 00001301#0000
(1740609234.417151) vcan0 00002001#00000000
(1740609234.417261) vcan0 00002201#0000
(1740609234.419989) vcan0 00001201#00
(1740609234.420060) vcan0 00001202#00
(1740609234.420101) vcan0 00001203#00
(1740609234.420141) vcan0 00001204#00
(1740609234.420178) vcan0 00001205#00
(1740609234.420179) vcan0 00001302#0000
(1740609234.420213) vcan0 00001206#00
(1740609234.420251) vcan0 00001207#00
(1740609234.420288) vcan0 00001208#00
(1740609234.420323) vcan0 00001209#00
(1740609234.420358) vcan0 0000120A#00
(1740609234.420397) vcan0 0000120B#00
(1740609234.420434) vcan0 0000120C#00
(1740609234.420460) vcan0 00002002#00000000
(1740609234.420470) vcan0 00001221#00
(1740609234.420511) vcan0 00001222#00
(1740609234.420538) vcan0 0000120F#00
(1740609234.423182) vcan0 00001307#0000
(1740609234.423184) vcan0 00001303#0000
(1740609234.423186) vcan0 00002007#00000000
(1740609234.423225) vcan0 00001304#0000
(1740609234.423323) vcan0 00002207#0000
(1740609234.423366) vcan0 00001305#0000
(1740609234.423564) vcan0 00001306#0000
(1740609234.423777) vcan0 00002003#00000000
(1740609234.424006) vcan0 00002004#00000000
(1740609234.424268) vcan0 00002005#00000000
(1740609234.424298) vcan0 00001309#0000
(1740609234.424410) vcan0 00002006#00000000
(1740609234.424488) vcan0 00002009#00000000
(1740609234.424586) vcan0 00002202#0000
(1740609234.424665) vcan0 00001308#0000
(1740609234.424775) vcan0 00002203#0000
(1740609234.424876) vcan0 00002008#00000000
(1740609234.424955) vcan0 00002204#0000
(1740609234.425065) vcan0 00002208#0000
(1740609234.425123) vcan0 00002205#0000
(1740609234.425244) vcan0 00002209#0000
(1740609234.425312) vcan0 00002206#0000
(1740609234.426308) vcan0 0000130A#0000
(1740609234.426531) vcan0 0000200A#00000000
(1740609234.426713) vcan0 0000220A#0000
(1740609234.426895) vcan0 0000130B#0000
(1740609234.427117) vcan0 0000200B#00000000
(1740609234.427297) vcan0 0000220B#0000
(1740609234.427478) vcan0 0000130C#0000
(1740609234.427701) vcan0 0000200C#00000000
(1740609234.427873) vcan0 0000220C#0000
(1740609234.450950) vcan0 0000250F#EB01
(1740609235.417140) vcan0 00001301#0000
(1740609235.417142) vcan0 00002001#00000000
(1740609235.417235) vcan0 00002201#0000
(1740609235.419944) vcan0 00001201#00
(1740609235.420016) vcan0 00001202#00
(1740609235.420057) vcan0 00001203#00
(1740609235.420096) vcan0 00001204#00
(1740609235.420134) vcan0 00001205#00
(1740609235.420160) vcan0 00001302#0000
(1740609235.420171) vcan0 00001206#00
(1740609235.420205) vcan0 00001207#00
(1740609235.420244) vcan0 00001208#00
(1740609235.420282) vcan0 00001209#00
(1740609235.420319) vcan0 0000120A#00
(1740609235.420363) vcan0 0000120B#00
(1740609235.420405) vcan0 0000120C#00
(1740609235.420439) vcan0 00001221#00
(1740609235.420475) vcan0 00001222#00
(1740609235.420501) vcan0 0000120F#00
(1740609235.420572) vcan0 00002002#00000000
(1740609235.423202) vcan0 00001307#0000
(1740609235.423204) vcan0 00001303#0000
(1740609235.423206) vcan0 00002007#00000000
(1740609235.423208) vcan0 00001304#0000
(1740609235.423302) vcan0 00002207#0000
(1740609235.423333) vcan0 00001305#0000
(1740609235.423558) vcan0 00001306#0000
(1740609235.423762) vcan0 00002003#00000000
(1740609235.423990) vcan0 00002004#00000000
(1740609235.424277) vcan0 00002005#00000000
(1740609235.424279) vcan0 00001309#0000
(1740609235.424422) vcan0 00002006#00000000
(1740609235.424459) vcan0 00002009#00000000
(1740609235.424600) vcan0 00002202#0000
(1740609235.424639) vcan0 00001308#0000
(1740609235.424778) vcan0 00002203#0000
(1740609235.424877) vcan0 00002008#00000000
(1740609235.424941) vcan0 00002204#0000
(1740609235.425056) vcan0 00002208#0000
(1740609235.425119) vcan0 00002205#0000
(1740609235.425218) vcan0 00002209#0000
(1740609235.425296) vcan0 00002206#0000
(1740609235.426303) vcan0 0000130A#0000
(1740609235.426516) vcan0 0000200A#00000000
(1740609235.426697) vcan0 0000220A#0000
(1740609235.426890) vcan0 0000130B#0000
(1740609235.427101) vcan0 0000200B#00000000
(1740609235.427282) vcan0 0000220B#0000
(1740609235.427462) vcan0 0000130C#0000
(1740609235.427686) vcan0 0000200C#00000000
(1740609235.427866) vcan0 0000220C#0000
(1740609235.450968) vcan0 0000250F#E801
(1740609236.417133) vcan0 00001301#0000
(1740609236.417135) vcan0 00002001#00000000
(1740609236.417235) vcan0 00002201#0000
(1740609236.419083) vcan0 00001201#00
(1740609236.419149) vcan0 00001202#00
(1740609236.419166) vcan0 00001203#00
(1740609236.419182) vcan0 00001204#00
(1740609236.419198) vcan0 00001205#00
(1740609236.419213) vcan0 00001206#00
(1740609236.419229) vcan0 00001207#00
(1740609236.419248) vcan0 00001208#00
(1740609236.419266) vcan0 00001209#00
(1740609236.419283) vcan0 0000120A#00
(1740609236.419304) vcan0 0000120B#00
(1740609236.419314) vcan0 0000120C#00
(1740609236.419322) vcan0 00001221#00
(1740609236.419330) vcan0 00001222#00
(1740609236.419338) vcan0 0000120F#00
(1740609236.422258) vcan0 00001302#0000
(1740609236.422260) vcan0 00001303#0000
(1740609236.422351) vcan0 00001304#0000
(1740609236.422568) vcan0 00001305#0000
(1740609236.422749) vcan0 00001306#0000
(1740609236.422912) vcan0 00001307#0000
(1740609236.422936) vcan0 00002002#00000000
(1740609236.423150) vcan0 00002007#00000000
(1740609236.423169) vcan0 00002003#00000000
(1740609236.423314) vcan0 00002207#0000
(1740609236.423404) vcan0 00002004#00000000
(1740609236.423916) vcan0 00002005#00000000
(1740609236.423918) vcan0 00002006#00000000
(1740609236.423999) vcan0 00002202#0000
(1740609236.424270) vcan0 00002203#0000
(1740609236.424273) vcan0 00001309#0000
(1740609236.424386) vcan0 00002204#0000
(1740609236.424442) vcan0 00002009#00000000
(1740609236.424569) vcan0 00002205#0000
(1740609236.424658) vcan0 00001308#0000
(1740609236.424747) vcan0 00002206#0000
(1740609236.424880) vcan0 00002008#00000000
(1740609236.425065) vcan0 00002208#0000
(1740609236.425260) vcan0 00002209#0000
(1740609236.426322) vcan0 0000130A#0000
(1740609236.426524) vcan0 0000200A#00000000
(1740609236.426706) vcan0 0000220A#0000
(1740609236.426908) vcan0 0000130B#0000
(1740609236.427109) vcan0 0000200B#00000000
(1740609236.427290) vcan0 0000220B#0000
(1740609236.427471) vcan0 0000130C#0000
(1740609236.427705) vcan0 0000200C#00000000
(1740609236.427876) vcan0 0000220C#0000
(1740609236.450958) vcan0 0000250F#EB01
(1740609237.417101) vcan0 00001301#0000
(1740609237.417103) vcan0 00002001#00000000
(1740609237.417256) vcan0 00002201#0000
(1740609237.418919) vcan0 00001201#00
(1740609237.418980) vcan0 00001202#00
(1740609237.418997) vcan0 00001203#00
(1740609237.419012) vcan0 00001204#00
(1740609237.419030) vcan0 00001205#00
(1740609237.419046) vcan0 00001206#00
(1740609237.419068) vcan0 00001207#00
(1740609237.419083) vcan0 00001208#00
(1740609237.419098) vcan0 00001209#00
(1740609237.419115) vcan0 0000120A#00
(1740609237.419131) vcan0 0000120B#00
(1740609237.419140) vcan0 0000120C#00
(1740609237.419149) vcan0 00001221#00
(1740609237.419156) vcan0 00001222#00
(1740609237.419166) vcan0 0000120F#00
(1740609237.421811) vcan0 00001302#0000
(1740609237.421991) vcan0 00001303#0000
(1740609237.422183) vcan0 00001304#0000
(1740609237.422367) vcan0 00001305#0000
(1740609237.422547) vcan0 00001306#0000
(1740609237.422771) vcan0 00002002#00000000
(1740609237.422900) vcan0 00001307#0000
(1740609237.422952) vcan0 00002003#00000000
(1740609237.423110) vcan0 00002007#00000000
(1740609237.423261) vcan0 00002004#00000000
(1740609237.423280) vcan0 00002207#0000
(1740609237.423423) vcan0 00002005#00000000
(1740609237.423651) vcan0 00002006#00000000
(1740609237.424047) vcan0 00002202#0000
(1740609237.424049) vcan0 00002203#0000
(1740609237.424193) vcan0 00002204#0000
(1740609237.424224) vcan0 00001309#0000
(1740609237.424621) vcan0 00002205#0000
(1740609237.424624) vcan0 00002009#00000000
(1740609237.424626) vcan0 00002206#0000
(1740609237.424655) vcan0 00001308#0000
(1740609237.424856) vcan0 00002008#00000000
(1740609237.425041) vcan0 00002208#0000
(1740609237.425264) vcan0 00002209#0000
(1740609237.426297) vcan0 0000130A#0000
(1740609237.426520) vcan0 0000200A#00000000
(1740609237.426701) vcan0 0000220A#0000
(1740609237.426905) vcan0 0000130B#0000
(1740609237.427094) vcan0 0000200B#00000000
(1740609237.427286) vcan0 0000220B#0000
(1740609237.427455) vcan0 0000130C#0000
(1740609237.427679) vcan0 0000200C#00000000
(1740609237.427862) vcan0 0000220C#0000
(1740609237.450920) vcan0 0000250F#E801
(1740609238.417090) vcan0 00001301#0000
(1740609238.417092) vcan0 00002001#00000000
(1740609238.417256) vcan0 00002201#0000
(1740609238.419906) vcan0 00001201#00
(1740609238.419976) vcan0 00001202#00
(1740609238.420013) vcan0 00001203#00
(1740609238.420048) vcan0 00001204#00
(1740609238.420084) vcan0 00001205#00
(1740609238.420119) vcan0 00001206#00
(1740609238.420155) vcan0 00001207#00
(1740609238.420190) vcan0 00001208#00
(1740609238.420225) vcan0 00001209#00
(1740609238.420259) vcan0 0000120A#00
(1740609238.420294) vcan0 0000120B#00
(1740609238.420319) vcan0 0000120C#00
(1740609238.420341) vcan0 00001221#00
(1740609238.420362) vcan0 00001222#00
(1740609238.420384) vcan0 0000120F#00
(1740609238.420434) vcan0 00001302#0000
(1740609238.420578) vcan0 00002002#00000000
(1740609238.422890) vcan0 00001307#0000
(1740609238.422926) vcan0 00001303#0000
(1740609238.423105) vcan0 00002007#00000000
(1740609238.423121) vcan0 00001304#0000
(1740609238.423277) vcan0 00002207#0000
(1740609238.423299) vcan0 00001305#0000
(1740609238.423518) vcan0 00001306#0000
(1740609238.423718) vcan0 00002003#00000000
(1740609238.423944) vcan0 00002004#00000000
(1740609238.424167) vcan0 00002005#00000000
(1740609238.424259) vcan0 00001309#0000
(1740609238.424379) vcan0 00002006#00000000
(1740609238.424412) vcan0 00002009#00000000
(1740609238.424566) vcan0 00002202#0000
(1740609238.424588) vcan0 00001308#0000
(1740609238.424717) vcan0 00002203#0000
(1740609238.424812) vcan0 00002008#00000000
(1740609238.424895) vcan0 00002204#0000
(1740609238.424984) vcan0 00002208#0000
(1740609238.425073) vcan0 00002205#0000
(1740609238.425163) vcan0 00002209#0000
(1740609238.425263) vcan0 00002206#0000
(1740609238.426270) vcan0 0000130A#0000
(1740609238.426454) vcan0 0000200A#00000000
(1740609238.426645) vcan0 0000220A#0000
(1740609238.426825) vcan0 0000130B#0000
(1740609238.427038) vcan0 0000200B#00000000
(1740609238.427229) vcan0 0000220B#0000
(1740609238.427410) vcan0 0000130C#0000
(1740609238.427623) vcan0 0000200C#00000000
(1740609238.427814) vcan0 0000220C#0000
(1740609238.450932) vcan0 0000250F#E801
(1740609239.417196) vcan0 00001301#0000
(1740609239.417198) vcan0 00002001#00000000
(1740609239.417228) vcan0 00002201#0000
(1740609239.419983) vcan0 00001201#00
(1740609239.420054) vcan0 00001202#00
(1740609239.420095) vcan0 00001203#00
(1740609239.420095) vcan0 00001302#0000
(1740609239.420141) vcan0 00001204#00
(1740609239.420178) vcan0 00001205#00
(1740609239.420225) vcan0 00001206#00
(1740609239.420263) vcan0 00001207#00
(1740609239.420301) vcan0 00001208#00
(1740609239.420337) vcan0 00001209#00
(1740609239.420375) vcan0 0000120A#00
(1740609239.420413) vcan0 0000120B#00
(1740609239.420449) vcan0 0000120C#00
(1740609239.420485) vcan0 00001221#00
(1740609239.420503) vcan0 00002002#00000000
(1740609239.420520) vcan0 00001222#00
(1740609239.420547) vcan0 0000120F#00
(1740609239.422859) vcan0 00001307#0000
(1740609239.422946) vcan0 00001303#0000
(1740609239.423076) vcan0 00002007#00000000
(1740609239.423098) vcan0 00001304#0000
(1740609239.423256) vcan0 00002207#0000
(1740609239.423279) vcan0 00001305#0000
(1740609239.423499) vcan0 00001306#0000
(1740609239.423722) vcan0 00002003#00000000
(1740609239.423902) vcan0 00002004#00000000
(1740609239.424118) vcan0 00002005#00000000
(1740609239.424158) vcan0 00001309#0000
(1740609239.424345) vcan0 00002006#00000000
(1740609239.424384) vcan0 00002009#00000000
(1740609239.424518) vcan0 00002202#0000
(1740609239.424564) vcan0 00001308#0000
(1740609239.424709) vcan0 00002203#0000
(1740609239.424786) vcan0 00002008#00000000
(1740609239.424887) vcan0 00002204#0000
(1740609239.424967) vcan0 00002208#0000
(1740609239.425065) vcan0 00002205#0000
(1740609239.425152) vcan0 00002209#0000
(1740609239.425252) vcan0 00002206#0000
(1740609239.426231) vcan0 0000130A#0000
(1740609239.426443) vcan0 0000200A#00000000
(1740609239.426624) vcan0 0000220A#0000
(1740609239.426805) vcan0 0000130B#0000
(1740609239.427029) vcan0 0000200B#00000000
(1740609239.427231) vcan0 0000220B#0000
(1740609239.427385) vcan0 0000130C#0000
(1740609239.427613) vcan0 0000200C#00000000
(1740609239.427794) vcan0 0000220C#0000
(1740609239.450961) vcan0 0000250F#E801
(1740609240.417144) vcan0 00001301#0000
(1740609240.417146) vcan0 00002001#00000000
(1740609240.417176) vcan0 00002201#0000
(1740609240.418745) vcan0 00001201#00
(1740609240.418812) vcan0 00001202#00
(1740609240.418828) vcan0 00001203#00
(1740609240.418844) vcan0 00001204#00
(1740609240.418860) vcan0 00001205#00
(1740609240.418903) vcan0 00001206#00
(1740609240.418918) vcan0 00001207#00
(1740609240.418934) vcan0 00001208#00
(1740609240.418949) vcan0 00001209#00
(1740609240.418964) vcan0 0000120A#00
(1740609240.418981) vcan0 0000120B#00
(1740609240.418990) vcan0 0000120C#00
(1740609240.418999) vcan0 00001221#00
(1740609240.419009) vcan0 00001222#00
(1740609240.419015) vcan0 0000120F#00
(1740609240.421652) vcan0 00001302#0000
(1740609240.421833) vcan0 00001303#0000
(1740609240.422008) vcan0 00001304#0000
(1740609240.422193) vcan0 00001305#0000
(1740609240.422390) vcan0 00001306#0000
(1740609240.422603) vcan0 00002002#00000000
(1740609240.422823) vcan0 00002003#00000000
(1740609240.422825) vcan0 00001307#0000
(1740609240.423056) vcan0 00002004#00000000
(1740609240.423058) vcan0 00002007#00000000
(1740609240.423273) vcan0 00002207#0000
(1740609240.423275) vcan0 00002005#00000000
(1740609240.423493) vcan0 00002006#00000000
(1740609240.423673) vcan0 00002202#0000
(1740609240.423854) vcan0 00002203#0000
(1740609240.424045) vcan0 00002204#0000
(1740609240.424174) vcan0 00001309#0000
(1740609240.424223) vcan0 00002205#0000
(1740609240.424350) vcan0 00002206#0000
(1740609240.424390) vcan0 00002009#00000000
(1740609240.424598) vcan0 00001308#0000
(1740609240.424773) vcan0 00002008#00000000
(1740609240.424954) vcan0 00002208#0000
(1740609240.425148) vcan0 00002209#0000
(1740609240.426266) vcan0 0000130A#0000
(1740609240.426429) vcan0 0000200A#00000000
(1740609240.426648) vcan0 0000220A#0000
(1740609240.426790) vcan0 0000130B#0000
(1740609240.427013) vcan0 0000200B#00000000
(1740609240.427225) vcan0 0000220B#0000
(1740609240.427369) vcan0 0000130C#0000
(1740609240.427587) vcan0 0000200C#00000000
(1740609240.427783) vcan0 0000220C#0000
(1740609240.450943) vcan0 0000250F#E801
(1740609241.417030) vcan0 00001301#0000
(1740609241.417033) vcan0 00002001#00000000
(1740609241.417133) vcan0 00002201#0000
(1740609241.418656) vcan0 00001201#00
(1740609241.418722) vcan0 00001202#00
(1740609241.418739) vcan0 00001203#00
(1740609241.418756) vcan0 00001204#00
(1740609241.418771) vcan0 00001205#00
(1740609241.418786) vcan0 00001206#00
(1740609241.418801) vcan0 00001207#00
(1740609241.418816) vcan0 00001208#00
(1740609241.418833) vcan0 00001209#00
(1740609241.418848) vcan0 0000120A#00
(1740609241.418866) vcan0 0000120B#00
(1740609241.418902) vcan0 0000120C#00
(1740609241.418911) vcan0 00001221#00
(1740609241.418918) vcan0 00001222#00
(1740609241.418925) vcan0 0000120F#00
(1740609241.421556) vcan0 00001302#0000
(1740609241.421737) vcan0 00001303#0000
(1740609241.421931) vcan0 00001304#0000
(1740609241.422108) vcan0 00001305#0000
(1740609241.422290) vcan0 00001306#0000
(1740609241.422513) vcan0 00002002#00000000
(1740609241.422726) vcan0 00002003#00000000
(1740609241.422821) vcan0 00001307#0000
(1740609241.422942) vcan0 00002004#00000000
(1740609241.423042) vcan0 00002007#00000000
(1740609241.423164) vcan0 00002005#00000000
(1740609241.423252) vcan0 00002207#0000
(1740609241.423385) vcan0 00002006#00000000
(1740609241.423551) vcan0 00002202#0000
(1740609241.423750) vcan0 00002203#0000
(1740609241.423898) vcan0 00002204#0000
(1740609241.424125) vcan0 00002205#0000
(1740609241.424142) vcan0 00001309#0000
(1740609241.424253) vcan0 00002206#0000
(1740609241.424373) vcan0 00002009#00000000
(1740609241.424569) vcan0 00001308#0000
(1740609241.424753) vcan0 00002008#00000000
(1740609241.424933) vcan0 00002208#0000
(1740609241.425114) vcan0 00002209#0000
(1740609241.426271) vcan0 0000130A#0000
(1740609241.426417) vcan0 0000200A#00000000
(1740609241.426622) vcan0 0000220A#0000
(1740609241.426774) vcan0 0000130B#0000
(1740609241.426998) vcan0 0000200B#00000000
(1740609241.427167) vcan0 0000220B#0000
(1740609241.427360) vcan0 0000130C#0000
(1740609241.427573) vcan0 0000200C#00000000
(1740609241.427750) vcan0 0000220C#0000
(1740609241.450909) vcan0 0000250F#EB01
(1740609242.417010) vcan0 00001301#0000
(1740609242.417012) vcan0 00002001#00000000
(1740609242.417127) vcan0 00002201#0000
(1740609242.419507) vcan0 00001201#00
(1740609242.419599) vcan0 00001202#00
(1740609242.419645) vcan0 00001203#00
(1740609242.419688) vcan0 00001204#00
(1740609242.419743) vcan0 00001205#00
(1740609242.419784) vcan0 00001206#00
(1740609242.419826) vcan0 00001207#00
(1740609242.419865) vcan0 00001208#00
(1740609242.419913) vcan0 00001209#00
(1740609242.419956) vcan0 0000120A#00
(1740609242.419997) vcan0 0000120B#00
(1740609242.420040) vcan0 0000120C#00
(1740609242.420082) vcan0 00001221#00
(1740609242.420128) vcan0 00001222#00
(1740609242.420168) vcan0 0000120F#00
(1740609242.422418) vcan0 00001302#0000
(1740609242.422609) vcan0 00001303#0000
(1740609242.422796) vcan0 00001304#0000
(1740609242.422798) vcan0 00001307#0000
(1740609242.422964) vcan0 00001305#0000
(1740609242.422996) vcan0 00002007#00000000
(1740609242.423153) vcan0 00001306#0000
(1740609242.423253) vcan0 00002207#0000
(1740609242.423375) vcan0 00002002#00000000
(1740609242.423603) vcan0 00002003#00000000
(1740609242.423811) vcan0 00002004#00000000
(1740609242.424038) vcan0 00002005#00000000
(1740609242.424102) vcan0 00001309#0000
(1740609242.424228) vcan0 00002006#00000000
(1740609242.424328) vcan0 00002009#00000000
(1740609242.424407) vcan0 00002202#0000
(1740609242.424507) vcan0 00001308#0000
(1740609242.424585) vcan0 00002203#0000
(1740609242.424728) vcan0 00002008#00000000
(1740609242.424768) vcan0 00002204#0000
(1740609242.424908) vcan0 00002208#0000
(1740609242.424948) vcan0 00002205#0000
(1740609242.425086) vcan0 00002209#0000
(1740609242.425126) vcan0 00002206#0000
(1740609242.426227) vcan0 0000130A#0000
(1740609242.426382) vcan0 0000200A#00000000
(1740609242.426567) vcan0 0000220A#0000
(1740609242.426759) vcan0 0000130B#0000
(1740609242.426971) vcan0 0000200B#00000000
(1740609242.427152) vcan0 0000220B#0000
(1740609242.427340) vcan0 0000130C#0000
(1740609242.427552) vcan0 0000200C#00000000
(1740609242.427747) vcan0 0000220C#0000
(1740609242.450978) vcan0 0000250F#E801
(1740609243.416991) vcan0 00001301#0000
(1740609243.416993) vcan0 00002001#00000000
(1740609243.417096) vcan0 00002201#0000
(1740609243.419531) vcan0 00001201#00
(1740609243.419624) vcan0 00001202#00
(1740609243.419669) vcan0 00001203#00
(1740609243.419710) vcan0 00001204#00
(1740609243.419749) vcan0 00001205#00
(1740609243.419795) vcan0 00001206#00
(1740609243.419836) vcan0 00001207#00
(1740609243.419875) vcan0 00001208#00
(1740609243.419922) vcan0 00001209#00
(1740609243.419965) vcan0 0000120A#00
(1740609243.420013) vcan0 0000120B#00
(1740609243.420058) vcan0 0000120C#00
(1740609243.420104) vcan0 00001221#00
(1740609243.420146) vcan0 00001222#00
(1740609243.420187) vcan0 0000120F#00
(1740609243.422440) vcan0 00001302#0000
(1740609243.422621) vcan0 00001303#0000
(1740609243.422802) vcan0 00001307#0000
(1740609243.422805) vcan0 00001304#0000
(1740609243.422998) vcan0 00001305#0000
(1740609243.423001) vcan0 00002007#00000000
(1740609243.423172) vcan0 00001306#0000
(1740609243.423175) vcan0 00002207#0000
(1740609243.423398) vcan0 00002002#00000000
(1740609243.423620) vcan0 00002003#00000000
(1740609243.423821) vcan0 00002004#00000000
(1740609243.424031) vcan0 00002005#00000000
(1740609243.424088) vcan0 00001309#0000
(1740609243.424262) vcan0 00002006#00000000
(1740609243.424312) vcan0 00002009#00000000
(1740609243.424452) vcan0 00002202#0000
(1740609243.424490) vcan0 00001308#0000
(1740609243.424631) vcan0 00002203#0000
(1740609243.424719) vcan0 00002008#00000000
(1740609243.424782) vcan0 00002204#0000
(1740609243.424914) vcan0 00002208#0000
(1740609243.424961) vcan0 00002205#0000
(1740609243.425072) vcan0 00002209#0000
(1740609243.425150) vcan0 00002206#0000
(1740609243.426190) vcan0 0000130A#0000
(1740609243.426377) vcan0 0000200A#00000000
(1740609243.426553) vcan0 0000220A#0000
(1740609243.426734) vcan0 0000130B#0000
(1740609243.426958) vcan0 0000200B#00000000
(1740609243.427138) vcan0 0000220B#0000
(1740609243.427316) vcan0 0000130C#0000
(1740609243.427542) vcan0 0000200C#00000000
(1740609243.427713) vcan0 0000220C#0000
(1740609243.450909) vcan0 0000250F#EB01
(1740609244.416977) vcan0 00001301#0000
(1740609244.416980) vcan0 00002001#00000000
(1740609244.417077) vcan0 00002201#0000
(1740609244.419711) vcan0 00001201#00
(1740609244.419781) vcan0 00001202#00
(1740609244.419822) vcan0 00001203#00
(1740609244.419860) vcan0 00001204#00
(1740609244.419901) vcan0 00001205#00
(1740609244.419938) vcan0 00001206#00
(1740609244.419973) vcan0 00001207#00
(1740609244.420007) vcan0 00001208#00
(1740609244.420043) vcan0 00001209#00
(1740609244.420079) vcan0 0000120A#00
(1740609244.420098) vcan0 00001302#0000
(1740609244.420113) vcan0 0000120B#00
(1740609244.420150) vcan0 0000120C#00
(1740609244.420188) vcan0 00001221#00
(1740609244.420220) vcan0 00001222#00
(1740609244.420255) vcan0 0000120F#00
(1740609244.422664) vcan0 00001303#0000
(1740609244.422750) vcan0 00001307#0000
(1740609244.422800) vcan0 00001304#0000
(1740609244.422949) vcan0 00002007#00000000
(1740609244.422989) vcan0 00001305#0000
(1740609244.423147) vcan0 00002207#0000
(1740609244.423254) vcan0 00001306#0000
(1740609244.423413) vcan0 00002002#00000000
(1740609244.423641) vcan0 00002003#00000000
(1740609244.423863) vcan0 00002004#00000000
(1740609244.424082) vcan0 00002005#00000000
(1740609244.424084) vcan0 00001309#0000
(1740609244.424271) vcan0 00002006#00000000
(1740609244.424315) vcan0 00002009#00000000
(1740609244.424460) vcan0 00002202#0000
(1740609244.424505) vcan0 00001308#0000
(1740609244.424635) vcan0 00002203#0000
(1740609244.424692) vcan0 00002008#00000000
(1740609244.424803) vcan0 00002204#0000
(1740609244.424871) vcan0 00002208#0000
(1740609244.424992) vcan0 00002205#0000
(1740609244.425050) vcan0 00002209#0000
(1740609244.425233) vcan0 00002206#0000
(1740609244.426139) vcan0 0000130A#0000
(1740609244.426351) vcan0 0000200A#00000000
(1740609244.426533) vcan0 0000220A#0000
(1740609244.426713) vcan0 0000130B#0000
(1740609244.426947) vcan0 0000200B#00000000
(1740609244.427128) vcan0 0000220B#0000
(1740609244.427298) vcan0 0000130C#0000
(1740609244.427521) vcan0 0000200C#00000000
(1740609244.427702) vcan0 0000220C#0000
(1740609244.450891) vcan0 0000250F#E801
(1740609245.416937) vcan0 00001301#0000
(1740609245.416939) vcan0 00002001#00000000
(1740609245.417071) vcan0 00002201#0000
(1740609245.419732) vcan0 00001201#00
(1740609245.419803) vcan0 00001202#00
(1740609245.419843) vcan0 00001203#00
(1740609245.419884) vcan0 00001204#00
(1740609245.419921) vcan0 00001205#00
(1740609245.419957) vcan0 00001206#00
(1740609245.419997) vcan0 00001207#00
(1740609245.420037) vcan0 00001208#00
(1740609245.420077) vcan0 00001209#00
(1740609245.420079) vcan0 00001302#0000
(1740609245.420114) vcan0 0000120A#00
(1740609245.420155) vcan0 0000120B#00
(1740609245.420189) vcan0 0000120C#00
(1740609245.420223) vcan0 00001221#00
(1740609245.420253) vcan0 00001222#00
(1740609245.420274) vcan0 0000120F#00
(1740609245.423152) vcan0 00001303#0000
(1740609245.423155) vcan0 00001307#0000
(1740609245.423156) vcan0 00001304#0000
(1740609245.423158) vcan0 00002007#00000000
(1740609245.423160) vcan0 00001305#0000
(1740609245.423217) vcan0 00002207#0000
(1740609245.423219) vcan0 00001306#0000
(1740609245.423374) vcan0 00002002#00000000
(1740609245.423626) vcan0 00002003#00000000
(1740609245.424118) vcan0 00002004#00000000
(1740609245.424120) vcan0 00002005#00000000
(1740609245.424123) vcan0 00001309#0000
(1740609245.424256) vcan0 00002006#00000000
(1740609245.424300) vcan0 00002009#00000000
(1740609245.424479) vcan0 00002202#0000
(1740609245.424482) vcan0 00001308#0000
(1740609245.424648) vcan0 00002203#0000
(1740609245.424684) vcan0 00002008#00000000
(1740609245.424837) vcan0 00002204#0000
(1740609245.424866) vcan0 00002208#0000
(1740609245.425009) vcan0 00002205#0000
(1740609245.425044) vcan0 00002209#0000
(1740609245.425185) vcan0 00002206#0000
(1740609245.426160) vcan0 0000130A#0000
(1740609245.426365) vcan0 0000200A#00000000
(1740609245.426558) vcan0 0000220A#0000
(1740609245.426740) vcan0 0000130B#0000
(1740609245.426997) vcan0 0000200B#00000000
(1740609245.427130) vcan0 0000220B#0000
(1740609245.427322) vcan0 0000130C#0000
(1740609245.427531) vcan0 0000200C#00000000
(1740609245.427718) vcan0 0000220C#0000
(1740609245.450891) vcan0 0000250F#E801
(1740609246.416935) vcan0 00001301#0000
(1740609246.416938) vcan0 00002001#00000000
(1740609246.417036) vcan0 00002201#0000
(1740609246.419744) vcan0 00001201#00
(1740609246.419814) vcan0 00001202#00
(1740609246.419855) vcan0 00001203#00
(1740609246.419893) vcan0 00001204#00
(1740609246.419932) vcan0 00001205#00
(1740609246.419974) vcan0 00001206#00
(1740609246.420009) vcan0 00001302#0000
(1740609246.420013) vcan0 00001207#00
(1740609246.420052) vcan0 00001208#00
(1740609246.420090) vcan0 00001209#00
(1740609246.420128) vcan0 0000120A#00
(1740609246.420164) vcan0 0000120B#00
(1740609246.420202) vcan0 0000120C#00
(1740609246.420249) vcan0 00001221#00
(1740609246.420280) vcan0 00001222#00
(1740609246.420306) vcan0 0000120F#00
(1740609246.420423) vcan0 00002002#00000000
(1740609246.422751) vcan0 00001307#0000
(1740609246.422810) vcan0 00001303#0000
(1740609246.423074) vcan0 00002007#00000000
(1740609246.423076) vcan0 00001304#0000
(1740609246.423112) vcan0 00002207#0000
(1740609246.423262) vcan0 00001305#0000
(1740609246.423389) vcan0 00001306#0000
(1740609246.423615) vcan0 00002003#00000000
(1740609246.423826) vcan0 00002004#00000000
(1740609246.424057) vcan0 00002005#00000000
(1740609246.424060) vcan0 00001309#0000
(1740609246.424283) vcan0 00002006#00000000
(1740609246.424285) vcan0 00002009#00000000
(1740609246.424448) vcan0 00002202#0000
(1740609246.424479) vcan0 00001308#0000
(1740609246.424599) vcan0 00002203#0000
(1740609246.424656) vcan0 00002008#00000000
(1740609246.424777) vcan0 00002204#0000
(1740609246.424835) vcan0 00002208#0000
(1740609246.424967) vcan0 00002205#0000
(1740609246.425014) vcan0 00002209#0000
(1740609246.425146) vcan0 00002206#0000
(1740609246.426138) vcan0 0000130A#0000
(1740609246.426320) vcan0 0000200A#00000000
(1740609246.426496) vcan0 0000220A#0000
(1740609246.426676) vcan0 0000130B#0000
(1740609246.426900) vcan0 0000200B#00000000
(1740609246.427092) vcan0 0000220B#0000
(1740609246.427262) vcan0 0000130C#0000
(1740609246.427484) vcan0 0000200C#00000000
(1740609246.427665) vcan0 0000220C#0000
(1740609246.450884) vcan0 0000250F#E801
(1740609247.416918) vcan0 00001301#0000
(1740609247.416920) vcan0 00002001#00000000
(1740609247.417026) vcan0 00002201#0000
(1740609247.419729) vcan0 00001201#00
(1740609247.419799) vcan0 00001202#00
(1740609247.419842) vcan0 00001203#00
(1740609247.419880) vcan0 00001204#00
(1740609247.419919) vcan0 00001205#00
(1740609247.419956) vcan0 00001206#00
(1740609247.420002) vcan0 00001207#00
(1740609247.420039) vcan0 00001302#0000
(1740609247.420044) vcan0 00001208#00
(1740609247.420084) vcan0 00001209#00
(1740609247.420118) vcan0 0000120A#00
(1740609247.420159) vcan0 0000120B#00
(1740609247.420196) vcan0 0000120C#00
(1740609247.420238) vcan0 00001221#00
(1740609247.420271) vcan0 00001222#00
(1740609247.420301) vcan0 0000120F#00
(1740609247.420434) vcan0 00002002#00000000
(1740609247.422694) vcan0 00001307#0000
(1740609247.422798) vcan0 00001303#0000
(1740609247.422903) vcan0 00002007#00000000
(1740609247.422976) vcan0 00001304#0000
(1740609247.423115) vcan0 00002207#0000
(1740609247.423165) vcan0 00001305#0000
(1740609247.423372) vcan0 00001306#0000
(1740609247.423605) vcan0 00002003#00000000
(1740609247.423816) vcan0 00002004#00000000
(1740609247.424053) vcan0 00002005#00000000
(1740609247.424055) vcan0 00001309#0000
(1740609247.424232) vcan0 00002009#00000000
(1740609247.424276) vcan0 00002006#00000000
(1740609247.424419) vcan0 00002202#0000
(1740609247.424457) vcan0 00001308#0000
(1740609247.424588) vcan0 00002203#0000
(1740609247.424634) vcan0 00002008#00000000
(1740609247.424767) vcan0 00002204#0000
(1740609247.424814) vcan0 00002208#0000
(1740609247.424945) vcan0 00002205#0000
(1740609247.424992) vcan0 00002209#0000
(1740609247.425135) vcan0 00002206#0000
(1740609247.426077) vcan0 0000130A#0000
(1740609247.426305) vcan0 0000200A#00000000
(1740609247.426476) vcan0 0000220A#0000
(1740609247.426666) vcan0 0000130B#0000
(1740609247.426890) vcan0 0000200B#00000000
(1740609247.427070) vcan0 0000220B#0000
(1740609247.427251) vcan0 0000130C#0000
(1740609247.427464) vcan0 0000200C#00000000
(1740609247.427644) vcan0 0000220C#0000
(1740609247.450879) vcan0 0000250F#E801
(1740609248.416903) vcan0 00001301#0000
(1740609248.416905) vcan0 00002001#00000000
(1740609248.417011) vcan0 00002201#0000
(1740609248.419866) vcan0 00001201#00
(1740609248.419936) vcan0 00001202#00
(1740609248.419944) vcan0 00001302#0000
(1740609248.419972) vcan0 00001203#00
(1740609248.420009) vcan0 00001204#00
(1740609248.420050) vcan0 00001205#00
(1740609248.420091) vcan0 00001206#00
(1740609248.420128) vcan0 00001207#00
(1740609248.420165) vcan0 00001208#00
(1740609248.420201) vcan0 00001209#00
(1740609248.420229) vcan0 00002002#00000000
(1740609248.420238) vcan0 0000120A#00
(1740609248.420273) vcan0 0000120B#00
(1740609248.420313) vcan0 0000120C#00
(1740609248.420347) vcan0 00001221#00
(1740609248.420380) vcan0 00001222#00
(1740609248.420424) vcan0 0000120F#00
(1740609248.422742) vcan0 00001307#0000
(1740609248.422788) vcan0 00001303#0000
(1740609248.423082) vcan0 00002007#00000000
(1740609248.423084) vcan0 00001304#0000
(1740609248.423116) vcan0 00002207#0000
(1740609248.423144) vcan0 00001305#0000
(1740609248.423364) vcan0 00001306#0000
(1740609248.423595) vcan0 00002003#00000000
(1740609248.423806) vcan0 00002004#00000000
(1740609248.424024) vcan0 00002005#00000000
(1740609248.424026) vcan0 00001309#0000
(1740609248.424237) vcan0 00002009#00000000
(1740609248.424279) vcan0 00002006#00000000
(1740609248.424388) vcan0 00002202#0000
(1740609248.424433) vcan0 00001308#0000
(1740609248.424567) vcan0 00002203#0000
(1740609248.424614) vcan0 00002008#00000000
(1740609248.424757) vcan0 00002204#0000
(1740609248.424796) vcan0 00002208#0000
(1740609248.424936) vcan0 00002205#0000
(1740609248.424976) vcan0 00002209#0000
(1740609248.425126) vcan0 00002206#0000
(1740609248.426067) vcan0 0000130A#0000
(1740609248.426284) vcan0 0000200A#00000000
(1740609248.426465) vcan0 0000220A#0000
(1740609248.426645) vcan0 0000130B#0000
(1740609248.426869) vcan0 0000200B#00000000
(1740609248.427048) vcan0 0000220B#0000
(1740609248.427230) vcan0 0000130C#0000
(1740609248.427443) vcan0 0000200C#00000000
(1740609248.427634) vcan0 0000220C#0000
(1740609248.450879) vcan0 0000250F#E801
(1740609249.416888) vcan0 00001301#0000
(1740609249.416890) vcan0 00002001#00000000
(1740609249.416989) vcan0 00002201#0000
(1740609249.419700) vcan0 00001201#00
(1740609249.419771) vcan0 00001202#00
(1740609249.419812) vcan0 00001203#00
(1740609249.419850) vcan0 00001204#00
(1740609249.419888) vcan0 00001205#00
(1740609249.419926) vcan0 00001206#00
(1740609249.419954) vcan0 00001302#0000
(1740609249.419965) vcan0 00001207#00
(1740609249.420005) vcan0 00001208#00
(1740609249.420044) vcan0 00001209#00
(1740609249.420084) vcan0 0000120A#00
(1740609249.420124) vcan0 0000120B#00
(1740609249.420170) vcan0 0000120C#00
(1740609249.420206) vcan0 00001221#00
(1740609249.420246) vcan0 00001222#00
(1740609249.420273) vcan0 0000120F#00
(1740609249.420390) vcan0 00002002#00000000
(1740609249.422694) vcan0 00001307#0000
(1740609249.422773) vcan0 00001303#0000
(1740609249.422885) vcan0 00002007#00000000
(1740609249.422960) vcan0 00001304#0000
(1740609249.423095) vcan0 00002207#0000
(1740609249.423133) vcan0 00001305#0000
(1740609249.423345) vcan0 00001306#0000
(1740609249.423570) vcan0 00002003#00000000
(1740609249.423793) vcan0 00002004#00000000
(1740609249.424008) vcan0 00002005#00000000
(1740609249.424010) vcan0 00001309#0000
(1740609249.424233) vcan0 00002006#00000000
(1740609249.424285) vcan0 00002009#00000000
(1740609249.424373) vcan0 00002202#0000
(1740609249.424417) vcan0 00001308#0000
(1740609249.424552) vcan0 00002203#0000
(1740609249.424598) vcan0 00002008#00000000
(1740609249.424741) vcan0 00002204#0000
(1740609249.424786) vcan0 00002208#0000
(1740609249.424920) vcan0 00002205#0000
(1740609249.424960) vcan0 00002209#0000
(1740609249.425099) vcan0 00002206#0000
(1740609249.426051) vcan0 0000130A#0000
(1740609249.426268) vcan0 0000200A#00000000
(1740609249.426439) vcan0 0000130B#0000
(1740609249.426672) vcan0 0000200B#00000000
(1740609249.426843) vcan0 0000220A#0000
(1740609249.427034) vcan0 0000220B#0000
(1740609249.427236) vcan0 0000130C#0000
(1740609249.427427) vcan0 0000200C#00000000
(1740609249.427608) vcan0 0000220C#0000
(1740609249.450877) vcan0 0000250F#E801
(1740609250.416845) vcan0 00001301#0000
(1740609250.416847) vcan0 00002001#00000000
(1740609250.416992) vcan0 00002201#0000
(1740609250.419641) vcan0 00001201#00
(1740609250.419712) vcan0 00001202#00
(1740609250.419749) vcan0 00001203#00
(1740609250.419786) vcan0 00001204#00
(1740609250.419827) vcan0 00001205#00
(1740609250.419867) vcan0 00001206#00
(1740609250.419908) vcan0 00001207#00
(1740609250.419945) vcan0 00001208#00
(1740609250.419982) vcan0 00001209#00
(1740609250.420018) vcan0 0000120A#00
(1740609250.420054) vcan0 0000120B#00
(1740609250.420074) vcan0 00001302#0000
(1740609250.420091) vcan0 0000120C#00
(1740609250.420124) vcan0 00001221#00
(1740609250.420165) vcan0 00001222#00
(1740609250.420194) vcan0 0000120F#00
(1740609250.422561) vcan0 00001303#0000
(1740609250.422656) vcan0 00001307#0000
(1740609250.422746) vcan0 00001304#0000
(1740609250.422880) vcan0 00002007#00000000
(1740609250.422917) vcan0 00001305#0000
(1740609250.423028) vcan0 00002207#0000
(1740609250.423075) vcan0 00001306#0000
(1740609250.423306) vcan0 00002002#00000000
(1740609250.423570) vcan0 00002003#00000000
(1740609250.423770) vcan0 00002004#00000000
(1740609250.423976) vcan0 00001309#0000
(1740609250.423997) vcan0 00002005#00000000
(1740609250.424173) vcan0 00002009#00000000
(1740609250.424226) vcan0 00002006#00000000
(1740609250.424348) vcan0 00001308#0000
(1740609250.424393) vcan0 00002202#0000
(1740609250.424548) vcan0 00002203#0000
(1740609250.424592) vcan0 00002008#00000000
(1740609250.424723) vcan0 00002204#0000
(1740609250.424762) vcan0 00002208#0000
(1740609250.424901) vcan0 00002205#0000
(1740609250.424941) vcan0 00002209#0000
(1740609250.425080) vcan0 00002206#0000
(1740609250.426026) vcan0 0000130A#0000
(1740609250.426241) vcan0 0000200A#00000000
(1740609250.426433) vcan0 0000130B#0000
(1740609250.426647) vcan0 0000200B#00000000
(1740609250.426827) vcan0 0000220A#0000
(1740609250.427005) vcan0 0000220B#0000
(1740609250.427231) vcan0 0000130C#0000
(1740609250.427412) vcan0 0000200C#00000000
(1740609250.427593) vcan0 0000220C#0000
(1740609250.450860) vcan0 0000250F#E801
(1740609251.416867) vcan0 00001301#0000
(1740609251.416869) vcan0 00002001#00000000
(1740609251.416957) vcan0 00002201#0000
(1740609251.419651) vcan0 00001201#00
(1740609251.419722) vcan0 00001202#00
(1740609251.419759) vcan0 00001203#00
(1740609251.419796) vcan0 00001204#00
(1740609251.419832) vcan0 00001205#00
(1740609251.419871) vcan0 00001206#00
(1740609251.419909) vcan0 00001207#00
(1740609251.419945) vcan0 00001208#00
(1740609251.419966) vcan0 00001302#0000
(1740609251.419981) vcan0 00001209#00
(1740609251.420016) vcan0 0000120A#00
(1740609251.420052) vcan0 0000120B#00
(1740609251.420091) vcan0 0000120C#00
(1740609251.420128) vcan0 00001221#00
(1740609251.420160) vcan0 00001222#00
(1740609251.420195) vcan0 0000120F#00
(1740609251.422558) vcan0 00001303#0000
(1740609251.422644) vcan0 00001307#0000
(1740609251.422731) vcan0 00001304#0000
(1740609251.422864) vcan0 00002007#00000000
(1740609251.422896) vcan0 00001305#0000
(1740609251.423042) vcan0 00002207#0000
(1740609251.423073) vcan0 00001306#0000
(1740609251.423600) vcan0 00002002#00000000
(1740609251.423602) vcan0 00002003#00000000
(1740609251.423763) vcan0 00002004#00000000
(1740609251.423981) vcan0 00001309#0000
(1740609251.423983) vcan0 00002005#00000000
(1740609251.424192) vcan0 00002009#00000000
(1740609251.424238) vcan0 00002006#00000000
(1740609251.424356) vcan0 00001308#0000
(1740609251.424376) vcan0 00002202#0000
(1740609251.424586) vcan0 00002203#0000
(1740609251.424588) vcan0 00002008#00000000
(1740609251.424741) vcan0 00002204#0000
(1740609251.424762) vcan0 00002208#0000
(1740609251.424921) vcan0 00002205#0000
(1740609251.424942) vcan0 00002209#0000
(1740609251.425099) vcan0 00002206#0000
(1740609251.426045) vcan0 0000130A#0000
(1740609251.426261) vcan0 0000200A#00000000
(1740609251.426444) vcan0 0000130B#0000
(1740609251.426665) vcan0 0000200B#00000000
(1740609251.426839) vcan0 0000220A#0000
(1740609251.427032) vcan0 0000220B#0000
(1740609251.427272) vcan0 0000130C#0000
(1740609251.427415) vcan0 0000200C#00000000
(1740609251.427612) vcan0 0000220C#0000
(1740609251.450881) vcan0 0000250F#EB01
(1740609252.416830) vcan0 00001301#0000
(1740609252.416832) vcan0 00002001#00000000
(1740609252.416939) vcan0 00002201#0000
(1740609252.419643) vcan0 00001201#00
(1740609252.419714) vcan0 00001202#00
(1740609252.419752) vcan0 00001203#00
(1740609252.419794) vcan0 00001204#00
(1740609252.419833) vcan0 00001205#00
(1740609252.419870) vcan0 00001206#00
(1740609252.419906) vcan0 00001207#00
(1740609252.419944) vcan0 00001208#00
(1740609252.419955) vcan0 00001302#0000
(1740609252.419980) vcan0 00001209#00
(1740609252.420016) vcan0 0000120A#00
(1740609252.420050) vcan0 0000120B#00
(1740609252.420091) vcan0 0000120C#00
(1740609252.420133) vcan0 00001221#00
(1740609252.420171) vcan0 00001222#00
(1740609252.420200) vcan0 0000120F#00
(1740609252.422532) vcan0 00001303#0000
(1740609252.422620) vcan0 00001307#0000
(1740609252.422710) vcan0 00001304#0000
(1740609252.422843) vcan0 00002007#00000000
(1740609252.422893) vcan0 00001305#0000
(1740609252.423007) vcan0 00002207#0000
(1740609252.423056) vcan0 00001306#0000
(1740609252.423277) vcan0 00002002#00000000
(1740609252.423539) vcan0 00002003#00000000
(1740609252.423742) vcan0 00002004#00000000
(1740609252.423951) vcan0 00001309#0000
(1740609252.423953) vcan0 00002005#00000000
(1740609252.424140) vcan0 00002009#00000000
(1740609252.424184) vcan0 00002006#00000000
(1740609252.424313) vcan0 00001308#0000
(1740609252.424359) vcan0 00002202#0000
(1740609252.424524) vcan0 00002203#0000
(1740609252.424568) vcan0 00002008#00000000
(1740609252.424687) vcan0 00002204#0000
(1740609252.424732) vcan0 00002208#0000
(1740609252.424882) vcan0 00002205#0000
(1740609252.424927) vcan0 00002209#0000
(1740609252.425056) vcan0 00002206#0000
(1740609252.425989) vcan0 0000130A#0000
(1740609252.426237) vcan0 0000200A#00000000
(1740609252.426381) vcan0 0000130B#0000
(1740609252.426621) vcan0 0000200B#00000000
(1740609252.426791) vcan0 0000220A#0000
(1740609252.426978) vcan0 0000220B#0000
(1740609252.427163) vcan0 0000130C#0000
(1740609252.427378) vcan0 0000200C#00000000
(1740609252.427558) vcan0 0000220C#0000
(1740609252.450871) vcan0 0000250F#E801
(1740609253.416792) vcan0 00001301#0000
(1740609253.416794) vcan0 00002001#00000000
(1740609253.416935) vcan0 00002201#0000
(1740609253.419507) vcan0 00001201#00
(1740609253.419578) vcan0 00001202#00
(1740609253.419615) vcan0 00001203#00
(1740609253.419651) vcan0 00001204#00
(1740609253.419688) vcan0 00001205#00
(1740609253.419725) vcan0 00001206#00
(1740609253.419762) vcan0 00001207#00
(1740609253.419797) vcan0 00001208#00
(1740609253.419838) vcan0 00001209#00
(1740609253.419874) vcan0 0000120A#00
(1740609253.419910) vcan0 0000120B#00
(1740609253.419935) vcan0 00001302#0000
(1740609253.419947) vcan0 0000120C#00
(1740609253.419981) vcan0 00001221#00
(1740609253.420010) vcan0 00001222#00
(1740609253.420042) vcan0 0000120F#00
(1740609253.422526) vcan0 00001303#0000
(1740609253.422612) vcan0 00001307#0000
(1740609253.422699) vcan0 00001304#0000
(1740609253.422832) vcan0 00002007#00000000
(1740609253.422854) vcan0 00001305#0000
(1740609253.423009) vcan0 00002207#0000
(1740609253.423039) vcan0 00001306#0000
(1740609253.423305) vcan0 00002002#00000000
(1740609253.423506) vcan0 00002003#00000000
(1740609253.423731) vcan0 00002004#00000000
(1740609253.423935) vcan0 00001309#0000
(1740609253.423937) vcan0 00002005#00000000
(1740609253.424158) vcan0 00002009#00000000
(1740609253.424160) vcan0 00002006#00000000
(1740609253.424327) vcan0 00001308#0000
(1740609253.424348) vcan0 00002202#0000
(1740609253.424509) vcan0 00002203#0000
(1740609253.424554) vcan0 00002008#00000000
(1740609253.424685) vcan0 00002204#0000
(1740609253.424725) vcan0 00002208#0000
(1740609253.424862) vcan0 00002205#0000
(1740609253.424907) vcan0 00002209#0000
(1740609253.425040) vcan0 00002206#0000
(1740609253.426014) vcan0 0000130A#0000
(1740609253.426275) vcan0 0000200A#00000000
(1740609253.426377) vcan0 0000130B#0000
(1740609253.426594) vcan0 0000200B#00000000
(1740609253.426775) vcan0 0000220A#0000
(1740609253.426952) vcan0 0000220B#0000
(1740609253.427147) vcan0 0000130C#0000
(1740609253.427362) vcan0 0000200C#00000000
(1740609253.427542) vcan0 0000220C#0000
(1740609253.450656) vcan0 0000250F#E801
(1740609254.416933) vcan0 00001301#0000
(1740609254.416935) vcan0 00002001#00000000
(1740609254.416966) vcan0 00002201#0000
(1740609254.419737) vcan0 00001201#00
(1740609254.419808) vcan0 00001202#00
(1740609254.419846) vcan0 00001203#00
(1740609254.419886) vcan0 00001204#00
(1740609254.419890) vcan0 00001302#0000
(1740609254.419930) vcan0 00001205#00
(1740609254.419970) vcan0 00001206#00
(1740609254.420008) vcan0 00001207#00
(1740609254.420046) vcan0 00001208#00
(1740609254.420086) vcan0 00001209#00
(1740609254.420122) vcan0 0000120A#00
(1740609254.420161) vcan0 0000120B#00
(1740609254.420199) vcan0 0000120C#00
(1740609254.420233) vcan0 00001221#00
(1740609254.420265) vcan0 00001222#00
(1740609254.420287) vcan0 0000120F#00
(1740609254.420324) vcan0 00002002#00000000
(1740609254.422607) vcan0 00001307#0000
(1740609254.422723) vcan0 00001303#0000
(1740609254.422824) vcan0 00002007#00000000
(1740609254.422888) vcan0 00001304#0000
(1740609254.423001) vcan0 00002207#0000
(1740609254.423094) vcan0 00001305#0000
(1740609254.423290) vcan0 00001306#0000
(1740609254.423499) vcan0 00002003#00000000
(1740609254.423690) vcan0 00002004#00000000
(1740609254.423891) vcan0 00001309#0000
(1740609254.423922) vcan0 00002005#00000000
(1740609254.424104) vcan0 00002009#00000000
(1740609254.424149) vcan0 00002006#00000000
(1740609254.424282) vcan0 00001308#0000
(1740609254.424327) vcan0 00002202#0000
(1740609254.424493) vcan0 00002203#0000
(1740609254.424538) vcan0 00002008#00000000
(1740609254.424669) vcan0 00002204#0000
(1740609254.424714) vcan0 00002208#0000
(1740609254.424849) vcan0 00002205#0000
(1740609254.424894) vcan0 00002209#0000
(1740609254.425026) vcan0 00002206#0000
(1740609254.425958) vcan0 0000130A#0000
(1740609254.426238) vcan0 0000200A#00000000
(1740609254.426351) vcan0 0000130B#0000
(1740609254.426579) vcan0 0000200B#00000000
(1740609254.426760) vcan0 0000220A#0000
(1740609254.426959) vcan0 0000220B#0000
(1740609254.427122) vcan0 0000130C#0000
(1740609254.427346) vcan0 0000200C#00000000
(1740609254.427517) vcan0 0000220C#0000
(1740609254.450974) vcan0 0000250F#EB01
(1740609255.416830) vcan0 00001301#0000
(1740609255.416833) vcan0 00002001#00000000
(1740609255.416870) vcan0 00002201#0000
(1740609255.419609) vcan0 00001201#00
(1740609255.419681) vcan0 00001202#00
(1740609255.419718) vcan0 00001203#00
(1740609255.419755) vcan0 00001204#00
(1740609255.419791) vcan0 00001205#00
(1740609255.419827) vcan0 00001206#00
(1740609255.419865) vcan0 00001207#00
(1740609255.419901) vcan0 00001208#00
(1740609255.419937) vcan0 00001209#00
(1740609255.419975) vcan0 0000120A#00
(1740609255.420012) vcan0 0000120B#00
(1740609255.420044) vcan0 00001302#0000
(1740609255.420048) vcan0 0000120C#00
(1740609255.420081) vcan0 00001221#00
(1740609255.420114) vcan0 00001222#00
(1740609255.420149) vcan0 0000120F#00
(1740609255.420311) vcan0 00002002#00000000
(1740609255.422581) vcan0 00001307#0000
(1740609255.422719) vcan0 00001303#0000
(1740609255.422774) vcan0 00002007#00000000
(1740609255.422899) vcan0 00001304#0000
(1740609255.422941) vcan0 00002207#0000
(1740609255.423076) vcan0 00001305#0000
(1740609255.423267) vcan0 00001306#0000
(1740609255.423488) vcan0 00002003#00000000
(1740609255.423672) vcan0 00002004#00000000
(1740609255.423856) vcan0 00001309#0000
(1740609255.423895) vcan0 00002005#00000000
(1740609255.424078) vcan0 00002009#00000000
(1740609255.424117) vcan0 00002006#00000000
(1740609255.424261) vcan0 00001308#0000
(1740609255.424306) vcan0 00002202#0000
(1740609255.424472) vcan0 00002203#0000
(1740609255.424516) vcan0 00002008#00000000
(1740609255.424651) vcan0 00002208#0000
(1740609255.424697) vcan0 00002204#0000
(1740609255.424836) vcan0 00002205#0000
(1740609255.424881) vcan0 00002209#0000
(1740609255.425015) vcan0 00002206#0000
(1740609255.425937) vcan0 0000130A#0000
(1740609255.426161) vcan0 0000200A#00000000
(1740609255.426336) vcan0 0000130B#0000
(1740609255.426560) vcan0 0000200B#00000000
(1740609255.426740) vcan0 0000220A#0000
(1740609255.426917) vcan0 0000220B#0000
(1740609255.427102) vcan0 0000130C#0000
(1740609255.427325) vcan0 0000200C#00000000
(1740609255.427505) vcan0 0000220C#0000
(1740609255.450880) vcan0 0000250F#EB01
(1740609256.416757) vcan0 00001301#0000
(1740609256.416759) vcan0 00002001#00000000
(1740609256.416859) vcan0 00002201#0000
(1740609256.419554) vcan0 00001201#00
(1740609256.419625) vcan0 00001202#00
(1740609256.419662) vcan0 00001203#00
(1740609256.419698) vcan0 00001204#00
(1740609256.419734) vcan0 00001205#00
(1740609256.419770) vcan0 00001206#00
(1740609256.419813) vcan0 00001207#00
(1740609256.419854) vcan0 00001208#00
(1740609256.419891) vcan0 00001209#00
(1740609256.419934) vcan0 0000120A#00
(1740609256.419937) vcan0 00001302#0000
(1740609256.419969) vcan0 0000120B#00
(1740609256.420007) vcan0 0000120C#00
(1740609256.420042) vcan0 00001221#00
(1740609256.420078) vcan0 00001222#00
(1740609256.420144) vcan0 0000120F#00
(1740609256.422480) vcan0 00001303#0000
(1740609256.422525) vcan0 00001307#0000
(1740609256.422664) vcan0 00001304#0000
(1740609256.422775) vcan0 00002007#00000000
(1740609256.422819) vcan0 00001305#0000
(1740609256.422952) vcan0 00002207#0000
(1740609256.422994) vcan0 00001306#0000
(1740609256.423281) vcan0 00002002#00000000
(1740609256.423476) vcan0 00002003#00000000
(1740609256.423698) vcan0 00002004#00000000
(1740609256.423843) vcan0 00001309#0000
(1740609256.423889) vcan0 00002005#00000000
(1740609256.424065) vcan0 00002009#00000000
(1740609256.424103) vcan0 00002006#00000000
(1740609256.424237) vcan0 00001308#0000
(1740609256.424277) vcan0 00002202#0000
(1740609256.424463) vcan0 00002008#00000000
(1740609256.424509) vcan0 00002203#0000
(1740609256.424643) vcan0 00002204#0000
(1740609256.424690) vcan0 00002208#0000
(1740609256.424815) vcan0 00002209#0000
(1740609256.424860) vcan0 00002205#0000
(1740609256.424998) vcan0 00002206#0000
(1740609256.425921) vcan0 0000130A#0000
(1740609256.426134) vcan0 0000200A#00000000
(1740609256.426327) vcan0 0000130B#0000
(1740609256.426550) vcan0 0000200B#00000000
(1740609256.426731) vcan0 0000220A#0000
(1740609256.426911) vcan0 0000220B#0000
(1740609256.427094) vcan0 0000130C#0000
(1740609256.427315) vcan0 0000200C#00000000
(1740609256.427486) vcan0 0000220C#0000
(1740609256.450837) vcan0 0000250F#E801
(1740609257.416521) vcan0 00001301#0000
(1740609257.416654) vcan0 00002001#00000000
(1740609257.416856) vcan0 00002201#0000
(1740609257.418620) vcan0 00001201#00
(1740609257.418692) vcan0 00001202#00
(1740609257.418733) vcan0 00001203#00
(1740609257.418770) vcan0 00001204#00
(1740609257.418809) vcan0 00001205#00
(1740609257.418848) vcan0 00001206#00
(1740609257.418905) vcan0 00001207#00
(1740609257.418941) vcan0 00001208#00
(1740609257.418975) vcan0 00001209#00
(1740609257.419014) vcan0 0000120A#00
(1740609257.419065) vcan0 0000120B#00
(1740609257.419100) vcan0 0000120C#00
(1740609257.419138) vcan0 00001221#00
(1740609257.419176) vcan0 00001222#00
(1740609257.419208) vcan0 0000120F#00
(1740609257.421505) vcan0 00001302#0000
(1740609257.421690) vcan0 00001303#0000
(1740609257.421870) vcan0 00001304#0000
(1740609257.422060) vcan0 00001305#0000
(1740609257.422271) vcan0 00001306#0000
(1740609257.422464) vcan0 00002002#00000000
(1740609257.422508) vcan0 00001307#0000
(1740609257.422668) vcan0 00002003#00000000
(1740609257.422729) vcan0 00002007#00000000
(1740609257.422861) vcan0 00002004#00000000
(1740609257.422907) vcan0 00002207#0000
(1740609257.423089) vcan0 00002005#00000000
(1740609257.423310) vcan0 00002006#00000000
(1740609257.423491) vcan0 00002202#0000
(1740609257.423677) vcan0 00002203#0000
(1740609257.423818) vcan0 00001309#0000
(1740609257.423858) vcan0 00002204#0000
(1740609257.424039) vcan0 00002205#0000
(1740609257.424083) vcan0 00002009#00000000
(1740609257.424232) vcan0 00002206#0000
(1740609257.424276) vcan0 00001308#0000
(1740609257.424438) vcan0 00002008#00000000
(1740609257.424622) vcan0 00002208#0000
(1740609257.424803) vcan0 00002209#0000
(1740609257.425903) vcan0 0000130A#0000
(1740609257.426116) vcan0 0000200A#00000000
(1740609257.426308) vcan0 0000130B#0000
(1740609257.426524) vcan0 0000200B#00000000
(1740609257.426705) vcan0 0000220A#0000
(1740609257.426893) vcan0 0000220B#0000
(1740609257.427065) vcan0 0000130C#0000
(1740609257.427289) vcan0 0000200C#00000000
(1740609257.427470) vcan0 0000220C#0000
(1740609257.450831) vcan0 0000250F#E801
(1740609258.416703) vcan0 00001301#0000
(1740609258.416705) vcan0 00002001#00000000
(1740609258.416818) vcan0 00002201#0000
(1740609258.419511) vcan0 00001201#00
(1740609258.419581) vcan0 00001202#00
(1740609258.419622) vcan0 00001203#00
(1740609258.419661) vcan0 00001204#00
(1740609258.419698) vcan0 00001205#00
(1740609258.419740) vcan0 00001206#00
(1740609258.419779) vcan0 00001207#00
(1740609258.419817) vcan0 00001208#00
(1740609258.419852) vcan0 00001209#00
(1740609258.419897) vcan0 0000120A#00
(1740609258.419929) vcan0 00001302#0000
(1740609258.419936) vcan0 0000120B#00
(1740609258.419975) vcan0 0000120C#00
(1740609258.420011) vcan0 00001221#00
(1740609258.420050) vcan0 00001222#00
(1740609258.420077) vcan0 0000120F#00
(1740609258.422427) vcan0 00001303#0000
(1740609258.422497) vcan0 00001307#0000
(1740609258.422598) vcan0 00001304#0000
(1740609258.422709) vcan0 00002007#00000000
(1740609258.422776) vcan0 00001305#0000
(1740609258.422888) vcan0 00002207#0000
(1740609258.423144) vcan0 00001306#0000
(1740609258.423270) vcan0 00002002#00000000
(1740609258.423440) vcan0 00002003#00000000
(1740609258.423664) vcan0 00002004#00000000
(1740609258.423847) vcan0 00001309#0000
(1740609258.423863) vcan0 00002005#00000000
(1740609258.424057) vcan0 00002009#00000000
(1740609258.424074) vcan0 00002006#00000000
(1740609258.424281) vcan0 00001308#0000
(1740609258.424284) vcan0 00002202#0000
(1740609258.424426) vcan0 00002008#00000000
(1740609258.424470) vcan0 00002203#0000
(1740609258.424600) vcan0 00002208#0000
(1740609258.424645) vcan0 00002204#0000
(1740609258.424778) vcan0 00002209#0000
(1740609258.424824) vcan0 00002205#0000
(1740609258.424978) vcan0 00002206#0000
(1740609258.425885) vcan0 0000130A#0000
(1740609258.426098) vcan0 0000200A#00000000
(1740609258.426290) vcan0 0000130B#0000
(1740609258.426503) vcan0 0000200B#00000000
(1740609258.426694) vcan0 0000220A#0000
(1740609258.426890) vcan0 0000220B#0000
(1740609258.427055) vcan0 0000130C#0000
(1740609258.427279) vcan0 0000200C#00000000
(1740609258.427449) vcan0 0000220C#0000
(1740609258.450598) vcan0 0000250F#E801
(1740609259.416698) vcan0 00001301#0000
(1740609259.416700) vcan0 00002001#00000000
(1740609259.416837) vcan0 00002201#0000
(1740609259.419496) vcan0 00001201#00
(1740609259.419567) vcan0 00001202#00
(1740609259.419604) vcan0 00001203#00
(1740609259.419641) vcan0 00001204#00
(1740609259.419677) vcan0 00001205#00
(1740609259.419714) vcan0 00001206#00
(1740609259.419748) vcan0 00001207#00
(1740609259.419784) vcan0 00001208#00
(1740609259.419822) vcan0 00001209#00
(1740609259.419858) vcan0 0000120A#00
(1740609259.419897) vcan0 0000120B#00
(1740609259.419921) vcan0 00001302#0000
(1740609259.419939) vcan0 0000120C#00
(1740609259.419975) vcan0 00001221#00
(1740609259.420006) vcan0 00001222#00
(1740609259.420034) vcan0 0000120F#00
(1740609259.422417) vcan0 00001303#0000
(1740609259.422478) vcan0 00001307#0000
(1740609259.422589) vcan0 00001304#0000
(1740609259.422689) vcan0 00002007#00000000
(1740609259.422807) vcan0 00001305#0000
(1740609259.422912) vcan0 00002207#0000
(1740609259.422958) vcan0 00001306#0000
(1740609259.423488) vcan0 00002002#00000000
(1740609259.423490) vcan0 00002003#00000000
(1740609259.423650) vcan0 00002004#00000000
(1740609259.423812) vcan0 00001309#0000
(1740609259.423843) vcan0 00002005#00000000
(1740609259.424020) vcan0 00002009#00000000
(1740609259.424065) vcan0 00002006#00000000
(1740609259.424276) vcan0 00002209#0000
(1740609259.424278) vcan0 00002202#0000
(1740609259.424390) vcan0 00001308#0000
(1740609259.424418) vcan0 00002203#0000
(1740609259.424621) vcan0 00002008#00000000
(1740609259.424623) vcan0 00002204#0000
