(1740612506.349971) vcan0 00001306#9E01
(1740612506.349973) vcan0 00002006#00000000
(1740612506.350016) vcan0 00002206#FEFF
(1740612506.352849) vcan0 00001201#00
(1740612506.352930) vcan0 00001202#00
(1740612506.352968) vcan0 00001203#00
(1740612506.353006) vcan0 00001204#00
(1740612506.353044) vcan0 00001205#00
(1740612506.353081) vcan0 00001206#00
(1740612506.353118) vcan0 00001207#00
(1740612506.353159) vcan0 00001208#00
(1740612506.353203) vcan0 00001209#00
(1740612506.353240) vcan0 0000120A#00
(1740612506.353279) vcan0 0000120B#00
(1740612506.353317) vcan0 0000120C#00
(1740612506.353355) vcan0 00001221#00
(1740612506.353395) vcan0 00001222#00
(1740612506.353431) vcan0 0000120F#00
(1740612506.355728) vcan0 00001301#A301
(1740612506.355952) vcan0 00002001#00000000
(1740612506.356139) vcan0 00002201#F9FF
(1740612506.356917) vcan0 00001305#A501
(1740612506.357130) vcan0 00002005#00000000
(1740612506.357298) vcan0 00002205#FCFF
(1740612506.359743) vcan0 00001309#9801
(1740612506.359979) vcan0 00002009#00000000
(1740612506.360148) vcan0 00002209#FCFF
(1740612506.361865) vcan0 0000130C#9401
(1740612506.362127) vcan0 0000200C#00000000
(1740612506.362228) vcan0 0000220C#FCFF
(1740612506.363334) vcan0 00001307#A101
(1740612506.363336) vcan0 00002007#00000000
(1740612506.363445) vcan0 0000130B#9A01
(1740612506.363696) vcan0 0000200B#00000000
(1740612506.363838) vcan0 00002207#FCFF
(1740612506.364052) vcan0 0000220B#FCFF
(1740612506.365159) vcan0 00001303#9A01
(1740612506.365361) vcan0 00002003#00000000
(1740612506.365554) vcan0 00002203#FBFF
(1740612506.365735) vcan0 00001304#9601
(1740612506.365946) vcan0 00002004#00000000
(1740612506.366128) vcan0 00002204#FEFF
(1740612506.366451) vcan0 0000130A#9601
(1740612506.366664) vcan0 0000200A#00000000
(1740612506.366848) vcan0 0000220A#FEFF
(1740612506.371311) vcan0 00001302#9401
(1740612506.371539) vcan0 00002002#00000000
(1740612506.371721) vcan0 00002202#0000
(1740612506.372270) vcan0 00001308#9401
(1740612506.372483) vcan0 00002008#00000000
(1740612506.372668) vcan0 00002208#F9FF
(1740612506.434872) vcan0 0000250F#CF01
(1740612507.349892) vcan0 00001306#9E01
(1740612507.349894) vcan0 00002006#00000000
(1740612507.349965) vcan0 00002206#FEFF
(1740612507.352748) vcan0 00001201#00
(1740612507.352824) vcan0 00001202#00
(1740612507.352863) vcan0 00001203#00
(1740612507.352900) vcan0 00001204#00
(1740612507.352936) vcan0 00001205#00
(1740612507.352973) vcan0 00001206#00
(1740612507.353012) vcan0 00001207#00
(1740612507.353064) vcan0 00001208#00
(1740612507.353100) vcan0 00001209#00
(1740612507.353145) vcan0 0000120A#00
(1740612507.353185) vcan0 0000120B#00
(1740612507.353225) vcan0 0000120C#00
(1740612507.353265) vcan0 00001221#00
(1740612507.353305) vcan0 00001222#00
(1740612507.353340) vcan0 0000120F#00
(1740612507.355603) vcan0 00001301#A301
(1740612507.355813) vcan0 00002001#00000000
(1740612507.356029) vcan0 00002201#F9FF
(1740612507.356894) vcan0 00001305#A501
(1740612507.357142) vcan0 00002005#00000000
(1740612507.357249) vcan0 00002205#FCFF
(1740612507.359939) vcan0 00001309#9801
(1740612507.359941) vcan0 00002009#00000000
(1740612507.360102) vcan0 00002209#FCFF
(1740612507.362053) vcan0 0000130C#9401
(1740612507.362082) vcan0 0000200C#00000000
(1740612507.362216) vcan0 0000220C#FCFF
(1740612507.363056) vcan0 00001307#A101
(1740612507.363267) vcan0 00002007#00000000
(1740612507.363454) vcan0 0000130B#9A01
(1740612507.363679) vcan0 0000200B#00000000
(1740612507.363859) vcan0 00002207#FCFF
(1740612507.364023) vcan0 0000220B#FCFF
(1740612507.365149) vcan0 00001303#9A01
(1740612507.365350) vcan0 00002003#00000000
(1740612507.365533) vcan0 00002203#FBFF
(1740612507.365714) vcan0 00001304#9601
(1740612507.365924) vcan0 00002004#00000000
(1740612507.366127) vcan0 00002204#FEFF
(1740612507.366441) vcan0 0000130A#9601
(1740612507.366643) vcan0 0000200A#00000000
(1740612507.366837) vcan0 0000220A#FEFF
(1740612507.371316) vcan0 00001302#9401
(1740612507.371528) vcan0 00002002#00000000
(1740612507.371709) vcan0 00002202#0000
(1740612507.372255) vcan0 00001308#9401
(1740612507.372469) vcan0 00002008#00000000
(1740612507.372651) vcan0 00002208#F9FF
(1740612507.434849) vcan0 0000250F#D201
(1740612508.349832) vcan0 00001306#9E01
(1740612508.349834) vcan0 00002006#00000000
(1740612508.349946) vcan0 00002206#FEFF
(1740612508.352624) vcan0 00001201#00
(1740612508.352698) vcan0 00001202#00
(1740612508.352738) vcan0 00001203#00
(1740612508.352775) vcan0 00001204#00
(1740612508.352812) vcan0 00001205#00
(1740612508.352848) vcan0 00001206#00
(1740612508.352885) vcan0 00001207#00
(1740612508.352930) vcan0 00001208#00
(1740612508.352968) vcan0 00001209#00
(1740612508.353005) vcan0 0000120A#00
(1740612508.353047) vcan0 0000120B#00
(1740612508.353088) vcan0 0000120C#00
(1740612508.353127) vcan0 00001221#00
(1740612508.353169) vcan0 00001222#00
(1740612508.353195) vcan0 0000120F#00
(1740612508.355508) vcan0 00001301#A301
(1740612508.355732) vcan0 00002001#00000000
(1740612508.355917) vcan0 00002201#F9FF
(1740612508.356878) vcan0 00001305#A501
(1740612508.357137) vcan0 00002005#00000000
(1740612508.357233) vcan0 00002205#FCFF
(1740612508.359695) vcan0 00001309#9801
(1740612508.359939) vcan0 00002009#00000000
(1740612508.360134) vcan0 00002209#FCFF
(1740612508.361824) vcan0 0000130C#9401
(1740612508.362056) vcan0 0000200C#00000000
(1740612508.362188) vcan0 0000220C#FCFF
(1740612508.363029) vcan0 00001307#A101
(1740612508.363256) vcan0 00002007#00000000
(1740612508.363440) vcan0 0000130B#9A01
(1740612508.363660) vcan0 0000200B#00000000
(1740612508.363832) vcan0 00002207#FCFF
(1740612508.364025) vcan0 0000220B#FCFF
(1740612508.365142) vcan0 00001303#9A01
(1740612508.365336) vcan0 00002003#00000000
(1740612508.365517) vcan0 00002203#FBFF
(1740612508.365699) vcan0 00001304#9601
(1740612508.365920) vcan0 00002004#00000000
(1740612508.366132) vcan0 00002204#FEFF
(1740612508.366425) vcan0 0000130A#9601
(1740612508.366629) vcan0 0000200A#00000000
(1740612508.366812) vcan0 0000220A#FEFF
(1740612508.371304) vcan0 00001302#9401
(1740612508.371507) vcan0 00002002#00000000
(1740612508.371700) vcan0 00002202#0000
(1740612508.372239) vcan0 00001308#9401
(1740612508.372452) vcan0 00002008#00000000
(1740612508.372636) vcan0 00002208#F9FF
(1740612508.434976) vcan0 0000250F#CF01
(1740612509.349814) vcan0 00001306#9E01
(1740612509.349816) vcan0 00002006#00000000
(1740612509.349931) vcan0 00002206#FEFF
(1740612509.352651) vcan0 00001201#00
(1740612509.352725) vcan0 00001202#00
(1740612509.352763) vcan0 00001203#00
(1740612509.352801) vcan0 00001204#00
(1740612509.352837) vcan0 00001205#00
(1740612509.352874) vcan0 00001206#00
(1740612509.352911) vcan0 00001207#00
(1740612509.352962) vcan0 00001208#00
(1740612509.353001) vcan0 00001209#00
(1740612509.353040) vcan0 0000120A#00
(1740612509.353080) vcan0 0000120B#00
(1740612509.353120) vcan0 0000120C#00
(1740612509.353160) vcan0 00001221#00
(1740612509.353207) vcan0 00001222#00
(1740612509.353243) vcan0 0000120F#00
(1740612509.355508) vcan0 00001301#A301
(1740612509.355748) vcan0 00002001#00000000
(1740612509.355932) vcan0 00002201#F9FF
(1740612509.357119) vcan0 00001305#A501
(1740612509.357149) vcan0 00002005#00000000
(1740612509.357212) vcan0 00002205#FCFF
(1740612509.359937) vcan0 00001309#9801
(1740612509.359939) vcan0 00002009#00000000
(1740612509.360104) vcan0 00002209#FCFF
(1740612509.362011) vcan0 0000130C#9401
(1740612509.362040) vcan0 0000200C#00000000
(1740612509.362155) vcan0 0000220C#FCFF
(1740612509.363005) vcan0 00001307#A101
(1740612509.363245) vcan0 00002007#00000000
(1740612509.363428) vcan0 0000130B#9A01
(1740612509.363635) vcan0 0000200B#00000000
(1740612509.363823) vcan0 00002207#FCFF
(1740612509.364004) vcan0 0000220B#FCFF
(1740612509.365145) vcan0 00001303#9A01
(1740612509.365318) vcan0 00002003#00000000
(1740612509.365497) vcan0 00002203#FBFF
(1740612509.365685) vcan0 00001304#9601
(1740612509.365899) vcan0 00002004#00000000
(1740612509.366133) vcan0 00002204#FEFF
(1740612509.366405) vcan0 0000130A#9601
(1740612509.366617) vcan0 0000200A#00000000
(1740612509.366792) vcan0 0000220A#FEFF
(1740612509.371329) vcan0 00001302#9401
(1740612509.371472) vcan0 00002002#00000000
(1740612509.371677) vcan0 00002202#0000
(1740612509.372228) vcan0 00001308#9401
(1740612509.372433) vcan0 00002008#00000000
(1740612509.372626) vcan0 00002208#F9FF
(1740612509.434917) vcan0 0000250F#CF01
(1740612510.349779) vcan0 00001306#9E01
(1740612510.349781) vcan0 00002006#00000000
(1740612510.349905) vcan0 00002206#FEFF
(1740612510.352643) vcan0 00001201#00
(1740612510.352716) vcan0 00001202#00
(1740612510.352755) vcan0 00001203#00
(1740612510.352795) vcan0 00001204#00
(1740612510.352833) vcan0 00001205#00
(1740612510.352871) vcan0 00001206#00
(1740612510.352909) vcan0 00001207#00
(1740612510.352957) vcan0 00001208#00
(1740612510.352994) vcan0 00001209#00
(1740612510.353031) vcan0 0000120A#00
(1740612510.353070) vcan0 0000120B#00
(1740612510.353111) vcan0 0000120C#00
(1740612510.353153) vcan0 00001221#00
(1740612510.353192) vcan0 00001222#00
(1740612510.353226) vcan0 0000120F#00
(1740612510.355525) vcan0 00001301#A301
(1740612510.355738) vcan0 00002001#00000000
(1740612510.355931) vcan0 00002201#F9FF
(1740612510.356831) vcan0 00001305#A501
(1740612510.357043) vcan0 00002005#00000000
(1740612510.357226) vcan0 00002205#FCFF
(1740612510.359670) vcan0 00001309#9801
(1740612510.359882) vcan0 00002009#00000000
(1740612510.360066) vcan0 00002209#FCFF
(1740612510.361788) vcan0 0000130C#9401
(1740612510.362016) vcan0 0000200C#00000000
(1740612510.362151) vcan0 0000220C#FCFF
(1740612510.362991) vcan0 00001307#A101
(1740612510.363220) vcan0 00002007#00000000
(1740612510.363403) vcan0 0000130B#9A01
(1740612510.363623) vcan0 0000200B#00000000
(1740612510.363789) vcan0 00002207#FCFF
(1740612510.363995) vcan0 0000220B#FCFF
(1740612510.365138) vcan0 00001303#9A01
(1740612510.365293) vcan0 00002003#00000000
(1740612510.365490) vcan0 00002203#FBFF
(1740612510.365656) vcan0 00001304#9601
(1740612510.365883) vcan0 00002004#00000000
(1740612510.366067) vcan0 00002204#FEFF
(1740612510.366385) vcan0 0000130A#9601
(1740612510.366598) vcan0 0000200A#00000000
(1740612510.366773) vcan0 0000220A#FEFF
(1740612510.371258) vcan0 00001302#9401
(1740612510.371475) vcan0 00002002#00000000
(1740612510.371669) vcan0 00002202#0000
(1740612510.372208) vcan0 00001308#9401
(1740612510.372411) vcan0 00002008#00000000
(1740612510.372605) vcan0 00002208#F9FF
(1740612510.434849) vcan0 0000250F#D201
(1740612511.349766) vcan0 00001306#9E01
(1740612511.349769) vcan0 00002006#00000000
(1740612511.349883) vcan0 00002206#FEFF
(1740612511.352592) vcan0 00001201#00
(1740612511.352665) vcan0 00001202#00
(1740612511.352705) vcan0 00001203#00
(1740612511.352742) vcan0 00001204#00
(1740612511.352779) vcan0 00001205#00
(1740612511.352818) vcan0 00001206#00
(1740612511.352856) vcan0 00001207#00
(1740612511.352903) vcan0 00001208#00
(1740612511.352944) vcan0 00001209#00
(1740612511.352987) vcan0 0000120A#00
(1740612511.353027) vcan0 0000120B#00
(1740612511.353066) vcan0 0000120C#00
(1740612511.353107) vcan0 00001221#00
(1740612511.353149) vcan0 00001222#00
(1740612511.353183) vcan0 0000120F#00
(1740612511.355452) vcan0 00001301#A301
(1740612511.355674) vcan0 00002001#00000000
(1740612511.355872) vcan0 00002201#F9FF
(1740612511.356825) vcan0 00001305#A501
(1740612511.357028) vcan0 00002005#00000000
(1740612511.357195) vcan0 00002205#FCFF
(1740612511.359885) vcan0 00001309#9801
(1740612511.359887) vcan0 00002009#00000000
(1740612511.360024) vcan0 00002209#FCFF
(1740612511.361972) vcan0 0000130C#9401
(1740612511.362002) vcan0 0000200C#00000000
(1740612511.362129) vcan0 0000220C#FCFF
(1740612511.362971) vcan0 00001307#A101
(1740612511.363209) vcan0 00002007#00000000
(1740612511.363382) vcan0 0000130B#9A01
(1740612511.363604) vcan0 0000200B#00000000
(1740612511.363786) vcan0 00002207#FCFF
(1740612511.363968) vcan0 0000220B#FCFF
(1740612511.365074) vcan0 00001303#9A01
(1740612511.365284) vcan0 00002003#00000000
(1740612511.365468) vcan0 00002203#FBFF
(1740612511.365648) vcan0 00001304#9601
(1740612511.365859) vcan0 00002004#00000000
(1740612511.366053) vcan0 00002204#FEFF
(1740612511.366375) vcan0 0000130A#9601
(1740612511.366577) vcan0 0000200A#00000000
(1740612511.366760) vcan0 0000220A#FEFF
(1740612511.371252) vcan0 00001302#9401
(1740612511.371491) vcan0 00002002#00000000
(1740612511.371625) vcan0 00002202#0000
(1740612511.372420) vcan0 00001308#9401
(1740612511.372423) vcan0 00002008#00000000
(1740612511.372557) vcan0 00002208#F9FF
(1740612511.434832) vcan0 0000250F#CF01
(1740612512.349727) vcan0 00001306#9E01
(1740612512.349762) vcan0 00002006#00000000
(1740612512.349869) vcan0 00002206#FEFF
(1740612512.352523) vcan0 00001201#00
(1740612512.352596) vcan0 00001202#00
(1740612512.352635) vcan0 00001203#00
(1740612512.352672) vcan0 00001204#00
(1740612512.352709) vcan0 00001205#00
(1740612512.352745) vcan0 00001206#00
(1740612512.352781) vcan0 00001207#00
(1740612512.352834) vcan0 00001208#00
(1740612512.352882) vcan0 00001209#00
(1740612512.352925) vcan0 0000120A#00
(1740612512.352964) vcan0 0000120B#00
(1740612512.353004) vcan0 0000120C#00
(1740612512.353042) vcan0 00001221#00
(1740612512.353081) vcan0 00001222#00
(1740612512.353121) vcan0 0000120F#00
(1740612512.355380) vcan0 00001301#A301
(1740612512.355592) vcan0 00002001#00000000
(1740612512.355811) vcan0 00002201#F9FF
(1740612512.356799) vcan0 00001305#A501
(1740612512.357002) vcan0 00002005#00000000
(1740612512.357185) vcan0 00002205#FCFF
(1740612512.359898) vcan0 00001309#9801
(1740612512.359900) vcan0 00002009#00000000
(1740612512.359997) vcan0 00002209#FCFF
(1740612512.361746) vcan0 0000130C#9401
(1740612512.361961) vcan0 0000200C#00000000
(1740612512.362140) vcan0 0000220C#FCFF
(1740612512.362968) vcan0 00001307#A101
(1740612512.363185) vcan0 00002007#00000000
(1740612512.363372) vcan0 0000130B#9A01
(1740612512.363582) vcan0 0000200B#00000000
(1740612512.363764) vcan0 00002207#FCFF
(1740612512.363956) vcan0 0000220B#FCFF
(1740612512.365054) vcan0 00001303#9A01
(1740612512.365269) vcan0 00002003#00000000
(1740612512.365452) vcan0 00002203#FBFF
(1740612512.365633) vcan0 00001304#9601
(1740612512.365855) vcan0 00002004#00000000
(1740612512.366037) vcan0 00002204#FEFF
(1740612512.366349) vcan0 0000130A#9601
(1740612512.366561) vcan0 0000200A#00000000
(1740612512.366745) vcan0 0000220A#FEFF
(1740612512.371237) vcan0 00001302#9401
(1740612512.371476) vcan0 00002002#00000000
(1740612512.371720) vcan0 00002202#0000
(1740612512.372183) vcan0 00001308#9401
(1740612512.372397) vcan0 00002008#00000000
(1740612512.372572) vcan0 00002208#F9FF
(1740612512.434848) vcan0 0000250F#CF01
(1740612513.349727) vcan0 00001306#9E01
(1740612513.349729) vcan0 00002006#00000000
(1740612513.349841) vcan0 00002206#FEFF
(1740612513.352812) vcan0 00001201#00
(1740612513.352886) vcan0 00001202#00
(1740612513.352926) vcan0 00001203#00
(1740612513.352963) vcan0 00001204#00
(1740612513.353000) vcan0 00001205#00
(1740612513.353036) vcan0 00001206#00
(1740612513.353075) vcan0 00001207#00
(1740612513.353113) vcan0 00001208#00
(1740612513.353167) vcan0 00001209#00
(1740612513.353205) vcan0 0000120A#00
(1740612513.353250) vcan0 0000120B#00
(1740612513.353290) vcan0 0000120C#00
(1740612513.353329) vcan0 00001221#00
(1740612513.353368) vcan0 00001222#00
(1740612513.353407) vcan0 0000120F#00
(1740612513.355694) vcan0 00001301#A301
(1740612513.355912) vcan0 00002001#00000000
(1740612513.356127) vcan0 00002201#F9FF
(1740612513.357001) vcan0 00001305#A501
(1740612513.357004) vcan0 00002005#00000000
(1740612513.357143) vcan0 00002205#FCFF
(1740612513.359817) vcan0 00001309#9801
(1740612513.359847) vcan0 00002009#00000000
(1740612513.359987) vcan0 00002209#FCFF
(1740612513.361929) vcan0 0000130C#9401
(1740612513.361960) vcan0 0000200C#00000000
(1740612513.362112) vcan0 0000220C#FCFF
(1740612513.362961) vcan0 00001307#A101
(1740612513.363173) vcan0 00002007#00000000
(1740612513.363356) vcan0 0000130B#9A01
(1740612513.363563) vcan0 0000200B#00000000
(1740612513.363751) vcan0 00002207#FCFF
(1740612513.363932) vcan0 0000220B#FCFF
(1740612513.365032) vcan0 00001303#9A01
(1740612513.365248) vcan0 00002003#00000000
(1740612513.365428) vcan0 00002203#FBFF
(1740612513.365631) vcan0 00001304#9601
(1740612513.365833) vcan0 00002004#00000000
(1740612513.366016) vcan0 00002204#FEFF
(1740612513.366338) vcan0 0000130A#9601
(1740612513.366542) vcan0 0000200A#00000000
(1740612513.366724) vcan0 0000220A#FEFF
(1740612513.371227) vcan0 00001302#9401
(1740612513.371441) vcan0 00002002#00000000
(1740612513.371621) vcan0 00002202#0000
(1740612513.372391) vcan0 00001308#9401
(1740612513.372393) vcan0 00002008#00000000
(1740612513.372531) vcan0 00002208#F9FF
(1740612513.434840) vcan0 0000250F#D201
(1740612514.349688) vcan0 00001306#9E01
(1740612514.349691) vcan0 00002006#00000000
(1740612514.349821) vcan0 00002206#FEFF
(1740612514.352588) vcan0 00001201#00
(1740612514.352664) vcan0 00001202#00
(1740612514.352706) vcan0 00001203#00
(1740612514.352752) vcan0 00001204#00
(1740612514.352792) vcan0 00001205#00
(1740612514.352830) vcan0 00001206#00
(1740612514.352871) vcan0 00001207#00
(1740612514.352910) vcan0 00001208#00
(1740612514.352951) vcan0 00001209#00
(1740612514.352987) vcan0 0000120A#00
(1740612514.353026) vcan0 0000120B#00
(1740612514.353071) vcan0 0000120C#00
(1740612514.353112) vcan0 00001221#00
(1740612514.353154) vcan0 00001222#00
(1740612514.353189) vcan0 0000120F#00
(1740612514.355441) vcan0 00001301#A301
(1740612514.355664) vcan0 00002001#00000000
(1740612514.355868) vcan0 00002201#F9FF
(1740612514.356763) vcan0 00001305#A501
(1740612514.356966) vcan0 00002005#00000000
(1740612514.357149) vcan0 00002205#FCFF
(1740612514.359811) vcan0 00001309#9801
(1740612514.359814) vcan0 00002009#00000000
(1740612514.359954) vcan0 00002209#FCFF
(1740612514.361704) vcan0 0000130C#9401
(1740612514.361956) vcan0 0000200C#00000000
(1740612514.362109) vcan0 0000220C#FCFF
(1740612514.362953) vcan0 00001307#A101
(1740612514.363149) vcan0 00002007#00000000
(1740612514.363329) vcan0 0000130B#9A01
(1740612514.363546) vcan0 0000200B#00000000
(1740612514.363734) vcan0 00002207#FCFF
(1740612514.363913) vcan0 0000220B#FCFF
(1740612514.365028) vcan0 00001303#9A01
(1740612514.365232) vcan0 00002003#00000000
(1740612514.365424) vcan0 00002203#FBFF
(1740612514.365595) vcan0 00001304#9601
(1740612514.365817) vcan0 00002004#00000000
(1740612514.366001) vcan0 00002204#FEFF
(1740612514.366323) vcan0 0000130A#9601
(1740612514.366526) vcan0 0000200A#00000000
(1740612514.366710) vcan0 0000220A#FEFF
(1740612514.371205) vcan0 00001302#9401
(1740612514.371420) vcan0 00002002#00000000
(1740612514.371605) vcan0 00002202#0000
(1740612514.372137) vcan0 00001308#9401
(1740612514.372358) vcan0 00002008#00000000
(1740612514.372552) vcan0 00002208#F9FF
(1740612514.434836) vcan0 0000250F#CF01
(1740612515.349694) vcan0 00001306#9E01
(1740612515.349697) vcan0 00002006#00000000
(1740612515.349800) vcan0 00002206#FEFF
(1740612515.352528) vcan0 00001201#00
(1740612515.352605) vcan0 00001202#00
(1740612515.352647) vcan0 00001203#00
(1740612515.352688) vcan0 00001204#00
(1740612515.352727) vcan0 00001205#00
(1740612515.352769) vcan0 00001206#00
(1740612515.352808) vcan0 00001207#00
(1740612515.352851) vcan0 00001208#00
(1740612515.352895) vcan0 00001209#00
(1740612515.352933) vcan0 0000120A#00
(1740612515.352972) vcan0 0000120B#00
(1740612515.353009) vcan0 0000120C#00
(1740612515.353048) vcan0 00001221#00
(1740612515.353090) vcan0 00001222#00
(1740612515.353128) vcan0 0000120F#00
(1740612515.355394) vcan0 00001301#A301
(1740612515.355605) vcan0 00002001#00000000
(1740612515.355804) vcan0 00002201#F9FF
(1740612515.356980) vcan0 00001305#A501
(1740612515.356982) vcan0 00002005#00000000
(1740612515.357108) vcan0 00002205#FCFF
(1740612515.359793) vcan0 00001309#9801
(1740612515.359795) vcan0 00002009#00000000
(1740612515.359954) vcan0 00002209#FCFF
(1740612515.361917) vcan0 0000130C#9401
(1740612515.361919) vcan0 0000200C#00000000
(1740612515.362114) vcan0 0000220C#FCFF
(1740612515.362954) vcan0 00001307#A101
(1740612515.363132) vcan0 00002007#00000000
(1740612515.363314) vcan0 0000130B#9A01
(1740612515.363531) vcan0 0000200B#00000000
(1740612515.363707) vcan0 00002207#FCFF
(1740612515.363900) vcan0 0000220B#FCFF
(1740612515.364997) vcan0 00001303#9A01
(1740612515.365222) vcan0 00002003#00000000
(1740612515.365392) vcan0 00002203#FBFF
(1740612515.365594) vcan0 00001304#9601
(1740612515.365795) vcan0 00002004#00000000
(1740612515.365981) vcan0 00002204#FEFF
(1740612515.366302) vcan0 0000130A#9601
(1740612515.366505) vcan0 0000200A#00000000
(1740612515.366688) vcan0 0000220A#FEFF
(1740612515.371237) vcan0 00001302#9401
(1740612515.371373) vcan0 00002002#00000000
(1740612515.371587) vcan0 00002202#0000
(1740612515.372151) vcan0 00001308#9401
(1740612515.372353) vcan0 00002008#00000000
(1740612515.372535) vcan0 00002208#F9FF
(1740612515.434819) vcan0 0000250F#D201
(1740612516.349662) vcan0 00001306#9E01
(1740612516.349664) vcan0 00002006#00000000
(1740612516.349773) vcan0 00002206#FEFF
(1740612516.352424) vcan0 00001201#00
(1740612516.352498) vcan0 00001202#00
(1740612516.352539) vcan0 00001203#00
(1740612516.352576) vcan0 00001204#00
(1740612516.352614) vcan0 00001205#00
(1740612516.352653) vcan0 00001206#00
(1740612516.352690) vcan0 00001207#00
(1740612516.352735) vcan0 00001208#00
(1740612516.352772) vcan0 00001209#00
(1740612516.352813) vcan0 0000120A#00
(1740612516.352855) vcan0 0000120B#00
(1740612516.352899) vcan0 0000120C#00
(1740612516.352938) vcan0 00001221#00
(1740612516.352980) vcan0 00001222#00
(1740612516.353017) vcan0 0000120F#00
(1740612516.355277) vcan0 00001301#A301
(1740612516.355516) vcan0 00002001#00000000
(1740612516.355710) vcan0 00002201#F9FF
(1740612516.356956) vcan0 00001305#A501
(1740612516.356958) vcan0 00002005#00000000
(1740612516.357112) vcan0 00002205#FCFF
(1740612516.359792) vcan0 00001309#9801
(1740612516.359794) vcan0 00002009#00000000
(1740612516.359927) vcan0 00002209#FCFF
(1740612516.361910) vcan0 0000130C#9401
(1740612516.361912) vcan0 0000200C#00000000
(1740612516.362030) vcan0 0000220C#FCFF
(1740612516.362950) vcan0 00001307#A101
(1740612516.363139) vcan0 00002007#00000000
(1740612516.363296) vcan0 0000130B#9A01
(1740612516.363808) vcan0 0000200B#00000000
(1740612516.363810) vcan0 00002207#FCFF
(1740612516.363850) vcan0 0000220B#FCFF
(1740612516.365190) vcan0 00001303#9A01
(1740612516.365219) vcan0 00002003#00000000
(1740612516.365366) vcan0 00002203#FBFF
(1740612516.365571) vcan0 00001304#9601
(1740612516.365783) vcan0 00002004#00000000
(1740612516.365962) vcan0 00002204#FEFF
(1740612516.366277) vcan0 0000130A#9601
(1740612516.366488) vcan0 0000200A#00000000
(1740612516.366672) vcan0 0000220A#FEFF
(1740612516.371180) vcan0 00001302#9401
(1740612516.371417) vcan0 00002002#00000000
(1740612516.371571) vcan0 00002202#0000
(1740612516.372142) vcan0 00001308#9401
(1740612516.372325) vcan0 00002008#00000000
(1740612516.372506) vcan0 00002208#F9FF
(1740612516.434827) vcan0 0000250F#CF01
(1740612517.349639) vcan0 00001306#9E01
(1740612517.349641) vcan0 00002006#00000000
(1740612517.349759) vcan0 00002206#FEFF
(1740612517.352475) vcan0 00001201#00
(1740612517.352549) vcan0 00001202#00
(1740612517.352594) vcan0 00001203#00
(1740612517.352639) vcan0 00001204#00
(1740612517.352680) vcan0 00001205#00
(1740612517.352720) vcan0 00001206#00
(1740612517.352759) vcan0 00001207#00
(1740612517.352797) vcan0 00001208#00
(1740612517.352838) vcan0 00001209#00
(1740612517.352875) vcan0 0000120A#00
(1740612517.352912) vcan0 0000120B#00
(1740612517.352953) vcan0 0000120C#00
(1740612517.352991) vcan0 00001221#00
(1740612517.353033) vcan0 00001222#00
(1740612517.353074) vcan0 0000120F#00
(1740612517.355327) vcan0 00001301#A301
(1740612517.355538) vcan0 00002001#00000000
(1740612517.355752) vcan0 00002201#F9FF
(1740612517.356973) vcan0 00001305#A501
(1740612517.356975) vcan0 00002005#00000000
(1740612517.357107) vcan0 00002205#FCFF
(1740612517.359762) vcan0 00001309#9801
(1740612517.359764) vcan0 00002009#00000000
(1740612517.359904) vcan0 00002209#FCFF
(1740612517.361885) vcan0 0000130C#9401
(1740612517.361888) vcan0 0000200C#00000000
(1740612517.362003) vcan0 0000220C#FCFF
(1740612517.362928) vcan0 00001307#A101
(1740612517.363138) vcan0 00002007#00000000
(1740612517.363253) vcan0 0000130B#9A01
(1740612517.363509) vcan0 0000200B#00000000
(1740612517.363670) vcan0 00002207#FCFF
(1740612517.363855) vcan0 0000220B#FCFF
(1740612517.364977) vcan0 00001303#9A01
(1740612517.365181) vcan0 00002003#00000000
(1740612517.365365) vcan0 00002203#FBFF
(1740612517.365544) vcan0 00001304#9601
(1740612517.365765) vcan0 00002004#00000000
(1740612517.365937) vcan0 00002204#FEFF
(1740612517.366260) vcan0 0000130A#9601
(1740612517.366473) vcan0 0000200A#00000000
(1740612517.366658) vcan0 0000220A#FEFF
(1740612517.371170) vcan0 00001302#9401
(1740612517.371407) vcan0 00002002#00000000
