(1740610987.383103) vcan0 00001306#D201
(1740610987.383105) vcan0 00001301#0402
(1740610987.383239) vcan0 00002001#00000000
(1740610987.383443) vcan0 00002006#00000000
(1740610987.383622) vcan0 00002201#F9FF
(1740610987.383800) vcan0 00002206#0100
(1740610987.385650) vcan0 00001201#00
(1740610987.385710) vcan0 00001202#00
(1740610987.385739) vcan0 00001203#00
(1740610987.385768) vcan0 00001204#00
(1740610987.385797) vcan0 00001205#00
(1740610987.385826) vcan0 00001206#00
(1740610987.385854) vcan0 00001207#00
(1740610987.385881) vcan0 00001208#00
(1740610987.385910) vcan0 00001209#00
(1740610987.385938) vcan0 0000120A#00
(1740610987.385968) vcan0 0000120B#00
(1740610987.386004) vcan0 0000120C#00
(1740610987.386034) vcan0 00001221#00
(1740610987.386052) vcan0 00001222#00
(1740610987.386070) vcan0 0000120F#00
(1740610987.388508) vcan0 00001305#F501
(1740610987.388720) vcan0 00002005#00000000
(1740610987.388928) vcan0 00002205#FBFF
(1740610987.389363) vcan0 00001309#4101
(1740610987.389566) vcan0 00002009#00000000
(1740610987.389763) vcan0 00002209#FCFF
(1740610987.390561) vcan0 00001307#4C02
(1740610987.390642) vcan0 00001303#F701
(1740610987.390746) vcan0 00002007#00000000
(1740610987.390857) vcan0 00002003#00000000
(1740610987.390919) vcan0 00002207#FCFF
(1740610987.391041) vcan0 00001304#C301
(1740610987.391259) vcan0 00002004#00000000
(1740610987.391450) vcan0 00002203#FBFF
(1740610987.391632) vcan0 00002204#FEFF
(1740610987.392107) vcan0 0000130C#D901
(1740610987.392323) vcan0 0000200C#00000000
(1740610987.392495) vcan0 0000130B#AB01
(1740610987.392718) vcan0 0000200B#00000000
(1740610987.392899) vcan0 0000220B#FCFF
(1740610987.393079) vcan0 0000220C#FCFF
(1740610987.393806) vcan0 00001302#8B02
(1740610987.393992) vcan0 0000130A#7101
(1740610987.394033) vcan0 00002002#00000000
(1740610987.394227) vcan0 0000200A#00000000
(1740610987.394267) vcan0 00002202#0000
(1740610987.394390) vcan0 0000220A#FEFF
(1740610987.396166) vcan0 00001308#5B01
(1740610987.396383) vcan0 00002008#00000000
(1740610987.396576) vcan0 00002208#F9FF
(1740610987.441918) vcan0 0000250F#DD01
(1740610988.383072) vcan0 00001306#D201
(1740610988.383075) vcan0 00002006#00000000
(1740610988.383231) vcan0 00001301#0402
(1740610988.383412) vcan0 00002001#00000000
(1740610988.383594) vcan0 00002201#F9FF
(1740610988.383773) vcan0 00002206#0100
(1740610988.385865) vcan0 00001201#00
(1740610988.385939) vcan0 00001202#00
(1740610988.385981) vcan0 00001203#00
(1740610988.386022) vcan0 00001204#00
(1740610988.386064) vcan0 00001205#00
(1740610988.386102) vcan0 00001206#00
(1740610988.386141) vcan0 00001207#00
(1740610988.386183) vcan0 00001208#00
(1740610988.386219) vcan0 00001209#00
(1740610988.386258) vcan0 0000120A#00
(1740610988.386298) vcan0 0000120B#00
(1740610988.386336) vcan0 0000120C#00
(1740610988.386374) vcan0 00001221#00
(1740610988.386411) vcan0 00001222#00
(1740610988.386453) vcan0 0000120F#00
(1740610988.388717) vcan0 00001305#F501
(1740610988.388957) vcan0 00002005#00000000
(1740610988.389152) vcan0 00002205#FBFF
(1740610988.389335) vcan0 00001309#4101
(1740610988.389550) vcan0 00002009#00000000
(1740610988.389728) vcan0 00002209#FCFF
(1740610988.390546) vcan0 00001307#4C02
(1740610988.390628) vcan0 00001303#F701
(1740610988.390719) vcan0 00002007#00000000
(1740610988.390847) vcan0 00002003#00000000
(1740610988.390904) vcan0 00002207#FCFF
(1740610988.391025) vcan0 00001304#C301
(1740610988.391243) vcan0 00002004#00000000
(1740610988.391435) vcan0 00002203#FBFF
(1740610988.391607) vcan0 00002204#FEFF
(1740610988.392081) vcan0 0000130C#D901
(1740610988.392297) vcan0 0000200C#00000000
(1740610988.392478) vcan0 0000130B#AB01
(1740610988.392701) vcan0 0000200B#00000000
(1740610988.392883) vcan0 0000220B#FCFF
(1740610988.393064) vcan0 0000220C#FCFF
(1740610988.393785) vcan0 00001302#8B02
(1740610988.393986) vcan0 0000130A#7101
(1740610988.394025) vcan0 00002002#00000000
(1740610988.394227) vcan0 0000200A#00000000
(1740610988.394267) vcan0 00002202#0000
(1740610988.394370) vcan0 0000220A#FEFF
(1740610988.396145) vcan0 00001308#5B01
(1740610988.396372) vcan0 00002008#00000000
(1740610988.396556) vcan0 00002208#F9FF
(1740610988.441914) vcan0 0000250F#DD01
(1740610989.383033) vcan0 00001306#D201
(1740610989.383035) vcan0 00002006#00000000
(1740610989.383156) vcan0 00001301#0402
(1740610989.383403) vcan0 00002001#00000000
(1740610989.383577) vcan0 00002201#F9FF
(1740610989.383753) vcan0 00002206#0100
(1740610989.385851) vcan0 00001201#00
(1740610989.385925) vcan0 00001202#00
(1740610989.385970) vcan0 00001203#00
(1740610989.386013) vcan0 00001204#00
(1740610989.386053) vcan0 00001205#00
(1740610989.386091) vcan0 00001206#00
(1740610989.386131) vcan0 00001207#00
(1740610989.386172) vcan0 00001208#00
(1740610989.386209) vcan0 00001209#00
(1740610989.386246) vcan0 0000120A#00
(1740610989.386287) vcan0 0000120B#00
(1740610989.386322) vcan0 0000120C#00
(1740610989.386357) vcan0 00001221#00
(1740610989.386394) vcan0 00001222#00
(1740610989.386430) vcan0 0000120F#00
(1740610989.388707) vcan0 00001305#F501
(1740610989.388947) vcan0 00002005#00000000
(1740610989.389141) vcan0 00002205#FBFF
(1740610989.389306) vcan0 00001309#4101
(1740610989.389539) vcan0 00002009#00000000
(1740610989.389710) vcan0 00002209#FCFF
(1740610989.390525) vcan0 00001307#4C02
(1740610989.390616) vcan0 00001303#F701
(1740610989.390739) vcan0 00002007#00000000
(1740610989.390847) vcan0 00002003#00000000
(1740610989.390897) vcan0 00002207#FCFF
(1740610989.391017) vcan0 00001304#C301
(1740610989.391233) vcan0 00002004#00000000
(1740610989.391415) vcan0 00002203#FBFF
(1740610989.391596) vcan0 00002204#FEFF
(1740610989.392060) vcan0 0000130C#D901
(1740610989.392276) vcan0 0000200C#00000000
(1740610989.392457) vcan0 0000130B#AB01
(1740610989.392681) vcan0 0000200B#00000000
(1740610989.392862) vcan0 0000220B#FCFF
(1740610989.393043) vcan0 0000220C#FCFF
(1740610989.393765) vcan0 00001302#8B02
(1740610989.393961) vcan0 0000130A#7101
(1740610989.394002) vcan0 00002002#00000000
(1740610989.394228) vcan0 0000200A#00000000
(1740610989.394272) vcan0 00002202#0000
(1740610989.394356) vcan0 0000220A#FEFF
(1740610989.396136) vcan0 00001308#5B01
(1740610989.396351) vcan0 00002008#00000000
(1740610989.396533) vcan0 00002208#F9FF
(1740610989.441915) vcan0 0000250F#DD01
(1740610990.383137) vcan0 00001306#D201
(1740610990.383140) vcan0 00002006#00000000
(1740610990.383182) vcan0 00001301#0402
(1740610990.383355) vcan0 00002001#00000000
(1740610990.383557) vcan0 00002201#F9FF
(1740610990.383738) vcan0 00002206#0100
(1740610990.385960) vcan0 00001201#00
(1740610990.386028) vcan0 00001202#00
(1740610990.386066) vcan0 00001203#00
(1740610990.386107) vcan0 00001204#00
(1740610990.386146) vcan0 00001205#00
(1740610990.386181) vcan0 00001206#00
(1740610990.386216) vcan0 00001207#00
(1740610990.386275) vcan0 00001208#00
(1740610990.386327) vcan0 00001209#00
(1740610990.386379) vcan0 0000120A#00
(1740610990.386424) vcan0 0000120B#00
(1740610990.386469) vcan0 0000120C#00
(1740610990.386518) vcan0 00001221#00
(1740610990.386563) vcan0 00001222#00
(1740610990.386607) vcan0 0000120F#00
(1740610990.388822) vcan0 00001305#F501
(1740610990.389041) vcan0 00002005#00000000
(1740610990.389232) vcan0 00002205#FBFF
(1740610990.389273) vcan0 00001309#4101
(1740610990.389481) vcan0 00002009#00000000
(1740610990.389669) vcan0 00002209#FCFF
(1740610990.390470) vcan0 00001307#4C02
(1740610990.390595) vcan0 00001303#F701
(1740610990.390688) vcan0 00002007#00000000
(1740610990.390818) vcan0 00002003#00000000
(1740610990.390855) vcan0 00002207#FCFF
(1740610990.390996) vcan0 00001304#C301
(1740610990.391238) vcan0 00002004#00000000
(1740610990.391395) vcan0 00002203#FBFF
(1740610990.391589) vcan0 00002204#FEFF
(1740610990.392045) vcan0 0000130C#D901
(1740610990.392259) vcan0 0000200C#00000000
(1740610990.392446) vcan0 0000130B#AB01
(1740610990.392664) vcan0 0000200B#00000000
(1740610990.392852) vcan0 0000220B#FCFF
(1740610990.393033) vcan0 0000220C#FCFF
(1740610990.393760) vcan0 00001302#8B02
(1740610990.393950) vcan0 0000130A#7101
(1740610990.393980) vcan0 00002002#00000000
(1740610990.394163) vcan0 00002202#0000
(1740610990.394226) vcan0 0000200A#00000000
(1740610990.394343) vcan0 0000220A#FEFF
(1740610990.396137) vcan0 00001308#5B01
(1740610990.396343) vcan0 00002008#00000000
(1740610990.396522) vcan0 00002208#F9FF
(1740610990.441904) vcan0 0000250F#DD01
(1740610991.383055) vcan0 00001306#D201
(1740610991.383057) vcan0 00002006#00000000
(1740610991.383139) vcan0 00001301#0402
(1740610991.383353) vcan0 00002001#00000000
(1740610991.383541) vcan0 00002201#F9FF
(1740610991.383722) vcan0 00002206#0100
(1740610991.385940) vcan0 00001201#00
(1740610991.386014) vcan0 00001202#00
(1740610991.386057) vcan0 00001203#00
(1740610991.386097) vcan0 00001204#00
(1740610991.386138) vcan0 00001205#00
(1740610991.386183) vcan0 00001206#00
(1740610991.386219) vcan0 00001207#00
(1740610991.386277) vcan0 00001208#00
(1740610991.386331) vcan0 00001209#00
(1740610991.386374) vcan0 0000120A#00
(1740610991.386421) vcan0 0000120B#00
(1740610991.386471) vcan0 0000120C#00
(1740610991.386518) vcan0 00001221#00
(1740610991.386572) vcan0 00001222#00
(1740610991.386612) vcan0 0000120F#00
(1740610991.388831) vcan0 00001305#F501
(1740610991.389040) vcan0 00002005#00000000
(1740610991.389265) vcan0 00002205#FBFF
(1740610991.389267) vcan0 00001309#4101
(1740610991.389497) vcan0 00002009#00000000
(1740610991.389667) vcan0 00002209#FCFF
(1740610991.390489) vcan0 00001307#4C02
(1740610991.390582) vcan0 00001303#F701
(1740610991.390698) vcan0 00002007#00000000
(1740610991.390836) vcan0 00002003#00000000
(1740610991.390867) vcan0 00002207#FCFF
(1740610991.390977) vcan0 00001304#C301
(1740610991.391268) vcan0 00002004#00000000
(1740610991.391377) vcan0 00002203#FBFF
(1740610991.391558) vcan0 00002204#FEFF
(1740610991.392053) vcan0 0000130C#D901
(1740610991.392243) vcan0 0000200C#00000000
(1740610991.392422) vcan0 0000130B#AB01
(1740610991.392644) vcan0 0000200B#00000000
(1740610991.392815) vcan0 0000220B#FCFF
(1740610991.392996) vcan0 0000220C#FCFF
(1740610991.393733) vcan0 00001302#8B02
(1740610991.393920) vcan0 0000130A#7101
(1740610991.393959) vcan0 00002002#00000000
(1740610991.394142) vcan0 0000200A#00000000
(1740610991.394186) vcan0 00002202#0000
(1740610991.394321) vcan0 0000220A#FEFF
(1740610991.396148) vcan0 00001308#5B01
(1740610991.396316) vcan0 00002008#00000000
(1740610991.396546) vcan0 00002208#F9FF
(1740610991.441899) vcan0 0000250F#DD01
(1740610992.382975) vcan0 00001306#D201
(1740610992.382978) vcan0 00002006#00000000
(1740610992.383084) vcan0 00001301#0402
(1740610992.383330) vcan0 00002001#00000000
(1740610992.383510) vcan0 00002201#F9FF
(1740610992.383691) vcan0 00002206#0100
(1740610992.385772) vcan0 00001201#00
(1740610992.385846) vcan0 00001202#00
(1740610992.385888) vcan0 00001203#00
(1740610992.385927) vcan0 00001204#00
(1740610992.385966) vcan0 00001205#00
(1740610992.386008) vcan0 00001206#00
(1740610992.386046) vcan0 00001207#00
(1740610992.386083) vcan0 00001208#00
(1740610992.386137) vcan0 00001209#00
(1740610992.386187) vcan0 0000120A#00
(1740610992.386236) vcan0 0000120B#00
(1740610992.386289) vcan0 0000120C#00
(1740610992.386332) vcan0 00001221#00
(1740610992.386379) vcan0 00001222#00
(1740610992.386429) vcan0 0000120F#00
(1740610992.388666) vcan0 00001305#F501
(1740610992.388883) vcan0 00002005#00000000
(1740610992.389108) vcan0 00002205#FBFF
(1740610992.389262) vcan0 00001309#4101
(1740610992.389482) vcan0 00002009#00000000
(1740610992.389652) vcan0 00002209#FCFF
(1740610992.390467) vcan0 00001307#4C02
(1740610992.390564) vcan0 00001303#F701
(1740610992.390677) vcan0 00002007#00000000
(1740610992.390810) vcan0 00002003#00000000
(1740610992.390847) vcan0 00002207#FCFF
(1740610992.390968) vcan0 00001304#C301
(1740610992.391269) vcan0 00002004#00000000
(1740610992.391393) vcan0 00002203#FBFF
(1740610992.391549) vcan0 00002204#FEFF
(1740610992.392042) vcan0 0000130C#D901
(1740610992.392258) vcan0 0000200C#00000000
(1740610992.392412) vcan0 0000130B#AB01
(1740610992.392663) vcan0 0000200B#00000000
(1740610992.392817) vcan0 0000220B#FCFF
(1740610992.393014) vcan0 0000220C#FCFF
(1740610992.393768) vcan0 00001302#8B02
(1740610992.393933) vcan0 0000130A#7101
(1740610992.393966) vcan0 00002002#00000000
(1740610992.394162) vcan0 0000200A#00000000
(1740610992.394164) vcan0 00002202#0000
(1740610992.394301) vcan0 0000220A#FEFF
(1740610992.396127) vcan0 00001308#5B01
(1740610992.396334) vcan0 00002008#00000000
(1740610992.396510) vcan0 00002208#F9FF
(1740610992.441897) vcan0 0000250F#DD01
(1740610993.382943) vcan0 00001306#D201
(1740610993.382979) vcan0 00002006#00000000
(1740610993.383098) vcan0 00001301#0402
(1740610993.383303) vcan0 00002001#00000000
(1740610993.383495) vcan0 00002201#F9FF
(1740610993.383675) vcan0 00002206#0100
(1740610993.385785) vcan0 00001201#00
(1740610993.385861) vcan0 00001202#00
(1740610993.385913) vcan0 00001203#00
(1740610993.385961) vcan0 00001204#00
(1740610993.386009) vcan0 00001205#00
(1740610993.386052) vcan0 00001206#00
(1740610993.386098) vcan0 00001207#00
(1740610993.386174) vcan0 00001208#00
(1740610993.386223) vcan0 00001209#00
(1740610993.386269) vcan0 0000120A#00
(1740610993.386318) vcan0 0000120B#00
(1740610993.386366) vcan0 0000120C#00
(1740610993.386411) vcan0 00001221#00
(1740610993.386461) vcan0 00001222#00
(1740610993.386506) vcan0 0000120F#00
(1740610993.388673) vcan0 00001305#F501
(1740610993.388889) vcan0 00002005#00000000
(1740610993.389077) vcan0 00002205#FBFF
(1740610993.389270) vcan0 00001309#4101
(1740610993.389443) vcan0 00002009#00000000
(1740610993.389625) vcan0 00002209#FCFF
(1740610993.390452) vcan0 00001307#4C02
(1740610993.390571) vcan0 00001303#F701
(1740610993.390658) vcan0 00002007#00000000
(1740610993.390799) vcan0 00002003#00000000
(1740610993.390817) vcan0 00002207#FCFF
(1740610993.390953) vcan0 00001304#C301
(1740610993.391211) vcan0 00002004#00000000
(1740610993.391366) vcan0 00002203#FBFF
(1740610993.391574) vcan0 00002204#FEFF
(1740610993.392018) vcan0 0000130C#D901
(1740610993.392277) vcan0 0000200C#00000000
(1740610993.392400) vcan0 0000130B#AB01
(1740610993.392636) vcan0 0000200B#00000000
(1740610993.392774) vcan0 0000220B#FCFF
(1740610993.392998) vcan0 0000220C#FCFF
(1740610993.393752) vcan0 00001302#8B02
(1740610993.393912) vcan0 0000130A#7101
(1740610993.393937) vcan0 00002002#00000000
(1740610993.394110) vcan0 0000200A#00000000
(1740610993.394154) vcan0 00002202#0000
(1740610993.394274) vcan0 0000220A#FEFF
(1740610993.396104) vcan0 00001308#5B01
(1740610993.396318) vcan0 00002008#00000000
(1740610993.396497) vcan0 00002208#F9FF
(1740610993.442017) vcan0 0000250F#DD01
(1740610994.382919) vcan0 00001306#D201
(1740610994.382921) vcan0 00002006#00000000
(1740610994.383043) vcan0 00001301#0402
(1740610994.383288) vcan0 00002001#00000000
(1740610994.383468) vcan0 00002201#F9FF
(1740610994.383638) vcan0 00002206#0100
(1740610994.385778) vcan0 00001201#00
(1740610994.385855) vcan0 00001202#00
(1740610994.385906) vcan0 00001203#00
(1740610994.385953) vcan0 00001204#00
(1740610994.385999) vcan0 00001205#00
(1740610994.386044) vcan0 00001206#00
(1740610994.386093) vcan0 00001207#00
(1740610994.386169) vcan0 00001208#00
(1740610994.386214) vcan0 00001209#00
(1740610994.386269) vcan0 0000120A#00
(1740610994.386315) vcan0 0000120B#00
(1740610994.386360) vcan0 0000120C#00
(1740610994.386406) vcan0 00001221#00
(1740610994.386454) vcan0 00001222#00
(1740610994.386498) vcan0 0000120F#00
(1740610994.388656) vcan0 00001305#F501
(1740610994.388880) vcan0 00002005#00000000
(1740610994.389061) vcan0 00002205#FBFF
(1740610994.389270) vcan0 00001309#4101
(1740610994.389424) vcan0 00002009#00000000
(1740610994.389621) vcan0 00002209#FCFF
(1740610994.390436) vcan0 00001307#4C02
(1740610994.390556) vcan0 00001303#F701
(1740610994.390643) vcan0 00002007#00000000
(1740610994.390781) vcan0 00002003#00000000
(1740610994.390799) vcan0 00002207#FCFF
(1740610994.390951) vcan0 00001304#C301
(1740610994.391195) vcan0 00002004#00000000
(1740610994.391357) vcan0 00002203#FBFF
(1740610994.391532) vcan0 00002204#FEFF
(1740610994.391997) vcan0 0000130C#D901
(1740610994.392281) vcan0 0000200C#00000000
(1740610994.392389) vcan0 0000130B#AB01
(1740610994.392617) vcan0 0000200B#00000000
(1740610994.392781) vcan0 0000220B#FCFF
(1740610994.392977) vcan0 0000220C#FCFF
(1740610994.393731) vcan0 00001302#8B02
(1740610994.393895) vcan0 0000130A#7101
(1740610994.393920) vcan0 00002002#00000000
(1740610994.394113) vcan0 0000200A#00000000
(1740610994.394115) vcan0 00002202#0000
(1740610994.394281) vcan0 0000220A#FEFF
(1740610994.396093) vcan0 00001308#5B01
(1740610994.396297) vcan0 00002008#00000000
(1740610994.396491) vcan0 00002208#F9FF
(1740610994.441905) vcan0 0000250F#DD01
(1740610995.382908) vcan0 00001306#D201
(1740610995.382910) vcan0 00002006#00000000
(1740610995.383051) vcan0 00001301#0402
(1740610995.383267) vcan0 00002001#00000000
(1740610995.383448) vcan0 00002201#F9FF
(1740610995.383628) vcan0 00002206#0100
(1740610995.385771) vcan0 00001201#00
(1740610995.385847) vcan0 00001202#00
(1740610995.385899) vcan0 00001203#00
(1740610995.385943) vcan0 00001204#00
(1740610995.385991) vcan0 00001205#00
(1740610995.386035) vcan0 00001206#00
(1740610995.386085) vcan0 00001207#00
(1740610995.386129) vcan0 00001208#00
(1740610995.386175) vcan0 00001209#00
(1740610995.386221) vcan0 0000120A#00
(1740610995.386266) vcan0 0000120B#00
(1740610995.386314) vcan0 0000120C#00
(1740610995.386365) vcan0 00001221#00
(1740610995.386412) vcan0 00001222#00
(1740610995.386458) vcan0 0000120F#00
(1740610995.388652) vcan0 00001305#F501
(1740610995.388876) vcan0 00002005#00000000
(1740610995.389045) vcan0 00002205#FBFF
(1740610995.389181) vcan0 00001309#4101
(1740610995.389421) vcan0 00002009#00000000
(1740610995.389581) vcan0 00002209#FCFF
(1740610995.390421) vcan0 00001307#4C02
(1740610995.390540) vcan0 00001303#F701
(1740610995.390594) vcan0 00002007#00000000
(1740610995.390765) vcan0 00002003#00000000
(1740610995.390783) vcan0 00002207#FCFF
(1740610995.390930) vcan0 00001304#C301
(1740610995.391169) vcan0 00002004#00000000
(1740610995.391336) vcan0 00002203#FBFF
(1740610995.391532) vcan0 00002204#FEFF
(1740610995.391976) vcan0 0000130C#D901
(1740610995.392189) vcan0 0000200C#00000000
(1740610995.392376) vcan0 0000130B#AB01
(1740610995.392586) vcan0 0000200B#00000000
(1740610995.392770) vcan0 0000220B#FCFF
(1740610995.392951) vcan0 0000220C#FCFF
(1740610995.393716) vcan0 00001302#8B02
(1740610995.393865) vcan0 0000130A#7101
(1740610995.393898) vcan0 00002002#00000000
(1740610995.394108) vcan0 0000200A#00000000
(1740610995.394111) vcan0 00002202#0000
(1740610995.394256) vcan0 0000220A#FEFF
(1740610995.396078) vcan0 00001308#5B01
(1740610995.396282) vcan0 00002008#00000000
(1740610995.396475) vcan0 00002208#F9FF
(1740610995.441876) vcan0 0000250F#DA01
(1740610996.382878) vcan0 00001306#D201
(1740610996.382880) vcan0 00002006#00000000
(1740610996.383030) vcan0 00001301#0402
(1740610996.383267) vcan0 00002001#00000000
(1740610996.383409) vcan0 00002201#F9FF
(1740610996.383597) vcan0 00002206#0100
(1740610996.385676) vcan0 00001201#00
(1740610996.385752) vcan0 00001202#00
(1740610996.385805) vcan0 00001203#00
(1740610996.385850) vcan0 00001204#00
(1740610996.385897) vcan0 00001205#00
(1740610996.385942) vcan0 00001206#00
(1740610996.385986) vcan0 00001207#00
(1740610996.386030) vcan0 00001208#00
(1740610996.386079) vcan0 00001209#00
(1740610996.386127) vcan0 0000120A#00
(1740610996.386176) vcan0 0000120B#00
(1740610996.386221) vcan0 0000120C#00
(1740610996.386266) vcan0 00001221#00
(1740610996.386311) vcan0 00001222#00
(1740610996.386353) vcan0 0000120F#00
(1740610996.388557) vcan0 00001305#F501
(1740610996.388780) vcan0 00002005#00000000
(1740610996.388959) vcan0 00002205#FBFF
(1740610996.389188) vcan0 00001309#4101
(1740610996.389391) vcan0 00002009#00000000
(1740610996.389569) vcan0 00002209#FCFF
(1740610996.390394) vcan0 00001307#4C02
(1740610996.390514) vcan0 00001303#F701
(1740610996.390601) vcan0 00002007#00000000
(1740610996.390734) vcan0 00002003#00000000
(1740610996.390758) vcan0 00002207#FCFF
(1740610996.390925) vcan0 00001304#C301
(1740610996.391519) vcan0 00002004#00000000
(1740610996.391521) vcan0 00002203#FBFF
(1740610996.391523) vcan0 00002204#FEFF
(1740610996.391952) vcan0 0000130C#D901
(1740610996.392166) vcan0 0000200C#00000000
(1740610996.392352) vcan0 0000130B#AB01
(1740610996.392581) vcan0 0000200B#00000000
(1740610996.392748) vcan0 0000220B#FCFF
(1740610996.392923) vcan0 0000220C#FCFF
(1740610996.393700) vcan0 00001302#8B02
(1740610996.393850) vcan0 0000130A#7101
(1740610996.393883) vcan0 00002002#00000000
(1740610996.394093) vcan0 0000200A#00000000
(1740610996.394095) vcan0 00002202#0000
(1740610996.394269) vcan0 0000220A#FEFF
(1740610996.396063) vcan0 00001308#5B01
(1740610996.396268) vcan0 00002008#00000000
(1740610996.396460) vcan0 00002208#F9FF
(1740610996.441878) vcan0 0000250F#E001
(1740610997.382945) vcan0 00001306#D201
(1740610997.382947) vcan0 00002006#00000000
(1740610997.383017) vcan0 00001301#0402
(1740610997.383269) vcan0 00002001#00000000
(1740610997.383392) vcan0 00002201#F9FF
(1740610997.383587) vcan0 00002206#0100
(1740610997.385801) vcan0 00001201#00
(1740610997.385879) vcan0 00001202#00
(1740610997.385932) vcan0 00001203#00
(1740610997.385977) vcan0 00001204#00
(1740610997.386023) vcan0 00001205#00
(1740610997.386069) vcan0 00001206#00
(1740610997.386114) vcan0 00001207#00
(1740610997.386161) vcan0 00001208#00
(1740610997.386225) vcan0 00001209#00
(1740610997.386275) vcan0 0000120A#00
(1740610997.386320) vcan0 0000120B#00
(1740610997.386368) vcan0 0000120C#00
(1740610997.386417) vcan0 00001221#00
(1740610997.386469) vcan0 00001222#00
(1740610997.386516) vcan0 0000120F#00
(1740610997.388697) vcan0 00001305#F501
(1740610997.388920) vcan0 00002005#00000000
(1740610997.389100) vcan0 00002205#FBFF
(1740610997.389124) vcan0 00001309#4101
(1740610997.389375) vcan0 00002009#00000000
(1740610997.389555) vcan0 00002209#FCFF
(1740610997.390373) vcan0 00001307#4C02
(1740610997.390503) vcan0 00001303#F701
(1740610997.390584) vcan0 00002007#00000000
(1740610997.390729) vcan0 00002003#00000000
(1740610997.390747) vcan0 00002207#FCFF
(1740610997.390913) vcan0 00001304#C301
(1740610997.391132) vcan0 00002004#00000000
(1740610997.391300) vcan0 00002203#FBFF
(1740610997.391496) vcan0 00002204#FEFF
(1740610997.391940) vcan0 0000130C#D901
(1740610997.392142) vcan0 0000200C#00000000
(1740610997.392328) vcan0 0000130B#AB01
(1740610997.392538) vcan0 0000200B#00000000
(1740610997.392732) vcan0 0000220B#FCFF
(1740610997.392897) vcan0 0000220C#FCFF
(1740610997.393680) vcan0 00001302#8B02
(1740610997.393830) vcan0 0000130A#7101
(1740610997.393859) vcan0 00002002#00000000
(1740610997.394072) vcan0 0000200A#00000000
(1740610997.394074) vcan0 00002202#0000
(1740610997.394237) vcan0 0000220A#FEFF
(1740610997.396053) vcan0 00001308#5B01
(1740610997.396266) vcan0 00002008#00000000
(1740610997.396437) vcan0 00002208#F9FF
(1740610997.441843) vcan0 0000250F#DD01
(1740610998.382838) vcan0 00001306#D201
(1740610998.382840) vcan0 00002006#00000000
(1740610998.382960) vcan0 00001301#0402
(1740610998.383201) vcan0 00002001#00000000
(1740610998.383387) vcan0 00002201#F9FF
(1740610998.383567) vcan0 00002206#0100
(1740610998.385682) vcan0 00001201#00
(1740610998.385751) vcan0 00001202#00
(1740610998.385808) vcan0 00001203#00
(1740610998.385853) vcan0 00001204#00
(1740610998.385899) vcan0 00001205#00
(1740610998.385942) vcan0 00001206#00
(1740610998.385986) vcan0 00001207#00
(1740610998.386029) vcan0 00001208#00
(1740610998.386079) vcan0 00001209#00
(1740610998.386121) vcan0 0000120A#00
(1740610998.386165) vcan0 0000120B#00
(1740610998.386210) vcan0 0000120C#00
(1740610998.386254) vcan0 00001221#00
(1740610998.386296) vcan0 00001222#00
(1740610998.386339) vcan0 0000120F#00
(1740610998.388557) vcan0 00001305#F501
(1740610998.388781) vcan0 00002005#00000000
(1740610998.388961) vcan0 00002205#FBFF
(1740610998.389124) vcan0 00001309#4101
(1740610998.389364) vcan0 00002009#00000000
(1740610998.389518) vcan0 00002209#FCFF
(1740610998.390358) vcan0 00001307#4C02
(1740610998.390488) vcan0 00001303#F701
(1740610998.390528) vcan0 00002007#00000000
(1740610998.390709) vcan0 00002003#00000000
(1740610998.390732) vcan0 00002207#FCFF
(1740610998.390902) vcan0 00001304#C301
(1740610998.391119) vcan0 00002004#00000000
(1740610998.391305) vcan0 00002203#FBFF
(1740610998.391468) vcan0 00002204#FEFF
(1740610998.391914) vcan0 0000130C#D901
(1740610998.392126) vcan0 0000200C#00000000
(1740610998.392313) vcan0 0000130B#AB01
(1740610998.392523) vcan0 0000200B#00000000
(1740610998.392706) vcan0 0000220B#FCFF
(1740610998.392887) vcan0 0000220C#FCFF
(1740610998.393664) vcan0 00001302#8B02
(1740610998.393813) vcan0 0000130A#7101
(1740610998.393844) vcan0 00002002#00000000
(1740610998.394046) vcan0 0000200A#00000000
(1740610998.394048) vcan0 00002202#0000
