(1740613353.331307) vcan0 00001306#AF0F
(1740613353.331482) vcan0 00002006#00000000
(1740613353.331666) vcan0 00002206#0000
(1740613353.334104) vcan0 00001201#40
(1740613353.334206) vcan0 00001202#40
(1740613353.334249) vcan0 00001203#40
(1740613353.334289) vcan0 00001204#40
(1740613353.334328) vcan0 00001205#40
(1740613353.334369) vcan0 00001206#40
(1740613353.334412) vcan0 00001207#40
(1740613353.334468) vcan0 00001208#40
(1740613353.334513) vcan0 00001209#40
(1740613353.334549) vcan0 0000120A#40
(1740613353.334606) vcan0 0000120B#40
(1740613353.334645) vcan0 0000120C#40
(1740613353.334684) vcan0 00001221#40
(1740613353.334724) vcan0 00001222#40
(1740613353.334764) vcan0 0000120F#C0
(1740613353.337378) vcan0 00001301#B50F
(1740613353.337616) vcan0 00002001#00000000
(1740613353.337771) vcan0 00002201#FBFF
(1740613353.340746) vcan0 00001305#BA0F
(1740613353.340748) vcan0 00002005#00000000
(1740613353.340920) vcan0 00002205#FBFF
(1740613353.343948) vcan0 00001309#830F
(1740613353.343982) vcan0 00002009#00000000
(1740613353.344113) vcan0 00002209#FEFF
(1740613353.345540) vcan0 0000130C#720F
(1740613353.345542) vcan0 0000200C#00000000
(1740613353.345712) vcan0 0000220C#FCFF
(1740613353.347620) vcan0 0000130B#B50F
(1740613353.347622) vcan0 0000200B#00000000
(1740613353.347680) vcan0 0000220B#FEFF
(1740613353.348393) vcan0 00001307#A80F
(1740613353.348395) vcan0 00002007#00000000
(1740613353.348458) vcan0 00002207#FCFF
(1740613353.351126) vcan0 00001303#900F
(1740613353.351183) vcan0 00002003#00000000
(1740613353.351225) vcan0 0000130A#A40F
(1740613353.351389) vcan0 00001304#9D0F
(1740613353.351484) vcan0 0000200A#00000000
(1740613353.351616) vcan0 00002004#00000000
(1740613353.351643) vcan0 0000220A#FCFF
(1740613353.351792) vcan0 00002203#FBFF
(1740613353.351973) vcan0 00002204#FEFF
(1740613353.359125) vcan0 00001302#7F0F
(1740613353.359127) vcan0 00002002#00000000
(1740613353.359268) vcan0 00002202#FEFF
(1740613353.359305) vcan0 00001308#A80F
(1740613353.359548) vcan0 00002008#00000000
(1740613353.359732) vcan0 00002208#F9FF
(1740613353.430943) vcan0 0000250F#C601
(1740613354.331508) vcan0 00001306#AF0F
(1740613354.331510) vcan0 00002006#00000000
(1740613354.331655) vcan0 00002206#0000
(1740613354.334256) vcan0 00001201#40
(1740613354.334352) vcan0 00001202#40
(1740613354.334391) vcan0 00001203#40
(1740613354.334429) vcan0 00001204#40
(1740613354.334465) vcan0 00001205#40
(1740613354.334502) vcan0 00001206#40
(1740613354.334538) vcan0 00001207#40
(1740613354.334581) vcan0 00001208#40
(1740613354.334618) vcan0 00001209#40
(1740613354.334657) vcan0 0000120A#40
(1740613354.334695) vcan0 0000120B#40
(1740613354.334742) vcan0 0000120C#40
(1740613354.334781) vcan0 00001221#40
(1740613354.334820) vcan0 00001222#40
(1740613354.334854) vcan0 0000120F#C0
(1740613354.337362) vcan0 00001301#B10F
(1740613354.337618) vcan0 00002001#00000000
(1740613354.337751) vcan0 00002201#F9FF
(1740613354.340726) vcan0 00001305#BA0F
(1740613354.340728) vcan0 00002005#00000000
(1740613354.340899) vcan0 00002205#FBFF
(1740613354.344061) vcan0 00001309#810F
(1740613354.344063) vcan0 00002009#00000000
(1740613354.344094) vcan0 00002209#FCFF
(1740613354.345520) vcan0 0000130C#740F
(1740613354.345522) vcan0 0000200C#00000000
(1740613354.345697) vcan0 0000220C#FCFF
(1740613354.347578) vcan0 0000130B#B80F
(1740613354.347580) vcan0 0000200B#00000000
(1740613354.347678) vcan0 0000220B#FEFF
(1740613354.348311) vcan0 00001307#A80F
(1740613354.348313) vcan0 00002007#00000000
(1740613354.348482) vcan0 00002207#FEFF
(1740613354.350954) vcan0 00001303#900F
(1740613354.351196) vcan0 00002003#00000000
(1740613354.351216) vcan0 0000130A#A20F
(1740613354.351368) vcan0 00001304#970F
(1740613354.351458) vcan0 0000200A#00000000
(1740613354.351612) vcan0 00002004#00000000
(1740613354.351636) vcan0 0000220A#FCFF
(1740613354.351780) vcan0 00002203#FCFF
(1740613354.351970) vcan0 00002204#FEFF
(1740613354.359152) vcan0 00001302#7F0F
(1740613354.359155) vcan0 00002002#00000000
(1740613354.359230) vcan0 00002202#0000
(1740613354.359288) vcan0 00001308#AA0F
(1740613354.359542) vcan0 00002008#00000000
(1740613354.359719) vcan0 00002208#F7FF
(1740613354.430954) vcan0 0000250F#C601
(1740613355.331476) vcan0 00001306#AD0F
(1740613355.331478) vcan0 00002006#00000000
(1740613355.331597) vcan0 00002206#FEFF
(1740613355.334316) vcan0 00001201#40
(1740613355.334414) vcan0 00001202#40
(1740613355.334453) vcan0 00001203#40
(1740613355.334490) vcan0 00001204#40
(1740613355.334527) vcan0 00001205#40
(1740613355.334563) vcan0 00001206#40
(1740613355.334599) vcan0 00001207#40
(1740613355.334637) vcan0 00001208#40
(1740613355.334675) vcan0 00001209#40
(1740613355.334712) vcan0 0000120A#40
(1740613355.334752) vcan0 0000120B#40
(1740613355.334791) vcan0 0000120C#40
(1740613355.334830) vcan0 00001221#40
(1740613355.334898) vcan0 00001222#40
(1740613355.334951) vcan0 0000120F#C0
(1740613355.337346) vcan0 00001301#B50F
(1740613355.337613) vcan0 00002001#00000000
(1740613355.337736) vcan0 00002201#FBFF
(1740613355.340712) vcan0 00001305#BC0F
(1740613355.340714) vcan0 00002005#00000000
(1740613355.340884) vcan0 00002205#FBFF
(1740613355.343904) vcan0 00001309#830F
(1740613355.343906) vcan0 00002009#00000000
(1740613355.344070) vcan0 00002209#FEFF
(1740613355.345500) vcan0 0000130C#720F
(1740613355.345502) vcan0 0000200C#00000000
(1740613355.345676) vcan0 0000220C#FCFF
(1740613355.347291) vcan0 0000130B#B50F
(1740613355.347500) vcan0 0000200B#00000000
(1740613355.347678) vcan0 0000220B#FCFF
(1740613355.348502) vcan0 00001307#A60F
(1740613355.348504) vcan0 00002007#00000000
(1740613355.348506) vcan0 00002207#FEFF
(1740613355.350950) vcan0 00001303#900F
(1740613355.351315) vcan0 00002003#00000000
(1740613355.351323) vcan0 0000130A#A40F
(1740613355.351348) vcan0 00001304#9B0F
(1740613355.351484) vcan0 0000200A#00000000
(1740613355.351624) vcan0 00002004#00000000
(1740613355.351627) vcan0 0000220A#FCFF
(1740613355.351751) vcan0 00002203#FBFF
(1740613355.351951) vcan0 00002204#FEFF
(1740613355.359239) vcan0 00001302#7F0F
(1740613355.359242) vcan0 00002002#00000000
(1740613355.359295) vcan0 00002202#0000
(1740613355.359297) vcan0 00001308#AA0F
(1740613355.359517) vcan0 00002008#00000000
(1740613355.359706) vcan0 00002208#F9FF
(1740613355.430964) vcan0 0000250F#C601
(1740613356.331466) vcan0 00001306#AF0F
(1740613356.331468) vcan0 00002006#00000000
(1740613356.331620) vcan0 00002206#0000
(1740613356.334288) vcan0 00001201#40
(1740613356.334385) vcan0 00001202#40
(1740613356.334429) vcan0 00001203#40
(1740613356.334466) vcan0 00001204#40
(1740613356.334503) vcan0 00001205#40
(1740613356.334541) vcan0 00001206#40
(1740613356.334577) vcan0 00001207#40
(1740613356.334615) vcan0 00001208#40
(1740613356.334657) vcan0 00001209#40
(1740613356.334702) vcan0 0000120A#40
(1740613356.334740) vcan0 0000120B#40
(1740613356.334783) vcan0 0000120C#40
(1740613356.334821) vcan0 00001221#40
(1740613356.334861) vcan0 00001222#40
(1740613356.334942) vcan0 0000120F#C0
(1740613356.337331) vcan0 00001301#B30F
(1740613356.337544) vcan0 00002001#00000000
(1740613356.337720) vcan0 00002201#FBFF
(1740613356.340672) vcan0 00001305#BC0F
(1740613356.340700) vcan0 00002005#00000000
(1740613356.340853) vcan0 00002205#FBFF
(1740613356.343898) vcan0 00001309#830F
(1740613356.343900) vcan0 00002009#00000000
(1740613356.344061) vcan0 00002209#FEFF
(1740613356.345479) vcan0 0000130C#720F
(1740613356.345481) vcan0 0000200C#00000000
(1740613356.345655) vcan0 0000220C#FCFF
(1740613356.347488) vcan0 0000130B#B50F
(1740613356.347490) vcan0 0000200B#00000000
(1740613356.347660) vcan0 0000220B#FCFF
(1740613356.348249) vcan0 00001307#A80F
(1740613356.348277) vcan0 00002007#00000000
(1740613356.348435) vcan0 00002207#FCFF
(1740613356.351245) vcan0 00001303#900F
(1740613356.351248) vcan0 00002003#00000000
(1740613356.351250) vcan0 0000130A#A40F
(1740613356.351314) vcan0 00001304#990F
(1740613356.351428) vcan0 0000200A#00000000
(1740613356.351621) vcan0 0000220A#FEFF
(1740613356.351623) vcan0 00002004#00000000
(1740613356.351741) vcan0 00002203#FBFF
(1740613356.351936) vcan0 00002204#0000
(1740613356.359153) vcan0 00001302#7F0F
(1740613356.359155) vcan0 00002002#00000000
(1740613356.359202) vcan0 00002202#0000
(1740613356.359253) vcan0 00001308#A80F
(1740613356.359512) vcan0 00002008#00000000
(1740613356.359679) vcan0 00002208#F7FF
(1740613356.430935) vcan0 0000250F#C601
(1740613357.331440) vcan0 00001306#AF0F
(1740613357.331442) vcan0 00002006#00000000
(1740613357.331615) vcan0 00002206#0100
(1740613357.334279) vcan0 00001201#40
(1740613357.334375) vcan0 00001202#40
(1740613357.334422) vcan0 00001203#40
(1740613357.334459) vcan0 00001204#40
(1740613357.334495) vcan0 00001205#40
(1740613357.334531) vcan0 00001206#40
(1740613357.334568) vcan0 00001207#40
(1740613357.334604) vcan0 00001208#40
(1740613357.334642) vcan0 00001209#40
(1740613357.334681) vcan0 0000120A#40
(1740613357.334723) vcan0 0000120B#40
(1740613357.334760) vcan0 0000120C#40
(1740613357.334801) vcan0 00001221#40
(1740613357.334849) vcan0 00001222#40
(1740613357.334926) vcan0 0000120F#C0
(1740613357.337304) vcan0 00001301#B50F
(1740613357.337518) vcan0 00002001#00000000
(1740613357.337700) vcan0 00002201#F9FF
(1740613357.340690) vcan0 00001305#BC0F
(1740613357.340692) vcan0 00002005#00000000
(1740613357.340842) vcan0 00002205#FCFF
(1740613357.343867) vcan0 00001309#830F
(1740613357.343869) vcan0 00002009#00000000
(1740613357.344039) vcan0 00002209#FCFF
(1740613357.345445) vcan0 0000130C#720F
(1740613357.345473) vcan0 0000200C#00000000
(1740613357.345641) vcan0 0000220C#0000
(1740613357.347462) vcan0 0000130B#B80F
(1740613357.347488) vcan0 0000200B#00000000
(1740613357.347640) vcan0 0000220B#FBFF
(1740613357.348386) vcan0 00001307#A60F
(1740613357.348393) vcan0 00002007#00000000
(1740613357.348424) vcan0 00002207#FCFF
(1740613357.351179) vcan0 00001303#8E0F
(1740613357.351181) vcan0 00002003#00000000
(1740613357.351220) vcan0 0000130A#A40F
(1740613357.351329) vcan0 00001304#9B0F
(1740613357.351376) vcan0 0000200A#00000000
(1740613357.351550) vcan0 00002004#00000000
(1740613357.351585) vcan0 0000220A#FEFF
(1740613357.351730) vcan0 00002203#FCFF
(1740613357.351912) vcan0 00002204#0000
(1740613357.359074) vcan0 00001302#7F0F
(1740613357.359076) vcan0 00002002#00000000
(1740613357.359219) vcan0 00002202#0000
(1740613357.359248) vcan0 00001308#A80F
(1740613357.359496) vcan0 00002008#00000000
(1740613357.359669) vcan0 00002208#F9FF
(1740613357.430930) vcan0 0000250F#C601
(1740613358.331421) vcan0 00001306#AD0F
(1740613358.331423) vcan0 00002006#00000000
(1740613358.331616) vcan0 00002206#0000
(1740613358.333870) vcan0 00001201#40
(1740613358.333967) vcan0 00001202#40
(1740613358.334011) vcan0 00001203#40
(1740613358.334049) vcan0 00001204#40
(1740613358.334086) vcan0 00001205#40
(1740613358.334122) vcan0 00001206#40
(1740613358.334158) vcan0 00001207#40
(1740613358.334194) vcan0 00001208#40
(1740613358.334237) vcan0 00001209#40
(1740613358.334278) vcan0 0000120A#40
(1740613358.334321) vcan0 0000120B#40
(1740613358.334360) vcan0 0000120C#40
(1740613358.334397) vcan0 00001221#40
(1740613358.334438) vcan0 00001222#40
(1740613358.334473) vcan0 0000120F#C0
(1740613358.337284) vcan0 00001301#B30F
(1740613358.337502) vcan0 00002001#00000000
(1740613358.337679) vcan0 00002201#F9FF
(1740613358.340689) vcan0 00001305#BA0F
(1740613358.340692) vcan0 00002005#00000000
(1740613358.340799) vcan0 00002205#FBFF
(1740613358.343848) vcan0 00001309#830F
(1740613358.343850) vcan0 00002009#00000000
(1740613358.344012) vcan0 00002209#FCFF
(1740613358.345441) vcan0 0000130C#720F
(1740613358.345443) vcan0 0000200C#00000000
(1740613358.345617) vcan0 0000220C#FEFF
(1740613358.347444) vcan0 0000130B#B50F
(1740613358.347470) vcan0 0000200B#00000000
(1740613358.347622) vcan0 0000220B#FEFF
(1740613358.348392) vcan0 00001307#A60F
(1740613358.348394) vcan0 00002007#00000000
(1740613358.348425) vcan0 00002207#FEFF
(1740613358.350955) vcan0 00001303#900F
(1740613358.351128) vcan0 00002003#00000000
(1740613358.351147) vcan0 0000130A#A40F
(1740613358.351313) vcan0 00001304#9B0F
(1740613358.351357) vcan0 0000200A#00000000
(1740613358.351535) vcan0 00002004#00000000
(1740613358.351582) vcan0 0000220A#FCFF
(1740613358.351710) vcan0 00002203#FCFF
(1740613358.351892) vcan0 00002204#FCFF
(1740613358.358802) vcan0 00001302#810F
(1740613358.359232) vcan0 00002002#00000000
(1740613358.359234) vcan0 00002202#0000
(1740613358.359258) vcan0 00001308#A80F
(1740613358.359475) vcan0 00002008#00000000
(1740613358.359653) vcan0 00002208#F9FF
(1740613358.430939) vcan0 0000250F#C601
(1740613359.331392) vcan0 00001306#AD0F
(1740613359.331394) vcan0 00002006#00000000
(1740613359.331539) vcan0 00002206#0000
(1740613359.334198) vcan0 00001201#40
(1740613359.334296) vcan0 00001202#40
(1740613359.334341) vcan0 00001203#40
(1740613359.334378) vcan0 00001204#40
(1740613359.334414) vcan0 00001205#40
(1740613359.334450) vcan0 00001206#40
(1740613359.334501) vcan0 00001207#40
(1740613359.334540) vcan0 00001208#40
(1740613359.334576) vcan0 00001209#40
(1740613359.334615) vcan0 0000120A#40
(1740613359.334652) vcan0 0000120B#40
(1740613359.334692) vcan0 0000120C#40
(1740613359.334733) vcan0 00001221#40
(1740613359.334775) vcan0 00001222#40
(1740613359.334811) vcan0 0000120F#C0
(1740613359.337264) vcan0 00001301#B30F
(1740613359.337490) vcan0 00002001#00000000
(1740613359.337669) vcan0 00002201#F9FF
(1740613359.340626) vcan0 00001305#B80F
(1740613359.340628) vcan0 00002005#00000000
(1740613359.340800) vcan0 00002205#F9FF
(1740613359.344127) vcan0 00001309#7F0F
(1740613359.344130) vcan0 00002009#00000000
(1740613359.344131) vcan0 00002209#FCFF
(1740613359.345420) vcan0 0000130C#720F
(1740613359.345448) vcan0 0000200C#00000000
(1740613359.345615) vcan0 0000220C#FCFF
(1740613359.347419) vcan0 0000130B#B50F
(1740613359.347446) vcan0 0000200B#00000000
(1740613359.347610) vcan0 0000220B#FCFF
(1740613359.348345) vcan0 00001307#A80F
(1740613359.348347) vcan0 00002007#00000000
(1740613359.348384) vcan0 00002207#FEFF
(1740613359.351143) vcan0 00001303#900F
(1740613359.351146) vcan0 00002003#00000000
(1740613359.351186) vcan0 0000130A#A40F
(1740613359.351269) vcan0 00001304#990F
(1740613359.351370) vcan0 0000200A#00000000
(1740613359.351502) vcan0 00002004#00000000
(1740613359.351528) vcan0 0000220A#FCFF
(1740613359.351687) vcan0 00002203#FBFF
(1740613359.351869) vcan0 00002204#FEFF
(1740613359.359036) vcan0 00001302#7F0F
(1740613359.359038) vcan0 00002002#00000000
(1740613359.359191) vcan0 00002202#0000
(1740613359.359220) vcan0 00001308#AA0F
(1740613359.359462) vcan0 00002008#00000000
(1740613359.359641) vcan0 00002208#F9FF
(1740613359.431054) vcan0 0000250F#C601
(1740613360.331385) vcan0 00001306#AF0F
(1740613360.331387) vcan0 00002006#00000000
(1740613360.331479) vcan0 00002206#0000
(1740613360.334228) vcan0 00001201#40
(1740613360.334325) vcan0 00001202#40
(1740613360.334371) vcan0 00001203#40
(1740613360.334410) vcan0 00001204#40
(1740613360.334447) vcan0 00001205#40
(1740613360.334490) vcan0 00001206#40
(1740613360.334536) vcan0 00001207#40
(1740613360.334573) vcan0 00001208#40
(1740613360.334619) vcan0 00001209#40
(1740613360.334657) vcan0 0000120A#40
(1740613360.334695) vcan0 0000120B#40
(1740613360.334735) vcan0 0000120C#40
(1740613360.334777) vcan0 00001221#40
(1740613360.334815) vcan0 00001222#40
(1740613360.334861) vcan0 0000120F#C0
(1740613360.337242) vcan0 00001301#B50F
(1740613360.337468) vcan0 00002001#00000000
(1740613360.337637) vcan0 00002201#FBFF
(1740613360.340740) vcan0 00001305#BC0F
(1740613360.340742) vcan0 00002005#00000000
(1740613360.340774) vcan0 00002205#FBFF
(1740613360.344073) vcan0 00001309#830F
(1740613360.344075) vcan0 00002009#00000000
(1740613360.344077) vcan0 00002209#FCFF
(1740613360.345406) vcan0 0000130C#720F
(1740613360.345409) vcan0 0000200C#00000000
(1740613360.345620) vcan0 0000220C#FCFF
(1740613360.347408) vcan0 0000130B#B50F
(1740613360.347410) vcan0 0000200B#00000000
(1740613360.347615) vcan0 0000220B#FCFF
(1740613360.348485) vcan0 00001307#A80F
(1740613360.348487) vcan0 00002007#00000000
(1740613360.348489) vcan0 00002207#FCFF
(1740613360.351102) vcan0 00001303#900F
(1740613360.351104) vcan0 00002003#00000000
(1740613360.351136) vcan0 0000130A#A40F
(1740613360.351275) vcan0 00001304#9B0F
(1740613360.351317) vcan0 0000200A#00000000
(1740613360.351502) vcan0 00002004#00000000
(1740613360.351522) vcan0 0000220A#FCFF
(1740613360.351674) vcan0 00002203#FBFF
(1740613360.351859) vcan0 00002204#FEFF
(1740613360.359012) vcan0 00001302#7F0F
(1740613360.359014) vcan0 00002002#00000000
(1740613360.359170) vcan0 00002202#0000
(1740613360.359198) vcan0 00001308#A80F
(1740613360.359450) vcan0 00002008#00000000
(1740613360.359631) vcan0 00002208#F9FF
(1740613360.430967) vcan0 0000250F#C901
(1740613361.331385) vcan0 00001306#AF0F
(1740613361.331387) vcan0 00002006#00000000
(1740613361.331465) vcan0 00002206#0000
(1740613361.334223) vcan0 00001201#40
(1740613361.334319) vcan0 00001202#40
(1740613361.334366) vcan0 00001203#40
(1740613361.334408) vcan0 00001204#40
(1740613361.334456) vcan0 00001205#40
(1740613361.334496) vcan0 00001206#40
(1740613361.334536) vcan0 00001207#40
(1740613361.334576) vcan0 00001208#40
(1740613361.334615) vcan0 00001209#40
(1740613361.334654) vcan0 0000120A#40
(1740613361.334694) vcan0 0000120B#40
(1740613361.334737) vcan0 0000120C#40
(1740613361.334776) vcan0 00001221#40
(1740613361.334820) vcan0 00001222#40
(1740613361.334858) vcan0 0000120F#C0
(1740613361.337227) vcan0 00001301#B30F
(1740613361.337453) vcan0 00002001#00000000
(1740613361.337622) vcan0 00002201#F9FF
(1740613361.340644) vcan0 00001305#BA0F
(1740613361.340646) vcan0 00002005#00000000
(1740613361.340736) vcan0 00002205#FBFF
(1740613361.344061) vcan0 00001309#830F
(1740613361.344063) vcan0 00002009#00000000
(1740613361.344065) vcan0 00002209#FEFF
(1740613361.345408) vcan0 0000130C#720F
(1740613361.345410) vcan0 0000200C#00000000
(1740613361.345617) vcan0 0000220C#FEFF
(1740613361.347379) vcan0 0000130B#B50F
(1740613361.347406) vcan0 0000200B#00000000
(1740613361.347620) vcan0 0000220B#FBFF
(1740613361.348353) vcan0 00001307#A40F
(1740613361.348355) vcan0 00002007#00000000
(1740613361.348386) vcan0 00002207#FCFF
(1740613361.351101) vcan0 00001303#900F
(1740613361.351104) vcan0 00002003#00000000
(1740613361.351136) vcan0 0000130A#A40F
(1740613361.351254) vcan0 00001304#970F
(1740613361.351301) vcan0 0000200A#00000000
(1740613361.351481) vcan0 00002004#00000000
(1740613361.351502) vcan0 0000220A#FCFF
(1740613361.351661) vcan0 00002203#FBFF
(1740613361.351843) vcan0 00002204#FEFF
(1740613361.359003) vcan0 00001302#7F0F
(1740613361.359006) vcan0 00002002#00000000
(1740613361.359156) vcan0 00002202#0000
(1740613361.359184) vcan0 00001308#AA0F
(1740613361.359435) vcan0 00002008#00000000
(1740613361.359617) vcan0 00002208#F7FF
(1740613361.430905) vcan0 0000250F#C601
(1740613362.331344) vcan0 00001306#AD0F
(1740613362.331347) vcan0 00002006#00000000
(1740613362.331444) vcan0 00002206#0000
(1740613362.334154) vcan0 00001201#40
(1740613362.334249) vcan0 00001202#40
(1740613362.334296) vcan0 00001203#40
(1740613362.334332) vcan0 00001204#40
(1740613362.334369) vcan0 00001205#40
(1740613362.334406) vcan0 00001206#40
(1740613362.334456) vcan0 00001207#40
(1740613362.334495) vcan0 00001208#40
(1740613362.334539) vcan0 00001209#40
(1740613362.334576) vcan0 0000120A#40
(1740613362.334618) vcan0 0000120B#40
(1740613362.334656) vcan0 0000120C#40
(1740613362.334693) vcan0 00001221#40
(1740613362.334733) vcan0 00001222#40
(1740613362.334769) vcan0 0000120F#C0
(1740613362.337206) vcan0 00001301#B50F
(1740613362.337414) vcan0 00002001#00000000
(1740613362.337622) vcan0 00002201#FBFF
(1740613362.340566) vcan0 00001305#BC0F
(1740613362.340599) vcan0 00002005#00000000
(1740613362.340738) vcan0 00002205#FBFF
(1740613362.343763) vcan0 00001309#810F
(1740613362.343765) vcan0 00002009#00000000
(1740613362.343940) vcan0 00002209#FEFF
(1740613362.345365) vcan0 0000130C#740F
(1740613362.345367) vcan0 0000200C#00000000
(1740613362.345545) vcan0 0000220C#FEFF
(1740613362.347371) vcan0 0000130B#B50F
(1740613362.347397) vcan0 0000200B#00000000
(1740613362.347547) vcan0 0000220B#FEFF
(1740613362.348207) vcan0 00001307#A60F
(1740613362.348209) vcan0 00002007#00000000
(1740613362.348338) vcan0 00002207#FEFF
(1740613362.350860) vcan0 00001303#900F
(1740613362.351155) vcan0 00002003#00000000
(1740613362.351157) vcan0 0000130A#A40F
(1740613362.351205) vcan0 00001304#990F
(1740613362.351315) vcan0 0000200A#00000000
(1740613362.351457) vcan0 00002004#00000000
(1740613362.351479) vcan0 0000220A#FEFF
(1740613362.351644) vcan0 00002203#FBFF
(1740613362.351817) vcan0 00002204#0000
(1740613362.359060) vcan0 00001302#7F0F
(1740613362.359062) vcan0 00002002#00000000
(1740613362.359120) vcan0 00002202#0000
(1740613362.359174) vcan0 00001308#A80F
(1740613362.359425) vcan0 00002008#00000000
(1740613362.359623) vcan0 00002208#F9FF
(1740613362.430905) vcan0 0000250F#C601
(1740613363.331314) vcan0 00001306#AD0F
(1740613363.331316) vcan0 00002006#00000000
(1740613363.331427) vcan0 00002206#FEFF
(1740613363.334306) vcan0 00001201#40
(1740613363.334404) vcan0 00001202#40
(1740613363.334449) vcan0 00001203#40
(1740613363.334486) vcan0 00001204#40
(1740613363.334523) vcan0 00001205#40
(1740613363.334559) vcan0 00001206#40
(1740613363.334595) vcan0 00001207#40
(1740613363.334634) vcan0 00001208#40
(1740613363.334674) vcan0 00001209#40
(1740613363.334712) vcan0 0000120A#40
(1740613363.334759) vcan0 0000120B#40
(1740613363.334798) vcan0 0000120C#40
(1740613363.334837) vcan0 00001221#40
(1740613363.334910) vcan0 00001222#40
(1740613363.334955) vcan0 0000120F#C0
(1740613363.337213) vcan0 00001301#B50F
(1740613363.337421) vcan0 00002001#00000000
(1740613363.337618) vcan0 00002201#FBFF
(1740613363.340561) vcan0 00001305#BA0F
(1740613363.340563) vcan0 00002005#00000000
(1740613363.340728) vcan0 00002205#FCFF
(1740613363.343738) vcan0 00001309#810F
(1740613363.343740) vcan0 00002009#00000000
(1740613363.343915) vcan0 00002209#FCFF
(1740613363.345493) vcan0 0000130C#740F
(1740613363.345495) vcan0 0000200C#00000000
(1740613363.345526) vcan0 0000220C#FCFF
(1740613363.347382) vcan0 0000130B#B50F
(1740613363.347384) vcan0 0000200B#00000000
(1740613363.347526) vcan0 0000220B#FCFF
(1740613363.348130) vcan0 00001307#A60F
(1740613363.348158) vcan0 00002007#00000000
(1740613363.348312) vcan0 00002207#FEFF
(1740613363.351065) vcan0 00001303#900F
(1740613363.351067) vcan0 00002003#00000000
(1740613363.351100) vcan0 0000130A#A20F
(1740613363.351224) vcan0 00001304#990F
(1740613363.351263) vcan0 0000200A#00000000
(1740613363.351450) vcan0 00002004#00000000
(1740613363.351470) vcan0 0000220A#FCFF
(1740613363.351632) vcan0 00002203#FCFF
(1740613363.351805) vcan0 00002204#FEFF
(1740613363.358979) vcan0 00001302#7F0F
(1740613363.358981) vcan0 00002002#00000000
(1740613363.359130) vcan0 00002202#0000
(1740613363.359158) vcan0 00001308#A80F
(1740613363.359399) vcan0 00002008#00000000
(1740613363.359633) vcan0 00002208#F9FF
(1740613363.430933) vcan0 0000250F#C901
(1740613364.331450) vcan0 00001306#AD0F
(1740613364.331452) vcan0 00002006#00000000
(1740613364.331454) vcan0 00002206#0000
(1740613364.333988) vcan0 00001201#40
(1740613364.334085) vcan0 00001202#40
(1740613364.334131) vcan0 00001203#40
(1740613364.334171) vcan0 00001204#40
(1740613364.334207) vcan0 00001205#40
(1740613364.334245) vcan0 00001206#40
(1740613364.334298) vcan0 00001207#40
(1740613364.334335) vcan0 00001208#40
(1740613364.334375) vcan0 00001209#40
(1740613364.334414) vcan0 0000120A#40
(1740613364.334452) vcan0 0000120B#40
(1740613364.334495) vcan0 0000120C#40
(1740613364.334535) vcan0 00001221#40
(1740613364.334574) vcan0 00001222#40
(1740613364.334616) vcan0 0000120F#C0
(1740613364.337164) vcan0 00001301#B50F
(1740613364.337390) vcan0 00002001#00000000
(1740613364.337624) vcan0 00002201#F9FF
(1740613364.340541) vcan0 00001305#BC0F
(1740613364.340543) vcan0 00002005#00000000
(1740613364.340703) vcan0 00002205#FCFF
(1740613364.343952) vcan0 00001309#810F
(1740613364.343955) vcan0 00002009#00000000
(1740613364.343957) vcan0 00002209#FBFF
(1740613364.345514) vcan0 0000130C#720F
(1740613364.345516) vcan0 0000200C#00000000
(1740613364.345518) vcan0 0000220C#FEFF
(1740613364.347328) vcan0 0000130B#B50F
(1740613364.347354) vcan0 0000200B#00000000
(1740613364.347509) vcan0 0000220B#FCFF
(1740613364.348135) vcan0 00001307#A60F
(1740613364.348137) vcan0 00002007#00000000
(1740613364.348311) vcan0 00002207#FEFF
(1740613364.351045) vcan0 00001303#920F
(1740613364.351048) vcan0 00002003#00000000
(1740613364.351080) vcan0 0000130A#A20F
(1740613364.351208) vcan0 00001304#970F
(1740613364.351255) vcan0 0000200A#00000000
(1740613364.351430) vcan0 00002004#00000000
(1740613364.351455) vcan0 0000220A#FCFF
(1740613364.351625) vcan0 00002203#FCFF
(1740613364.351800) vcan0 00002204#FEFF
(1740613364.358946) vcan0 00001302#810F
(1740613364.358948) vcan0 00002002#00000000
(1740613364.359114) vcan0 00002202#0000
(1740613364.359143) vcan0 00001308#A80F
(1740613364.359394) vcan0 00002008#00000000
(1740613364.359624) vcan0 00002208#F9FF
(1740613364.430899) vcan0 0000250F#C601
(1740613365.331363) vcan0 00001306#AD0F
(1740613365.331371) vcan0 00002006#00000000
(1740613365.331408) vcan0 00002206#0000
(1740613365.336926) vcan0 00001201#40
(1740613365.337017) vcan0 00001202#40
(1740613365.337060) vcan0 00001203#40
(1740613365.337097) vcan0 00001204#40
(1740613365.337134) vcan0 00001205#40
(1740613365.337170) vcan0 00001206#40
(1740613365.337220) vcan0 00001207#40
(1740613365.337238) vcan0 00001301#B30F
(1740613365.337258) vcan0 00001208#40
(1740613365.337297) vcan0 00001209#40
(1740613365.337334) vcan0 0000120A#40
(1740613365.337374) vcan0 0000120B#40
(1740613365.337413) vcan0 0000120C#40
(1740613365.337452) vcan0 00001221#40
(1740613365.337501) vcan0 00001222#40
(1740613365.337534) vcan0 00002001#00000000
(1740613365.337538) vcan0 0000120F#C0
(1740613365.339999) vcan0 00002201#FBFF
(1740613365.340296) vcan0 00001305#BA0F
(1740613365.340507) vcan0 00002005#00000000
(1740613365.340688) vcan0 00002205#FBFF
(1740613365.343921) vcan0 00001309#830F
(1740613365.343923) vcan0 00002009#00000000
(1740613365.343925) vcan0 00002209#FCFF
(1740613365.345445) vcan0 0000130C#740F
(1740613365.345447) vcan0 0000200C#00000000
(1740613365.345478) vcan0 0000220C#FEFF
(1740613365.347355) vcan0 0000130B#B50F
(1740613365.347357) vcan0 0000200B#00000000
(1740613365.347465) vcan0 0000220B#FCFF
(1740613365.348142) vcan0 00001307#A60F
(1740613365.348144) vcan0 00002007#00000000
(1740613365.348282) vcan0 00002207#FCFF
(1740613365.351045) vcan0 00001303#8E0F
(1740613365.351047) vcan0 00002003#00000000
(1740613365.351079) vcan0 0000130A#A40F
(1740613365.351187) vcan0 00001304#990F
(1740613365.351233) vcan0 0000200A#00000000
(1740613365.351424) vcan0 00002004#00000000
(1740613365.351444) vcan0 0000220A#FEFF
(1740613365.351615) vcan0 00002203#FCFF
(1740613365.351773) vcan0 00002204#0000
(1740613365.358961) vcan0 00001302#7D0F
(1740613365.358963) vcan0 00002002#00000000
(1740613365.359064) vcan0 00002202#0000
(1740613365.359122) vcan0 00001308#AD0F
(1740613365.359373) vcan0 00002008#00000000
(1740613365.359527) vcan0 00002208#F9FF
(1740613365.430887) vcan0 0000250F#C601
(1740613366.331268) vcan0 00001306#AA0F
(1740613366.331270) vcan0 00002006#00000000
(1740613366.331350) vcan0 00002206#0A00
(1740613366.334090) vcan0 00001201#40
(1740613366.334162) vcan0 00001202#40
(1740613366.334201) vcan0 00001203#40
(1740613366.334238) vcan0 00001204#40
(1740613366.334274) vcan0 00001205#40
(1740613366.334310) vcan0 00001206#40
(1740613366.334347) vcan0 00001207#40
(1740613366.334386) vcan0 00001208#40
(1740613366.334425) vcan0 00001209#40
(1740613366.334464) vcan0 0000120A#40
(1740613366.334503) vcan0 0000120B#40
(1740613366.334541) vcan0 0000120C#40
(1740613366.334582) vcan0 00001221#40
(1740613366.334626) vcan0 00001222#40
(1740613366.334655) vcan0 0000120F#C0
(1740613366.337111) vcan0 00001301#B30F
(1740613366.337323) vcan0 00002001#00000000
(1740613366.337527) vcan0 00002201#0600
(1740613366.340504) vcan0 00001305#B80F
(1740613366.340507) vcan0 00002005#00000000
(1740613366.340676) vcan0 00002205#0000
(1740613366.343685) vcan0 00001309#7D0F
(1740613366.343687) vcan0 00002009#00000000
(1740613366.343849) vcan0 00002209#0300
(1740613366.345279) vcan0 0000130C#700F
(1740613366.345281) vcan0 0000200C#00000000
(1740613366.345454) vcan0 0000220C#0300
(1740613366.347312) vcan0 0000130B#B30F
(1740613366.347314) vcan0 0000200B#00000000
(1740613366.347462) vcan0 0000220B#0A00
(1740613366.348141) vcan0 00001307#A40F
(1740613366.348143) vcan0 00002007#00000000
(1740613366.348241) vcan0 00002207#0100
(1740613366.350781) vcan0 00001303#8C0F
(1740613366.350967) vcan0 00002003#00000000
(1740613366.351004) vcan0 0000130A#9F0F
(1740613366.351184) vcan0 00001304#970F
(1740613366.351218) vcan0 0000200A#00000000
(1740613366.351404) vcan0 00002004#00000000
(1740613366.351423) vcan0 0000220A#0300
(1740613366.351626) vcan0 00002203#0100
(1740613366.351745) vcan0 00002204#0300
(1740613366.358727) vcan0 00001302#7B0F
(1740613366.358917) vcan0 00002002#00000000
(1740613366.359060) vcan0 00002202#0400
(1740613366.359099) vcan0 00001308#A80F
(1740613366.359676) vcan0 00002008#00000000
(1740613366.359678) vcan0 00002208#0400
(1740613366.430884) vcan0 0000250F#C601
(1740613367.331214) vcan0 00001306#B50F
(1740613367.331216) vcan0 00002006#00000000
(1740613367.331371) vcan0 00002206#0C00
(1740613367.333960) vcan0 00001201#40
(1740613367.334034) vcan0 00001202#40
(1740613367.334073) vcan0 00001203#40
(1740613367.334112) vcan0 00001204#40
(1740613367.334149) vcan0 00001205#40
(1740613367.334184) vcan0 00001206#40
(1740613367.334225) vcan0 00001207#40
(1740613367.334260) vcan0 00001208#40
(1740613367.334313) vcan0 00001209#40
(1740613367.334352) vcan0 0000120A#40
(1740613367.334390) vcan0 0000120B#40
(1740613367.334432) vcan0 0000120C#40
(1740613367.334470) vcan0 00001221#40
(1740613367.334512) vcan0 00001222#40
(1740613367.334554) vcan0 0000120F#C0
(1740613367.337107) vcan0 00001301#B30F
(1740613367.337332) vcan0 00002001#00000000
(1740613367.337498) vcan0 00002201#0400
(1740613367.340468) vcan0 00001305#B50F
(1740613367.340470) vcan0 00002005#00000000
(1740613367.340630) vcan0 00002205#0000
(1740613367.343655) vcan0 00001309#7F0F
(1740613367.343682) vcan0 00002009#00000000
(1740613367.343830) vcan0 00002209#0100
(1740613367.345283) vcan0 0000130C#700F
(1740613367.345285) vcan0 0000200C#00000000
(1740613367.345439) vcan0 0000220C#0100
(1740613367.347057) vcan0 0000130B#B30F
(1740613367.347318) vcan0 0000200B#00000000
(1740613367.347447) vcan0 0000220B#0900
(1740613367.348073) vcan0 00001307#A40F
(1740613367.348075) vcan0 00002007#00000000
(1740613367.348233) vcan0 00002207#0100
(1740613367.350994) vcan0 00001303#8C0F
(1740613367.350996) vcan0 00002003#00000000
(1740613367.351028) vcan0 0000130A#9F0F
(1740613367.351121) vcan0 00001304#950F
(1740613367.351199) vcan0 0000200A#00000000
(1740613367.351345) vcan0 00002004#00000000
(1740613367.351385) vcan0 0000220A#0300
(1740613367.351592) vcan0 00002203#0100
(1740613367.351699) vcan0 00002204#0400
(1740613367.358910) vcan0 00001302#7B0F
(1740613367.358912) vcan0 00002002#00000000
(1740613367.359057) vcan0 00002202#0400
(1740613367.359104) vcan0 00001308#A80F
(1740613367.359342) vcan0 00002008#00000000
(1740613367.359506) vcan0 00002208#0400
(1740613367.430895) vcan0 0000250F#C601
(1740613368.331197) vcan0 00001306#A80F
(1740613368.331199) vcan0 00002006#00000000
(1740613368.331305) vcan0 00002206#0A00
(1740613368.333993) vcan0 00001201#40
(1740613368.334067) vcan0 00001202#40
(1740613368.334106) vcan0 00001203#40
(1740613368.334142) vcan0 00001204#40
(1740613368.334179) vcan0 00001205#40
(1740613368.334215) vcan0 00001206#40
(1740613368.334252) vcan0 00001207#40
(1740613368.334305) vcan0 00001208#40
(1740613368.334350) vcan0 00001209#40
(1740613368.334389) vcan0 0000120A#40
(1740613368.334432) vcan0 0000120B#40
(1740613368.334469) vcan0 0000120C#40
(1740613368.334510) vcan0 00001221#40
(1740613368.334549) vcan0 00001222#40
(1740613368.334581) vcan0 0000120F#C0
(1740613368.337059) vcan0 00001301#B10F
(1740613368.337281) vcan0 00002001#00000000
(1740613368.337488) vcan0 00002201#0600
(1740613368.340442) vcan0 00001305#B50F
(1740613368.340470) vcan0 00002005#00000000
(1740613368.340618) vcan0 00002205#0000
(1740613368.343633) vcan0 00001309#7F0F
(1740613368.343660) vcan0 00002009#00000000
(1740613368.343820) vcan0 00002209#0100
(1740613368.345263) vcan0 0000130C#6D0F
(1740613368.345265) vcan0 0000200C#00000000
(1740613368.345435) vcan0 0000220C#0300
(1740613368.347041) vcan0 0000130B#B30F
(1740613368.347315) vcan0 0000200B#00000000
(1740613368.347435) vcan0 0000220B#0900
(1740613368.347838) vcan0 00001307#A20F
(1740613368.348055) vcan0 00002007#00000000
(1740613368.348218) vcan0 00002207#0000
(1740613368.351218) vcan0 00001303#8C0F
(1740613368.351220) vcan0 00002003#00000000
(1740613368.351223) vcan0 0000130A#9B0F
(1740613368.351225) vcan0 00001304#920F
(1740613368.351269) vcan0 0000200A#00000000
(1740613368.351340) vcan0 00002004#00000000
(1740613368.351376) vcan0 0000220A#0000
(1740613368.351542) vcan0 00002203#0300
(1740613368.351738) vcan0 00002204#0300
(1740613368.358916) vcan0 00001302#7B0F
(1740613368.358919) vcan0 00002002#00000000
(1740613368.359015) vcan0 00002202#0600
(1740613368.359080) vcan0 00001308#A80F
(1740613368.359321) vcan0 00002008#00000000
(1740613368.359494) vcan0 00002208#0400
(1740613368.430879) vcan0 0000250F#C601
(1740613369.331170) vcan0 00001306#AF0F
(1740613369.331173) vcan0 00002006#00000000
(1740613369.331285) vcan0 00002206#0100
(1740613369.333974) vcan0 00001201#40
(1740613369.334047) vcan0 00001202#40
(1740613369.334086) vcan0 00001203#40
(1740613369.334124) vcan0 00001204#40
(1740613369.334161) vcan0 00001205#40
(1740613369.334197) vcan0 00001206#40
(1740613369.334235) vcan0 00001207#40
(1740613369.334285) vcan0 00001208#40
(1740613369.334328) vcan0 00001209#40
(1740613369.334369) vcan0 0000120A#40
(1740613369.334407) vcan0 0000120B#40
(1740613369.334448) vcan0 0000120C#40
(1740613369.334486) vcan0 00001221#40
(1740613369.334525) vcan0 00001222#40
(1740613369.334565) vcan0 0000120F#C0
(1740613369.337049) vcan0 00001301#B30F
(1740613369.337261) vcan0 00002001#00000000
(1740613369.337469) vcan0 00002201#F9FF
(1740613369.340449) vcan0 00001305#BC0F
(1740613369.340451) vcan0 00002005#00000000
(1740613369.340618) vcan0 00002205#FEFF
(1740613369.343641) vcan0 00001309#830F
(1740613369.343643) vcan0 00002009#00000000
(1740613369.343794) vcan0 00002209#FBFF
(1740613369.345222) vcan0 0000130C#720F
(1740613369.345248) vcan0 0000200C#00000000
(1740613369.345386) vcan0 0000220C#FCFF
(1740613369.347083) vcan0 0000130B#B50F
(1740613369.347224) vcan0 0000200B#00000000
(1740613369.347399) vcan0 0000220B#FEFF
(1740613369.348039) vcan0 00001307#A60F
(1740613369.348041) vcan0 00002007#00000000
(1740613369.348202) vcan0 00002207#FCFF
(1740613369.351123) vcan0 00001303#920F
(1740613369.351125) vcan0 00002003#00000000
(1740613369.351128) vcan0 0000130A#A60F
(1740613369.351177) vcan0 00001304#9B0F
(1740613369.351179) vcan0 0000200A#00000000
(1740613369.351334) vcan0 00002004#00000000
(1740613369.351358) vcan0 0000220A#FCFF
(1740613369.351523) vcan0 00002203#FCFF
(1740613369.351720) vcan0 00002204#0000
(1740613369.358896) vcan0 00001302#810F
(1740613369.358898) vcan0 00002002#00000000
(1740613369.359041) vcan0 00002202#0000
(1740613369.359072) vcan0 00001308#A80F
(1740613369.359305) vcan0 00002008#00000000
(1740613369.359486) vcan0 00002208#F9FF
(1740613369.430902) vcan0 0000250F#C601
(1740613370.331165) vcan0 00001306#AD0F
(1740613370.331167) vcan0 00002006#00000000
(1740613370.331268) vcan0 00002206#0100
(1740613370.333983) vcan0 00001201#40
(1740613370.334057) vcan0 00001202#40
(1740613370.334096) vcan0 00001203#40
(1740613370.334134) vcan0 00001204#40
(1740613370.334171) vcan0 00001205#40
(1740613370.334208) vcan0 00001206#40
(1740613370.334245) vcan0 00001207#40
(1740613370.334283) vcan0 00001208#40
(1740613370.334322) vcan0 00001209#40
(1740613370.334361) vcan0 0000120A#40
(1740613370.334400) vcan0 0000120B#40
(1740613370.334439) vcan0 0000120C#40
(1740613370.334477) vcan0 00001221#40
(1740613370.334515) vcan0 00001222#40
(1740613370.334555) vcan0 0000120F#C0
(1740613370.337033) vcan0 00001301#B30F
(1740613370.337245) vcan0 00002001#00000000
(1740613370.337453) vcan0 00002201#F9FF
(1740613370.340416) vcan0 00001305#BA0F
(1740613370.340418) vcan0 00002005#00000000
(1740613370.340612) vcan0 00002205#FBFF
(1740613370.343602) vcan0 00001309#830F
(1740613370.343629) vcan0 00002009#00000000
(1740613370.343777) vcan0 00002209#FCFF
(1740613370.345206) vcan0 0000130C#720F
(1740613370.345208) vcan0 0000200C#00000000
(1740613370.345370) vcan0 0000220C#FCFF
(1740613370.346980) vcan0 0000130B#B30F
(1740613370.347211) vcan0 0000200B#00000000
(1740613370.347383) vcan0 0000220B#FBFF
(1740613370.348034) vcan0 00001307#A80F
(1740613370.348036) vcan0 00002007#00000000
(1740613370.348189) vcan0 00002207#FEFF
(1740613370.350748) vcan0 00001303#920F
(1740613370.350928) vcan0 00002003#00000000
(1740613370.350956) vcan0 0000130A#A40F
(1740613370.351087) vcan0 00001304#990F
(1740613370.351183) vcan0 0000200A#00000000
(1740613370.351333) vcan0 00002004#00000000
(1740613370.351351) vcan0 0000220A#FEFF
(1740613370.351515) vcan0 00002203#FBFF
(1740613370.351678) vcan0 00002204#0000
(1740613370.358674) vcan0 00001302#7F0F
(1740613370.358837) vcan0 00002002#00000000
(1740613370.359037) vcan0 00002202#0000
(1740613370.359057) vcan0 00001308#AA0F
(1740613370.359621) vcan0 00002008#00000000
(1740613370.359623) vcan0 00002208#F7FF
(1740613370.430877) vcan0 0000250F#C601
(1740613371.331132) vcan0 00001306#AD0F
(1740613371.331134) vcan0 00002006#00000000
(1740613371.331276) vcan0 00002206#0000
(1740613371.333868) vcan0 00001201#40
(1740613371.333942) vcan0 00001202#40
(1740613371.333981) vcan0 00001203#40
(1740613371.334021) vcan0 00001204#40
(1740613371.334059) vcan0 00001205#40
(1740613371.334095) vcan0 00001206#40
(1740613371.334132) vcan0 00001207#40
(1740613371.334179) vcan0 00001208#40
(1740613371.334216) vcan0 00001209#40
(1740613371.334259) vcan0 0000120A#40
(1740613371.334297) vcan0 0000120B#40
(1740613371.334335) vcan0 0000120C#40
(1740613371.334377) vcan0 00001221#40
(1740613371.334419) vcan0 00001222#40
(1740613371.334451) vcan0 0000120F#C0
(1740613371.337007) vcan0 00001301#B30F
(1740613371.337230) vcan0 00002001#00000000
(1740613371.337438) vcan0 00002201#F9FF
(1740613371.340393) vcan0 00001305#BA0F
(1740613371.340395) vcan0 00002005#00000000
(1740613371.340606) vcan0 00002205#F9FF
(1740613371.343603) vcan0 00001309#830F
(1740613371.343630) vcan0 00002009#00000000
(1740613371.343754) vcan0 00002209#FCFF
(1740613371.345176) vcan0 0000130C#740F
(1740613371.345202) vcan0 0000200C#00000000
(1740613371.345350) vcan0 0000220C#FCFF
(1740613371.346968) vcan0 0000130B#B50F
(1740613371.347198) vcan0 0000200B#00000000
(1740613371.347361) vcan0 0000220B#FCFF
(1740613371.348120) vcan0 00001307#A80F
(1740613371.348122) vcan0 00002007#00000000
(1740613371.348158) vcan0 00002207#FEFF
(1740613371.350959) vcan0 00001303#900F
(1740613371.350961) vcan0 00002003#00000000
(1740613371.350998) vcan0 0000130A#A40F
(1740613371.351068) vcan0 00001304#990F
(1740613371.351119) vcan0 0000200A#00000000
(1740613371.351321) vcan0 00002004#00000000
(1740613371.351323) vcan0 0000220A#FEFF
(1740613371.351476) vcan0 00002203#FBFF
(1740613371.351647) vcan0 00002204#FEFF
(1740613371.358866) vcan0 00001302#7F0F
(1740613371.358868) vcan0 00002002#00000000
(1740613371.358977) vcan0 00002202#0100
(1740613371.359035) vcan0 00001308#A80F
(1740613371.359274) vcan0 00002008#00000000
(1740613371.359447) vcan0 00002208#F9FF
(1740613371.430880) vcan0 0000250F#C601
(1740613372.331112) vcan0 00001306#AD0F
(1740613372.331114) vcan0 00002006#00000000
(1740613372.331230) vcan0 00002206#0000
(1740613372.333931) vcan0 00001201#40
(1740613372.334005) vcan0 00001202#40
(1740613372.334043) vcan0 00001203#40
(1740613372.334081) vcan0 00001204#40
(1740613372.334117) vcan0 00001205#40
(1740613372.334153) vcan0 00001206#40
(1740613372.334191) vcan0 00001207#40
(1740613372.334252) vcan0 00001208#40
(1740613372.334291) vcan0 00001209#40
(1740613372.334332) vcan0 0000120A#40
(1740613372.334371) vcan0 0000120B#40
(1740613372.334409) vcan0 0000120C#40
(1740613372.334448) vcan0 00001221#40
(1740613372.334489) vcan0 00001222#40
(1740613372.334529) vcan0 0000120F#C0
(1740613372.336992) vcan0 00001301#B50F
(1740613372.337203) vcan0 00002001#00000000
(1740613372.337412) vcan0 00002201#FBFF
(1740613372.340389) vcan0 00001305#BA0F
(1740613372.340391) vcan0 00002005#00000000
(1740613372.340540) vcan0 00002205#FCFF
(1740613372.343573) vcan0 00001309#830F
(1740613372.343605) vcan0 00002009#00000000
(1740613372.343733) vcan0 00002209#FCFF
(1740613372.345166) vcan0 0000130C#720F
(1740613372.345168) vcan0 0000200C#00000000
(1740613372.345336) vcan0 0000220C#FCFF
(1740613372.346963) vcan0 0000130B#B50F
(1740613372.347188) vcan0 0000200B#00000000
(1740613372.347345) vcan0 0000220B#FEFF
(1740613372.348031) vcan0 00001307#A40F
(1740613372.348033) vcan0 00002007#00000000
(1740613372.348138) vcan0 00002207#FCFF
(1740613372.350906) vcan0 00001303#900F
(1740613372.350908) vcan0 00002003#00000000
(1740613372.350940) vcan0 0000130A#A40F
(1740613372.351043) vcan0 00001304#970F
(1740613372.351105) vcan0 0000200A#00000000
(1740613372.351289) vcan0 00002004#00000000
(1740613372.351313) vcan0 0000220A#FCFF
(1740613372.351454) vcan0 00002203#FCFF
(1740613372.351667) vcan0 00002204#FEFF
(1740613372.358865) vcan0 00001302#7F0F
(1740613372.358867) vcan0 00002002#00000000
(1740613372.358977) vcan0 00002202#0000
(1740613372.359022) vcan0 00001308#A80F
(1740613372.359275) vcan0 00002008#00000000
(1740613372.359430) vcan0 00002208#F9FF
(1740613372.430953) vcan0 0000250F#C601
(1740613373.331089) vcan0 00001306#AD0F
(1740613373.331092) vcan0 00002006#00000000
(1740613373.331207) vcan0 00002206#FEFF
(1740613373.333893) vcan0 00001201#40
(1740613373.333967) vcan0 00001202#40
(1740613373.334005) vcan0 00001203#40
(1740613373.334042) vcan0 00001204#40
(1740613373.334079) vcan0 00001205#40
(1740613373.334116) vcan0 00001206#40
(1740613373.334152) vcan0 00001207#40
(1740613373.334213) vcan0 00001208#40
(1740613373.334254) vcan0 00001209#40
(1740613373.334294) vcan0 0000120A#40
(1740613373.334331) vcan0 0000120B#40
(1740613373.334370) vcan0 0000120C#40
(1740613373.334408) vcan0 00001221#40
(1740613373.334447) vcan0 00001222#40
(1740613373.334489) vcan0 0000120F#C0
(1740613373.336970) vcan0 00001301#B30F
(1740613373.337183) vcan0 00002001#00000000
(1740613373.337391) vcan0 00002201#F9FF
(1740613373.340365) vcan0 00001305#BE0F
(1740613373.340367) vcan0 00002005#00000000
(1740613373.340524) vcan0 00002205#FCFF
(1740613373.343564) vcan0 00001309#810F
(1740613373.343566) vcan0 00002009#00000000
(1740613373.343723) vcan0 00002209#FCFF
(1740613373.345152) vcan0 0000130C#720F
(1740613373.345155) vcan0 0000200C#00000000
(1740613373.345318) vcan0 0000220C#FCFF
(1740613373.346955) vcan0 0000130B#B30F
(1740613373.347164) vcan0 0000200B#00000000
(1740613373.347332) vcan0 0000220B#FCFF
(1740613373.347965) vcan0 00001307#A80F
(1740613373.347967) vcan0 00002007#00000000
(1740613373.348135) vcan0 00002207#FEFF
(1740613373.350879) vcan0 00001303#900F
(1740613373.350934) vcan0 00002003#00000000
(1740613373.350936) vcan0 0000130A#A40F
(1740613373.351021) vcan0 00001304#990F
(1740613373.351083) vcan0 0000200A#00000000
(1740613373.351293) vcan0 00002004#00000000
(1740613373.351295) vcan0 0000220A#0100
(1740613373.351432) vcan0 00002203#FBFF
(1740613373.351655) vcan0 00002204#FEFF
(1740613373.358865) vcan0 00001302#7F0F
(1740613373.358867) vcan0 00002002#00000000
(1740613373.358959) vcan0 00002202#0100
(1740613373.358999) vcan0 00001308#A40F
(1740613373.359243) vcan0 00002008#00000000
(1740613373.359424) vcan0 00002208#F7FF
(1740613373.430856) vcan0 0000250F#C601
(1740613374.331069) vcan0 00001306#AD0F
(1740613374.331071) vcan0 00002006#00000000
(1740613374.331180) vcan0 00002206#FEFF
(1740613374.333888) vcan0 00001201#40
(1740613374.333961) vcan0 00001202#40
(1740613374.334001) vcan0 00001203#40
(1740613374.334040) vcan0 00001204#40
(1740613374.334078) vcan0 00001205#40
(1740613374.334115) vcan0 00001206#40
(1740613374.334152) vcan0 00001207#40
(1740613374.334200) vcan0 00001208#40
(1740613374.334247) vcan0 00001209#40
(1740613374.334288) vcan0 0000120A#40
(1740613374.334328) vcan0 0000120B#40
(1740613374.334366) vcan0 0000120C#40
(1740613374.334407) vcan0 00001221#40
(1740613374.334446) vcan0 00001222#40
(1740613374.334482) vcan0 0000120F#C0
(1740613374.336950) vcan0 00001301#B30F
(1740613374.337173) vcan0 00002001#00000000
(1740613374.337382) vcan0 00002201#FBFF
(1740613374.340343) vcan0 00001305#BC0F
(1740613374.340345) vcan0 00002005#00000000
(1740613374.340501) vcan0 00002205#FCFF
(1740613374.343533) vcan0 00001309#830F
(1740613374.343535) vcan0 00002009#00000000
(1740613374.343702) vcan0 00002209#FCFF
(1740613374.345130) vcan0 0000130C#720F
(1740613374.345132) vcan0 0000200C#00000000
(1740613374.345292) vcan0 0000220C#FCFF
(1740613374.346957) vcan0 0000130B#B50F
(1740613374.347154) vcan0 0000200B#00000000
(1740613374.347322) vcan0 0000220B#FCFF
(1740613374.348099) vcan0 00001307#A80F
(1740613374.348101) vcan0 00002007#00000000
(1740613374.348132) vcan0 00002207#FCFF
(1740613374.350651) vcan0 00001303#900F
(1740613374.350851) vcan0 00002003#00000000
(1740613374.350902) vcan0 0000130A#A40F
(1740613374.351009) vcan0 00001304#990F
(1740613374.351077) vcan0 0000200A#00000000
(1740613374.351254) vcan0 00002004#00000000
(1740613374.351277) vcan0 0000220A#FCFF
(1740613374.351450) vcan0 00002203#FBFF
(1740613374.351609) vcan0 00002204#0000
(1740613374.358711) vcan0 00001302#810F
(1740613374.358751) vcan0 00002002#00000000
(1740613374.358940) vcan0 00002202#0100
(1740613374.358983) vcan0 00001308#A80F
(1740613374.359229) vcan0 00002008#00000000
(1740613374.359413) vcan0 00002208#F9FF
(1740613374.430845) vcan0 0000250F#C601
(1740613375.331048) vcan0 00001306#AD0F
(1740613375.331050) vcan0 00002006#00000000
(1740613375.331166) vcan0 00002206#0000
(1740613375.334129) vcan0 00001201#40
(1740613375.334202) vcan0 00001202#40
(1740613375.334241) vcan0 00001203#40
(1740613375.334279) vcan0 00001204#40
(1740613375.334315) vcan0 00001205#40
(1740613375.334351) vcan0 00001206#40
(1740613375.334390) vcan0 00001207#40
(1740613375.334426) vcan0 00001208#40
(1740613375.334464) vcan0 00001209#40
(1740613375.334500) vcan0 0000120A#40
(1740613375.334537) vcan0 0000120B#40
(1740613375.334562) vcan0 0000120C#40
(1740613375.334585) vcan0 00001221#40
(1740613375.334606) vcan0 00001222#40
(1740613375.334638) vcan0 0000120F#C0
(1740613375.337016) vcan0 00001301#B80F
(1740613375.337227) vcan0 00002001#00000000
(1740613375.337394) vcan0 00002201#F9FF
(1740613375.340468) vcan0 00001305#BA0F
(1740613375.340470) vcan0 00002005#00000000
(1740613375.340501) vcan0 00002205#FBFF
(1740613375.343605) vcan0 00001309#810F
(1740613375.343608) vcan0 00002009#00000000
(1740613375.343663) vcan0 00002209#FCFF
(1740613375.345133) vcan0 0000130C#720F
(1740613375.345136) vcan0 0000200C#00000000
(1740613375.345299) vcan0 0000220C#FCFF
(1740613375.346950) vcan0 0000130B#B50F
(1740613375.347115) vcan0 0000200B#00000000
(1740613375.347291) vcan0 0000220B#FEFF
(1740613375.347925) vcan0 00001307#A60F
(1740613375.347953) vcan0 00002007#00000000
(1740613375.348111) vcan0 00002207#FEFF
(1740613375.350849) vcan0 00001303#920F
(1740613375.350886) vcan0 00002003#00000000
(1740613375.350889) vcan0 0000130A#A20F
(1740613375.351003) vcan0 00001304#990F
(1740613375.351044) vcan0 0000200A#00000000
(1740613375.351259) vcan0 00002004#00000000
(1740613375.351261) vcan0 0000220A#FEFF
(1740613375.351412) vcan0 00002203#FBFF
(1740613375.351625) vcan0 00002204#FEFF
(1740613375.358788) vcan0 00001302#7F0F
(1740613375.358790) vcan0 00002002#00000000
(1740613375.358962) vcan0 00002202#0000
(1740613375.358986) vcan0 00001308#A80F
(1740613375.359220) vcan0 00002008#00000000
(1740613375.359382) vcan0 00002208#F9FF
(1740613375.430846) vcan0 0000250F#C601
(1740613376.331029) vcan0 00001306#AD0F
(1740613376.331031) vcan0 00002006#00000000
(1740613376.331182) vcan0 00002206#FEFF
(1740613376.333756) vcan0 00001201#40
(1740613376.333863) vcan0 00001202#40
(1740613376.333911) vcan0 00001203#40
(1740613376.333949) vcan0 00001204#40
(1740613376.333985) vcan0 00001205#40
(1740613376.334021) vcan0 00001206#40
(1740613376.334057) vcan0 00001207#40
(1740613376.334110) vcan0 00001208#40
(1740613376.334148) vcan0 00001209#40
(1740613376.334185) vcan0 0000120A#40
(1740613376.334228) vcan0 0000120B#40
(1740613376.334266) vcan0 0000120C#40
(1740613376.334304) vcan0 00001221#40
(1740613376.334343) vcan0 00001222#40
(1740613376.334382) vcan0 0000120F#C0
(1740613376.336947) vcan0 00001301#B30F
(1740613376.337226) vcan0 00002001#00000000
(1740613376.337339) vcan0 00002201#F9FF
(1740613376.340293) vcan0 00001305#BA0F
(1740613376.340295) vcan0 00002005#00000000
(1740613376.340484) vcan0 00002205#FBFF
(1740613376.343561) vcan0 00001309#830F
(1740613376.343564) vcan0 00002009#00000000
(1740613376.343648) vcan0 00002209#FCFF
(1740613376.345120) vcan0 0000130C#720F
(1740613376.345122) vcan0 0000200C#00000000
(1740613376.345270) vcan0 0000220C#FEFF
(1740613376.346944) vcan0 0000130B#B50F
(1740613376.347110) vcan0 0000200B#00000000
(1740613376.347286) vcan0 0000220B#FCFF
(1740613376.347936) vcan0 00001307#A60F
(1740613376.347938) vcan0 00002007#00000000
(1740613376.348106) vcan0 00002207#FEFF
(1740613376.350866) vcan0 00001303#900F
(1740613376.350869) vcan0 00002003#00000000
(1740613376.350953) vcan0 0000130A#A40F
(1740613376.350982) vcan0 00001304#990F
(1740613376.351031) vcan0 0000200A#00000000
(1740613376.351234) vcan0 00002004#00000000
(1740613376.351237) vcan0 0000220A#FEFF
(1740613376.351404) vcan0 00002203#FCFF
(1740613376.351640) vcan0 00002204#FEFF
(1740613376.358771) vcan0 00001302#810F
(1740613376.358773) vcan0 00002002#00000000
(1740613376.358947) vcan0 00002202#0000
(1740613376.358969) vcan0 00001308#A80F
(1740613376.359204) vcan0 00002008#00000000
(1740613376.359384) vcan0 00002208#F9FF
(1740613376.430840) vcan0 0000250F#C601
(1740613377.331031) vcan0 00001306#AA0F
(1740613377.331034) vcan0 00002006#00000000
(1740613377.331126) vcan0 00002206#0000
(1740613377.333870) vcan0 00001201#40
(1740613377.333967) vcan0 00001202#40
(1740613377.334012) vcan0 00001203#40
(1740613377.334049) vcan0 00001204#40
(1740613377.334085) vcan0 00001205#40
(1740613377.334121) vcan0 00001206#40
(1740613377.334170) vcan0 00001207#40
(1740613377.334208) vcan0 00001208#40
(1740613377.334251) vcan0 00001209#40
(1740613377.334297) vcan0 0000120A#40
(1740613377.334337) vcan0 0000120B#40
(1740613377.334375) vcan0 0000120C#40
(1740613377.334414) vcan0 00001221#40
(1740613377.334454) vcan0 00001222#40
(1740613377.334494) vcan0 0000120F#C0
(1740613377.336926) vcan0 00001301#B50F
(1740613377.337134) vcan0 00002001#00000000
(1740613377.337319) vcan0 00002201#FBFF
(1740613377.340407) vcan0 00001305#B80F
(1740613377.340409) vcan0 00002005#00000000
(1740613377.340445) vcan0 00002205#FCFF
(1740613377.343296) vcan0 00001309#810F
(1740613377.343474) vcan0 00002009#00000000
(1740613377.343647) vcan0 00002209#FCFF
(1740613377.345077) vcan0 0000130C#720F
(1740613377.345079) vcan0 0000200C#00000000
(1740613377.345249) vcan0 0000220C#FCFF
(1740613377.346893) vcan0 0000130B#B80F
(1740613377.347098) vcan0 0000200B#00000000
(1740613377.347275) vcan0 0000220B#FEFF
(1740613377.347920) vcan0 00001307#A40F
(1740613377.347922) vcan0 00002007#00000000
(1740613377.348079) vcan0 00002207#FCFF
(1740613377.350879) vcan0 00001303#900F
(1740613377.350882) vcan0 00002003#00000000
(1740613377.350884) vcan0 0000130A#A20F
(1740613377.350957) vcan0 00001304#990F
(1740613377.351014) vcan0 0000200A#00000000
(1740613377.351219) vcan0 00002004#00000000
(1740613377.351221) vcan0 0000220A#FCFF
(1740613377.351399) vcan0 00002203#FCFF
(1740613377.351636) vcan0 00002204#FEFF
(1740613377.358769) vcan0 00001302#810F
(1740613377.358771) vcan0 00002002#00000000
(1740613377.358949) vcan0 00002202#0100
(1740613377.358952) vcan0 00001308#A80F
(1740613377.359189) vcan0 00002008#00000000
(1740613377.359370) vcan0 00002208#F9FF
(1740613377.430841) vcan0 0000250F#C601
(1740613378.330996) vcan0 00001306#AF0F
(1740613378.330998) vcan0 00002006#00000000
(1740613378.331100) vcan0 00002206#0000
(1740613378.333815) vcan0 00001201#40
(1740613378.333912) vcan0 00001202#40
(1740613378.333958) vcan0 00001203#40
(1740613378.333996) vcan0 00001204#40
(1740613378.334033) vcan0 00001205#40
(1740613378.334070) vcan0 00001206#40
(1740613378.334117) vcan0 00001207#40
(1740613378.334154) vcan0 00001208#40
(1740613378.334197) vcan0 00001209#40
(1740613378.334235) vcan0 0000120A#40
(1740613378.334274) vcan0 0000120B#40
(1740613378.334312) vcan0 0000120C#40
(1740613378.334350) vcan0 00001221#40
(1740613378.334400) vcan0 00001222#40
(1740613378.334438) vcan0 0000120F#C0
(1740613378.336905) vcan0 00001301#B30F
(1740613378.337114) vcan0 00002001#00000000
(1740613378.337298) vcan0 00002201#FCFF
(1740613378.340266) vcan0 00001305#BA0F
(1740613378.340268) vcan0 00002005#00000000
(1740613378.340443) vcan0 00002205#FBFF
(1740613378.343533) vcan0 00001309#830F
(1740613378.343535) vcan0 00002009#00000000
(1740613378.343621) vcan0 00002209#FCFF
(1740613378.345056) vcan0 0000130C#720F
(1740613378.345058) vcan0 0000200C#00000000
(1740613378.345231) vcan0 0000220C#FCFF
(1740613378.346855) vcan0 0000130B#B50F
(1740613378.347071) vcan0 0000200B#00000000
(1740613378.347246) vcan0 0000220B#FCFF
(1740613378.347889) vcan0 00001307#A60F
(1740613378.347891) vcan0 00002007#00000000
(1740613378.348062) vcan0 00002207#FEFF
(1740613378.350681) vcan0 00001303#920F
(1740613378.350780) vcan0 00002003#00000000
(1740613378.350829) vcan0 0000130A#A20F
(1740613378.350942) vcan0 00001304#990F
(1740613378.351004) vcan0 0000200A#00000000
(1740613378.351213) vcan0 00002004#00000000
(1740613378.351215) vcan0 0000220A#FCFF
(1740613378.351359) vcan0 00002203#FCFF
(1740613378.351559) vcan0 00002204#0000
(1740613378.358648) vcan0 00001302#7F0F
(1740613378.358700) vcan0 00002002#00000000
(1740613378.358938) vcan0 00002202#0000
(1740613378.358941) vcan0 00001308#A80F
(1740613378.359168) vcan0 00002008#00000000
(1740613378.359339) vcan0 00002208#F9FF
(1740613378.430831) vcan0 0000250F#C601
(1740613379.330960) vcan0 00001306#AD0F
(1740613379.330962) vcan0 00002006#00000000
(1740613379.331103) vcan0 00002206#0000
(1740613379.333774) vcan0 00001201#40
(1740613379.333847) vcan0 00001202#40
(1740613379.333886) vcan0 00001203#40
(1740613379.333924) vcan0 00001204#40
(1740613379.333961) vcan0 00001205#40
(1740613379.333998) vcan0 00001206#40
(1740613379.334035) vcan0 00001207#40
(1740613379.334070) vcan0 00001208#40
(1740613379.334112) vcan0 00001209#40
(1740613379.334147) vcan0 0000120A#40
(1740613379.334183) vcan0 0000120B#40
(1740613379.334208) vcan0 0000120C#40
(1740613379.334232) vcan0 00001221#40
(1740613379.334253) vcan0 00001222#40
(1740613379.334274) vcan0 0000120F#C0
(1740613379.336884) vcan0 00001301#B30F
(1740613379.337104) vcan0 00002001#00000000
(1740613379.337270) vcan0 00002201#FBFF
(1740613379.340255) vcan0 00001305#BA0F
(1740613379.340257) vcan0 00002005#00000000
(1740613379.340425) vcan0 00002205#FBFF
(1740613379.343259) vcan0 00001309#810F
(1740613379.343431) vcan0 00002009#00000000
(1740613379.343628) vcan0 00002209#FCFF
(1740613379.345105) vcan0 0000130C#720F
(1740613379.345108) vcan0 0000200C#00000000
(1740613379.345173) vcan0 0000220C#FCFF
(1740613379.346841) vcan0 0000130B#B80F
(1740613379.347142) vcan0 0000200B#00000000
(1740613379.347460) vcan0 0000220B#FEFF
(1740613379.347644) vcan0 00001307#A80F
(1740613379.347876) vcan0 00002007#00000000
(1740613379.348033) vcan0 00002207#FCFF
(1740613379.350821) vcan0 00001303#900F
(1740613379.350823) vcan0 00002003#00000000
(1740613379.350862) vcan0 0000130A#A20F
(1740613379.350929) vcan0 00001304#990F
(1740613379.350988) vcan0 0000200A#00000000
(1740613379.351189) vcan0 00002004#00000000
(1740613379.351192) vcan0 0000220A#FCFF
(1740613379.351329) vcan0 00002203#FBFF
(1740613379.351553) vcan0 00002204#FEFF
(1740613379.358740) vcan0 00001302#7F0F
(1740613379.358742) vcan0 00002002#00000000
(1740613379.358905) vcan0 00002202#0100
(1740613379.358929) vcan0 00001308#A80F
(1740613379.359152) vcan0 00002008#00000000
(1740613379.359332) vcan0 00002208#F9FF
(1740613379.430837) vcan0 0000250F#C601
(1740613380.331091) vcan0 00001306#AF0F
(1740613380.331093) vcan0 00002006#00000000
(1740613380.331130) vcan0 00002206#0100
(1740613380.333842) vcan0 00001201#40
(1740613380.333915) vcan0 00001202#40
(1740613380.333954) vcan0 00001203#40
(1740613380.333992) vcan0 00001204#40
(1740613380.334029) vcan0 00001205#40
(1740613380.334065) vcan0 00001206#40
(1740613380.334102) vcan0 00001207#40
(1740613380.334139) vcan0 00001208#40
(1740613380.334211) vcan0 00001209#40
(1740613380.334252) vcan0 0000120A#40
(1740613380.334290) vcan0 0000120B#40
(1740613380.334330) vcan0 0000120C#40
(1740613380.334368) vcan0 00001221#40
(1740613380.334407) vcan0 00001222#40
(1740613380.334446) vcan0 0000120F#C0
(1740613380.336835) vcan0 00001301#B50F
(1740613380.337046) vcan0 00002001#00000000
(1740613380.337255) vcan0 00002201#FBFF
(1740613380.340216) vcan0 00001305#B80F
(1740613380.340243) vcan0 00002005#00000000
(1740613380.340376) vcan0 00002205#FBFF
(1740613380.343234) vcan0 00001309#830F
(1740613380.343410) vcan0 00002009#00000000
(1740613380.343630) vcan0 00002209#FEFF
(1740613380.345036) vcan0 0000130C#720F
(1740613380.345038) vcan0 0000200C#00000000
(1740613380.345183) vcan0 0000220C#FCFF
(1740613380.346819) vcan0 0000130B#B50F
(1740613380.347294) vcan0 0000200B#00000000
(1740613380.347297) vcan0 0000220B#FCFF
(1740613380.347969) vcan0 00001307#A60F
(1740613380.347971) vcan0 00002007#00000000
(1740613380.348008) vcan0 00002207#FCFF
(1740613380.350775) vcan0 00001303#900F
(1740613380.350777) vcan0 00002003#00000000
(1740613380.350808) vcan0 0000130A#A40F
(1740613380.350911) vcan0 00001304#970F
(1740613380.350959) vcan0 0000200A#00000000
(1740613380.351168) vcan0 00002004#00000000
(1740613380.351171) vcan0 0000220A#FEFF
(1740613380.351327) vcan0 00002203#FCFF
(1740613380.351527) vcan0 00002204#0000
(1740613380.358723) vcan0 00001302#7F0F
(1740613380.358725) vcan0 00002002#00000000
(1740613380.358914) vcan0 00002202#0000
(1740613380.358938) vcan0 00001308#A80F
(1740613380.359142) vcan0 00002008#00000000
(1740613380.359308) vcan0 00002208#FBFF
(1740613380.430830) vcan0 0000250F#C601
(1740613381.331000) vcan0 00001306#AF0F
(1740613381.331003) vcan0 00002006#00000000
(1740613381.331045) vcan0 00002206#0000
(1740613381.333819) vcan0 00001201#40
(1740613381.333893) vcan0 00001202#40
(1740613381.333931) vcan0 00001203#40
(1740613381.333970) vcan0 00001204#40
(1740613381.334006) vcan0 00001205#40
(1740613381.334042) vcan0 00001206#40
(1740613381.334078) vcan0 00001207#40
(1740613381.334124) vcan0 00001208#40
(1740613381.334161) vcan0 00001209#40
(1740613381.334200) vcan0 0000120A#40
(1740613381.334238) vcan0 0000120B#40
(1740613381.334276) vcan0 0000120C#40
(1740613381.334316) vcan0 00001221#40
(1740613381.334355) vcan0 00001222#40
(1740613381.334391) vcan0 0000120F#C0
(1740613381.336820) vcan0 00001301#B30F
(1740613381.337041) vcan0 00002001#00000000
(1740613381.337241) vcan0 00002201#FBFF
(1740613381.340199) vcan0 00001305#BA0F
(1740613381.340225) vcan0 00002005#00000000
(1740613381.340372) vcan0 00002205#FBFF
(1740613381.343234) vcan0 00001309#830F
(1740613381.343399) vcan0 00002009#00000000
(1740613381.343637) vcan0 00002209#FCFF
(1740613381.344995) vcan0 0000130C#740F
(1740613381.344997) vcan0 0000200C#00000000
(1740613381.345154) vcan0 0000220C#FEFF
(1740613381.346805) vcan0 0000130B#B30F
(1740613381.347209) vcan0 0000200B#00000000
(1740613381.347212) vcan0 0000220B#FEFF
(1740613381.347889) vcan0 00001307#A80F
(1740613381.347891) vcan0 00002007#00000000
(1740613381.347984) vcan0 00002207#FEFF
(1740613381.350763) vcan0 00001303#8E0F
(1740613381.350765) vcan0 00002003#00000000
(1740613381.350798) vcan0 0000130A#A20F
(1740613381.350924) vcan0 00001304#990F
(1740613381.350951) vcan0 0000200A#00000000
(1740613381.351154) vcan0 00002004#00000000
(1740613381.351156) vcan0 0000220A#FCFF
(1740613381.351309) vcan0 00002203#FBFF
(1740613381.351521) vcan0 00002204#0000
(1740613381.358473) vcan0 00001302#7F0F
(1740613381.358726) vcan0 00002002#00000000
(1740613381.358874) vcan0 00002202#0000
(1740613381.358914) vcan0 00001308#A80F
(1740613381.359133) vcan0 00002008#00000000
(1740613381.359291) vcan0 00002208#F7FF
(1740613381.430855) vcan0 0000250F#C601
(1740613382.330894) vcan0 00001306#AD0F
(1740613382.330896) vcan0 00002006#00000000
(1740613382.331046) vcan0 00002206#0000
(1740613382.333718) vcan0 00001201#40
(1740613382.333793) vcan0 00001202#40
(1740613382.333832) vcan0 00001203#40
(1740613382.333872) vcan0 00001204#40
(1740613382.333908) vcan0 00001205#40
(1740613382.333945) vcan0 00001206#40
(1740613382.333981) vcan0 00001207#40
(1740613382.334045) vcan0 00001208#40
(1740613382.334083) vcan0 00001209#40
(1740613382.334128) vcan0 0000120A#40
(1740613382.334166) vcan0 0000120B#40
(1740613382.334207) vcan0 0000120C#40
(1740613382.334245) vcan0 00001221#40
(1740613382.334284) vcan0 00001222#40
(1740613382.334323) vcan0 0000120F#C0
(1740613382.336792) vcan0 00001301#B30F
(1740613382.337016) vcan0 00002001#00000000
(1740613382.337225) vcan0 00002201#F9FF
(1740613382.340174) vcan0 00001305#B80F
(1740613382.340201) vcan0 00002005#00000000
(1740613382.340350) vcan0 00002205#FBFF
(1740613382.343547) vcan0 00001309#810F
(1740613382.343549) vcan0 00002009#00000000
(1740613382.343585) vcan0 00002209#FBFF
(1740613382.345007) vcan0 0000130C#720F
(1740613382.345009) vcan0 0000200C#00000000
(1740613382.345152) vcan0 0000220C#FEFF
(1740613382.346783) vcan0 0000130B#B50F
(1740613382.347092) vcan0 0000200B#00000000
(1740613382.347190) vcan0 0000220B#FEFF
(1740613382.347837) vcan0 00001307#A60F
(1740613382.347839) vcan0 00002007#00000000
(1740613382.347980) vcan0 00002207#FCFF
(1740613382.350653) vcan0 00001303#920F
(1740613382.350709) vcan0 00002003#00000000
(1740613382.350754) vcan0 0000130A#A40F
(1740613382.350930) vcan0 00001304#990F
(1740613382.350947) vcan0 0000200A#00000000
(1740613382.351126) vcan0 00002004#00000000
(1740613382.351160) vcan0 0000220A#FCFF
(1740613382.351296) vcan0 00002203#FCFF
(1740613382.351469) vcan0 00002204#FEFF
(1740613382.358647) vcan0 00001302#7F0F
(1740613382.358681) vcan0 00002002#00000000
(1740613382.358827) vcan0 00002202#0000
(1740613382.358867) vcan0 00001308#AA0F
(1740613382.359114) vcan0 00002008#00000000
(1740613382.359271) vcan0 00002208#F9FF
(1740613382.430824) vcan0 0000250F#C601
(1740613383.330893) vcan0 00001306#AD0F
(1740613383.330895) vcan0 00002006#00000000
(1740613383.330985) vcan0 00002206#0100
(1740613383.333715) vcan0 00001201#40
(1740613383.333791) vcan0 00001202#40
(1740613383.333831) vcan0 00001203#40
(1740613383.333868) vcan0 00001204#40
(1740613383.333905) vcan0 00001205#40
(1740613383.333942) vcan0 00001206#40
(1740613383.333978) vcan0 00001207#40
(1740613383.334028) vcan0 00001208#40
(1740613383.334068) vcan0 00001209#40
(1740613383.334112) vcan0 0000120A#40
(1740613383.334154) vcan0 0000120B#40
(1740613383.334197) vcan0 0000120C#40
(1740613383.334236) vcan0 00001221#40
(1740613383.334272) vcan0 00001222#40
(1740613383.334313) vcan0 0000120F#C0
(1740613383.336779) vcan0 00001301#B50F
(1740613383.336990) vcan0 00002001#00000000
(1740613383.337209) vcan0 00002201#FBFF
(1740613383.340168) vcan0 00001305#BA0F
(1740613383.340195) vcan0 00002005#00000000
(1740613383.340329) vcan0 00002205#FBFF
(1740613383.343201) vcan0 00001309#830F
(1740613383.343365) vcan0 00002009#00000000
(1740613383.343547) vcan0 00002209#FCFF
(1740613383.344962) vcan0 0000130C#720F
(1740613383.344964) vcan0 0000200C#00000000
(1740613383.345125) vcan0 0000220C#FCFF
(1740613383.346762) vcan0 0000130B#B50F
(1740613383.347040) vcan0 0000200B#00000000
(1740613383.347157) vcan0 0000220B#FBFF
(1740613383.347850) vcan0 00001307#A60F
(1740613383.347853) vcan0 00002007#00000000
(1740613383.347942) vcan0 00002207#FCFF
(1740613383.350985) vcan0 00001303#900F
(1740613383.350988) vcan0 00002003#00000000
(1740613383.350990) vcan0 0000130A#A40F
(1740613383.350992) vcan0 00001304#990F
(1740613383.351037) vcan0 0000200A#00000000
(1740613383.351083) vcan0 00002004#00000000
(1740613383.351132) vcan0 0000220A#FEFF
(1740613383.351290) vcan0 00002203#FEFF
(1740613383.351457) vcan0 00002204#0000
(1740613383.358691) vcan0 00001302#7F0F
(1740613383.358693) vcan0 00002002#00000000
(1740613383.358802) vcan0 00002202#FEFF
(1740613383.358850) vcan0 00001308#A80F
(1740613383.359104) vcan0 00002008#00000000
(1740613383.359266) vcan0 00002208#F9FF
(1740613383.430823) vcan0 0000250F#C601
(1740613384.330898) vcan0 00001306#AD0F
(1740613384.330901) vcan0 00002006#00000000
(1740613384.330983) vcan0 00002206#0000
(1740613384.333653) vcan0 00001201#40
(1740613384.333726) vcan0 00001202#40
(1740613384.333765) vcan0 00001203#40
(1740613384.333802) vcan0 00001204#40
(1740613384.333839) vcan0 00001205#40
(1740613384.333875) vcan0 00001206#40
(1740613384.333912) vcan0 00001207#40
(1740613384.333965) vcan0 00001208#40
(1740613384.334006) vcan0 00001209#40
(1740613384.334045) vcan0 0000120A#40
(1740613384.334085) vcan0 0000120B#40
(1740613384.334125) vcan0 0000120C#40
(1740613384.334162) vcan0 00001221#40
(1740613384.334203) vcan0 00001222#40
(1740613384.334233) vcan0 0000120F#C0
(1740613384.336752) vcan0 00001301#B50F
(1740613384.337003) vcan0 00002001#00000000
(1740613384.337186) vcan0 00002201#FBFF
(1740613384.340167) vcan0 00001305#BA0F
(1740613384.340169) vcan0 00002005#00000000
(1740613384.340333) vcan0 00002205#FBFF
(1740613384.343166) vcan0 00001309#830F
(1740613384.343342) vcan0 00002009#00000000
(1740613384.343512) vcan0 00002209#FBFF
(1740613384.344948) vcan0 0000130C#740F
(1740613384.344950) vcan0 0000200C#00000000
(1740613384.345118) vcan0 0000220C#FCFF
(1740613384.346753) vcan0 0000130B#B80F
(1740613384.347022) vcan0 0000200B#00000000
(1740613384.347137) vcan0 0000220B#FEFF
(1740613384.347775) vcan0 00001307#A60F
(1740613384.347777) vcan0 00002007#00000000
(1740613384.347939) vcan0 00002207#FCFF
(1740613384.350870) vcan0 00001303#8E0F
(1740613384.350873) vcan0 00002003#00000000
(1740613384.350875) vcan0 0000130A#A40F
(1740613384.350948) vcan0 00001304#9B0F
(1740613384.350950) vcan0 0000200A#00000000
(1740613384.351079) vcan0 00002004#00000000
(1740613384.351117) vcan0 0000220A#FCFF
(1740613384.351274) vcan0 00002203#FBFF
(1740613384.351435) vcan0 00002204#FEFF
(1740613384.358783) vcan0 00001302#7F0F
(1740613384.358785) vcan0 00002002#00000000
(1740613384.358838) vcan0 00002202#0000
(1740613384.358852) vcan0 00001308#A80F
(1740613384.359097) vcan0 00002008#00000000
(1740613384.359257) vcan0 00002208#F9FF
(1740613384.430594) vcan0 0000250F#C601
(1740613385.330839) vcan0 00001306#AF0F
(1740613385.330841) vcan0 00002006#00000000
(1740613385.330941) vcan0 00002206#0000
(1740613385.333655) vcan0 00001201#40
(1740613385.333729) vcan0 00001202#40
(1740613385.333768) vcan0 00001203#40
(1740613385.333807) vcan0 00001204#40
(1740613385.333845) vcan0 00001205#40
(1740613385.333881) vcan0 00001206#40
(1740613385.333918) vcan0 00001207#40
(1740613385.333969) vcan0 00001208#40
(1740613385.334015) vcan0 00001209#40
(1740613385.334058) vcan0 0000120A#40
(1740613385.334097) vcan0 0000120B#40
(1740613385.334135) vcan0 0000120C#40
(1740613385.334183) vcan0 00001221#40
(1740613385.334222) vcan0 00001222#40
(1740613385.334258) vcan0 0000120F#C0
(1740613385.336743) vcan0 00001301#B10F
(1740613385.336955) vcan0 00002001#00000000
(1740613385.337163) vcan0 00002201#FBFF
(1740613385.340145) vcan0 00001305#BA0F
(1740613385.340147) vcan0 00002005#00000000
(1740613385.340316) vcan0 00002205#F9FF
(1740613385.343167) vcan0 00001309#830F
(1740613385.343313) vcan0 00002009#00000000
(1740613385.343509) vcan0 00002209#FEFF
(1740613385.344931) vcan0 0000130C#720F
(1740613385.344933) vcan0 0000200C#00000000
(1740613385.345098) vcan0 0000220C#FCFF
(1740613385.346731) vcan0 0000130B#B30F
(1740613385.347005) vcan0 0000200B#00000000
(1740613385.347121) vcan0 0000220B#FCFF
(1740613385.347955) vcan0 00001307#A80F
(1740613385.347958) vcan0 00002007#00000000
(1740613385.347959) vcan0 00002207#FEFF
(1740613385.350781) vcan0 00001303#900F
(1740613385.350783) vcan0 00002003#00000000
(1740613385.350786) vcan0 0000130A#A20F
(1740613385.350833) vcan0 00001304#9B0F
(1740613385.350876) vcan0 0000200A#00000000
(1740613385.351092) vcan0 00002004#00000000
(1740613385.351094) vcan0 0000220A#FCFF
(1740613385.351248) vcan0 00002203#FCFF
(1740613385.351445) vcan0 00002204#FCFF
(1740613385.358694) vcan0 00001302#7F0F
(1740613385.358696) vcan0 00002002#00000000
(1740613385.358785) vcan0 00002202#0100
(1740613385.358827) vcan0 00001308#AA0F
(1740613385.359062) vcan0 00002008#00000000
(1740613385.359233) vcan0 00002208#F9FF
(1740613385.430859) vcan0 0000250F#C601
(1740613386.330816) vcan0 00001306#AD0F
(1740613386.330818) vcan0 00002006#00000000
(1740613386.330922) vcan0 00002206#0000
(1740613386.333713) vcan0 00001201#40
(1740613386.333814) vcan0 00001202#40
(1740613386.333860) vcan0 00001203#40
(1740613386.333898) vcan0 00001204#40
(1740613386.333936) vcan0 00001205#40
(1740613386.333972) vcan0 00001206#40
(1740613386.334008) vcan0 00001207#40
(1740613386.334046) vcan0 00001208#40
(1740613386.334086) vcan0 00001209#40
(1740613386.334127) vcan0 0000120A#40
(1740613386.334169) vcan0 0000120B#40
(1740613386.334214) vcan0 0000120C#40
(1740613386.334266) vcan0 00001221#40
(1740613386.334323) vcan0 00001222#40
(1740613386.334365) vcan0 0000120F#C0
(1740613386.336744) vcan0 00001301#B50F
(1740613386.336962) vcan0 00002001#00000000
(1740613386.337147) vcan0 00002201#F9FF
(1740613386.340127) vcan0 00001305#BC0F
(1740613386.340129) vcan0 00002005#00000000
(1740613386.340282) vcan0 00002205#FBFF
(1740613386.343159) vcan0 00001309#810F
(1740613386.343311) vcan0 00002009#00000000
(1740613386.343484) vcan0 00002209#FCFF
(1740613386.344894) vcan0 0000130C#700F
(1740613386.344896) vcan0 0000200C#00000000
(1740613386.345072) vcan0 0000220C#FCFF
(1740613386.346716) vcan0 0000130B#B50F
(1740613386.346929) vcan0 0000200B#00000000
(1740613386.347109) vcan0 0000220B#FBFF
(1740613386.347898) vcan0 00001307#A60F
(1740613386.347901) vcan0 00002007#00000000
(1740613386.347931) vcan0 00002207#FCFF
(1740613386.350732) vcan0 00001303#900F
(1740613386.350734) vcan0 00002003#00000000
(1740613386.350782) vcan0 0000130A#A40F
(1740613386.350818) vcan0 00001304#9D0F
(1740613386.350853) vcan0 0000200A#00000000
(1740613386.351060) vcan0 00002004#00000000
(1740613386.351062) vcan0 0000220A#FEFF
(1740613386.351225) vcan0 00002203#FCFF
(1740613386.351427) vcan0 00002204#FEFF
(1740613386.358643) vcan0 00001302#7F0F
(1740613386.358676) vcan0 00002002#00000000
(1740613386.358803) vcan0 00002202#0000
(1740613386.358828) vcan0 00001308#AA0F
(1740613386.359055) vcan0 00002008#00000000
(1740613386.359221) vcan0 00002208#F9FF
(1740613386.430812) vcan0 0000250F#C601
(1740613387.330787) vcan0 00001306#AF0F
(1740613387.330789) vcan0 00002006#00000000
(1740613387.330937) vcan0 00002206#0000
(1740613387.333643) vcan0 00001201#40
(1740613387.333718) vcan0 00001202#40
(1740613387.333756) vcan0 00001203#40
(1740613387.333794) vcan0 00001204#40
(1740613387.333831) vcan0 00001205#40
(1740613387.333867) vcan0 00001206#40
(1740613387.333906) vcan0 00001207#40
(1740613387.333964) vcan0 00001208#40
(1740613387.334005) vcan0 00001209#40
(1740613387.334051) vcan0 0000120A#40
(1740613387.334089) vcan0 0000120B#40
(1740613387.334126) vcan0 0000120C#40
(1740613387.334165) vcan0 00001221#40
(1740613387.334204) vcan0 00001222#40
(1740613387.334240) vcan0 0000120F#C0
(1740613387.336711) vcan0 00001301#B30F
(1740613387.336951) vcan0 00002001#00000000
(1740613387.337135) vcan0 00002201#FBFF
(1740613387.340108) vcan0 00001305#BA0F
(1740613387.340111) vcan0 00002005#00000000
(1740613387.340276) vcan0 00002205#FBFF
(1740613387.343208) vcan0 00001309#810F
(1740613387.343260) vcan0 00002009#00000000
(1740613387.343464) vcan0 00002209#FCFF
(1740613387.344898) vcan0 0000130C#720F
(1740613387.344900) vcan0 0000200C#00000000
(1740613387.345067) vcan0 0000220C#FCFF
(1740613387.346695) vcan0 0000130B#B50F
(1740613387.346908) vcan0 0000200B#00000000
(1740613387.347078) vcan0 0000220B#FCFF
(1740613387.347935) vcan0 00001307#A80F
(1740613387.347937) vcan0 00002007#00000000
(1740613387.347939) vcan0 00002207#FCFF
(1740613387.350656) vcan0 00001303#900F
(1740613387.350658) vcan0 00002003#00000000
(1740613387.350690) vcan0 0000130A#A40F
(1740613387.350815) vcan0 00001304#990F
(1740613387.350848) vcan0 0000200A#00000000
(1740613387.351054) vcan0 00002004#00000000
(1740613387.351056) vcan0 0000220A#FCFF
(1740613387.351209) vcan0 00002203#FBFF
(1740613387.351420) vcan0 00002204#0000
(1740613387.358621) vcan0 00001302#810F
(1740613387.358655) vcan0 00002002#00000000
(1740613387.358779) vcan0 00002202#0100
(1740613387.358803) vcan0 00001308#A80F
(1740613387.359041) vcan0 00002008#00000000
(1740613387.359205) vcan0 00002208#F9FF
(1740613387.430796) vcan0 0000250F#C601
(1740613388.330770) vcan0 00001306#AD0F
(1740613388.330773) vcan0 00002006#00000000
(1740613388.330887) vcan0 00002206#0000
(1740613388.333955) vcan0 00001201#40
(1740613388.334028) vcan0 00001202#40
(1740613388.334067) vcan0 00001203#40
(1740613388.334105) vcan0 00001204#40
(1740613388.334142) vcan0 00001205#40
(1740613388.334179) vcan0 00001206#40
(1740613388.334214) vcan0 00001207#40
(1740613388.334264) vcan0 00001208#40
(1740613388.334303) vcan0 00001209#40
(1740613388.334342) vcan0 0000120A#40
(1740613388.334383) vcan0 0000120B#40
(1740613388.334422) vcan0 0000120C#40
(1740613388.334460) vcan0 00001221#40
(1740613388.334499) vcan0 00001222#40
(1740613388.334536) vcan0 0000120F#C0
(1740613388.336808) vcan0 00001301#B50F
(1740613388.337020) vcan0 00002001#00000000
(1740613388.337228) vcan0 00002201#F9FF
(1740613388.340066) vcan0 00001305#BC0F
(1740613388.340068) vcan0 00002005#00000000
(1740613388.340230) vcan0 00002205#FBFF
(1740613388.343167) vcan0 00001309#810F
(1740613388.343238) vcan0 00002009#00000000
(1740613388.343444) vcan0 00002209#FCFF
(1740613388.344869) vcan0 0000130C#720F
(1740613388.344903) vcan0 0000200C#00000000
(1740613388.345039) vcan0 0000220C#FCFF
(1740613388.346673) vcan0 0000130B#B50F
(1740613388.346904) vcan0 0000200B#00000000
(1740613388.347054) vcan0 0000220B#FEFF
(1740613388.347486) vcan0 00001307#A60F
(1740613388.347714) vcan0 00002007#00000000
(1740613388.347879) vcan0 00002207#FEFF
(1740613388.350434) vcan0 00001303#900F
(1740613388.350691) vcan0 0000130A#A40F
(1740613388.350693) vcan0 00002003#00000000
(1740613388.350815) vcan0 00001304#990F
(1740613388.350835) vcan0 0000200A#00000000
(1740613388.351039) vcan0 0000220A#FCFF
(1740613388.351042) vcan0 00002004#00000000
(1740613388.351197) vcan0 00002203#FBFF
(1740613388.351407) vcan0 00002204#FEFF
(1740613388.358605) vcan0 00001302#810F
(1740613388.358640) vcan0 00002002#00000000
(1740613388.358767) vcan0 00002202#0000
(1740613388.358791) vcan0 00001308#A80F
(1740613388.359031) vcan0 00002008#00000000
(1740613388.359184) vcan0 00002208#F9FF
(1740613388.430791) vcan0 0000250F#C601
(1740613389.330749) vcan0 00001306#AF0F
(1740613389.330751) vcan0 00002006#00000000
(1740613389.330866) vcan0 00002206#FEFF
(1740613389.333534) vcan0 00001201#40
(1740613389.333609) vcan0 00001202#40
(1740613389.333648) vcan0 00001203#40
(1740613389.333685) vcan0 00001204#40
(1740613389.333721) vcan0 00001205#40
(1740613389.333760) vcan0 00001206#40
(1740613389.333797) vcan0 00001207#40
(1740613389.333833) vcan0 00001208#40
(1740613389.333889) vcan0 00001209#40
(1740613389.333926) vcan0 0000120A#40
(1740613389.333963) vcan0 0000120B#40
(1740613389.334003) vcan0 0000120C#40
(1740613389.334043) vcan0 00001221#40
(1740613389.334084) vcan0 00001222#40
(1740613389.334123) vcan0 0000120F#C0
(1740613389.336697) vcan0 00001301#B30F
(1740613389.336911) vcan0 00002001#00000000
(1740613389.337075) vcan0 00002201#F9FF
(1740613389.340093) vcan0 00001305#BA0F
(1740613389.340095) vcan0 00002005#00000000
(1740613389.340202) vcan0 00002205#FCFF
(1740613389.343432) vcan0 00001309#830F
(1740613389.343434) vcan0 00002009#00000000
(1740613389.343471) vcan0 00002209#FCFF
(1740613389.344876) vcan0 0000130C#740F
(1740613389.344878) vcan0 0000200C#00000000
(1740613389.345025) vcan0 0000220C#FEFF
(1740613389.346653) vcan0 0000130B#B50F
(1740613389.346868) vcan0 0000200B#00000000
(1740613389.347030) vcan0 0000220B#FBFF
(1740613389.347695) vcan0 00001307#A60F
(1740613389.347697) vcan0 00002007#00000000
(1740613389.347857) vcan0 00002207#FEFF
(1740613389.350629) vcan0 00001303#900F
(1740613389.350676) vcan0 00002003#00000000
(1740613389.350679) vcan0 0000130A#A60F
(1740613389.350775) vcan0 00001304#9B0F
(1740613389.350809) vcan0 0000200A#00000000
(1740613389.351020) vcan0 00002004#00000000
(1740613389.351022) vcan0 0000220A#FCFF
(1740613389.351174) vcan0 00002203#FBFF
(1740613389.351392) vcan0 00002204#0000
(1740613389.358582) vcan0 00001302#810F
(1740613389.358584) vcan0 00002002#00000000
(1740613389.358758) vcan0 00002202#0000
(1740613389.358784) vcan0 00001308#A80F
(1740613389.359017) vcan0 00002008#00000000
(1740613389.359171) vcan0 00002208#F7FF
(1740613389.430786) vcan0 0000250F#C601
(1740613390.330722) vcan0 00001306#AF0F
(1740613390.330725) vcan0 00002006#00000000
(1740613390.330865) vcan0 00002206#0000
(1740613390.333657) vcan0 00001201#40
(1740613390.333729) vcan0 00001202#40
(1740613390.333768) vcan0 00001203#40
(1740613390.333803) vcan0 00001204#40
(1740613390.333838) vcan0 00001205#40
(1740613390.333875) vcan0 00001206#40
(1740613390.333911) vcan0 00001207#40
(1740613390.333947) vcan0 00001208#40
(1740613390.333992) vcan0 00001209#40
(1740613390.334030) vcan0 0000120A#40
(1740613390.334068) vcan0 0000120B#40
(1740613390.334106) vcan0 0000120C#40
(1740613390.334144) vcan0 00001221#40
(1740613390.334184) vcan0 00001222#40
(1740613390.334223) vcan0 0000120F#C0
(1740613390.336670) vcan0 00001301#B50F
(1740613390.336895) vcan0 00002001#00000000
(1740613390.337056) vcan0 00002201#FBFF
(1740613390.339825) vcan0 00001305#BA0F
(1740613390.340028) vcan0 00002005#00000000
(1740613390.340190) vcan0 00002205#FBFF
(1740613390.343166) vcan0 00001309#830F
(1740613390.343204) vcan0 00002009#00000000
(1740613390.343432) vcan0 00002209#FBFF
(1740613390.344868) vcan0 0000130C#720F
(1740613390.344871) vcan0 0000200C#00000000
(1740613390.344976) vcan0 0000220C#FEFF
(1740613390.346643) vcan0 0000130B#B50F
(1740613390.346856) vcan0 0000200B#00000000
(1740613390.347004) vcan0 0000220B#FEFF
(1740613390.347464) vcan0 00001307#A80F
(1740613390.347669) vcan0 00002007#00000000
(1740613390.347833) vcan0 00002207#FEFF
(1740613390.350415) vcan0 00001303#900F
(1740613390.350661) vcan0 0000130A#A40F
(1740613390.350664) vcan0 00002003#00000000
(1740613390.350784) vcan0 00001304#990F
(1740613390.350804) vcan0 0000200A#00000000
(1740613390.351007) vcan0 00002004#00000000
(1740613390.351010) vcan0 0000220A#FCFF
(1740613390.351155) vcan0 00002203#FCFF
(1740613390.351365) vcan0 00002204#0000
(1740613390.358572) vcan0 00001302#7F0F
(1740613390.358574) vcan0 00002002#00000000
(1740613390.358748) vcan0 00002202#0000
(1740613390.358772) vcan0 00001308#A80F
(1740613390.358976) vcan0 00002008#00000000
(1740613390.359175) vcan0 00002208#F9FF
(1740613390.430782) vcan0 0000250F#C601
(1740613391.330696) vcan0 00001306#AF0F
(1740613391.330698) vcan0 00002006#00000000
(1740613391.330813) vcan0 00002206#FEFF
(1740613391.333551) vcan0 00001201#40
(1740613391.333626) vcan0 00001202#40
(1740613391.333665) vcan0 00001203#40
(1740613391.333702) vcan0 00001204#40
(1740613391.333739) vcan0 00001205#40
(1740613391.333775) vcan0 00001206#40
(1740613391.333811) vcan0 00001207#40
(1740613391.333847) vcan0 00001208#40
(1740613391.333885) vcan0 00001209#40
(1740613391.333925) vcan0 0000120A#40
(1740613391.333966) vcan0 0000120B#40
(1740613391.334006) vcan0 0000120C#40
(1740613391.334045) vcan0 00001221#40
(1740613391.334086) vcan0 00001222#40
(1740613391.334116) vcan0 0000120F#C0
(1740613391.336655) vcan0 00001301#B50F
(1740613391.336865) vcan0 00002001#00000000
(1740613391.337031) vcan0 00002201#F9FF
(1740613391.340108) vcan0 00001305#BA0F
(1740613391.340110) vcan0 00002005#00000000
(1740613391.340164) vcan0 00002205#F9FF
(1740613391.343293) vcan0 00001309#830F
(1740613391.343295) vcan0 00002009#00000000
(1740613391.343364) vcan0 00002209#FBFF
(1740613391.344818) vcan0 0000130C#700F
(1740613391.344820) vcan0 0000200C#00000000
(1740613391.344986) vcan0 0000220C#FCFF
(1740613391.346643) vcan0 0000130B#B80F
(1740613391.346819) vcan0 0000200B#00000000
(1740613391.347002) vcan0 0000220B#FCFF
(1740613391.347653) vcan0 00001307#A60F
(1740613391.347680) vcan0 00002007#00000000
(1740613391.347815) vcan0 00002207#FEFF
(1740613391.350586) vcan0 00001303#900F
(1740613391.350620) vcan0 0000130A#A40F
(1740613391.350651) vcan0 00002003#00000000
(1740613391.350721) vcan0 00001304#990F
(1740613391.350762) vcan0 0000200A#00000000
(1740613391.350971) vcan0 0000220A#FEFF
(1740613391.350974) vcan0 00002004#00000000
(1740613391.351123) vcan0 00002203#FCFF
(1740613391.351345) vcan0 00002204#FCFF
(1740613391.358564) vcan0 00001302#810F
(1740613391.358566) vcan0 00002002#00000000
(1740613391.358740) vcan0 00002202#0000
(1740613391.358743) vcan0 00001308#A80F
(1740613391.358954) vcan0 00002008#00000000
(1740613391.359175) vcan0 00002208#F9FF
(1740613391.430774) vcan0 0000250F#C601
(1740613392.330681) vcan0 00001306#AA0F
(1740613392.330684) vcan0 00002006#00000000
(1740613392.330832) vcan0 00002206#0000
(1740613392.333520) vcan0 00001201#40
(1740613392.333593) vcan0 00001202#40
(1740613392.333631) vcan0 00001203#40
(1740613392.333669) vcan0 00001204#40
(1740613392.333705) vcan0 00001205#40
(1740613392.333741) vcan0 00001206#40
(1740613392.333778) vcan0 00001207#40
(1740613392.333814) vcan0 00001208#40
(1740613392.333858) vcan0 00001209#40
(1740613392.333897) vcan0 0000120A#40
(1740613392.333938) vcan0 0000120B#40
(1740613392.333979) vcan0 0000120C#40
(1740613392.334018) vcan0 00001221#40
(1740613392.334056) vcan0 00001222#40
(1740613392.334091) vcan0 0000120F#C0
(1740613392.336607) vcan0 00001301#B30F
(1740613392.336830) vcan0 00002001#00000000
(1740613392.337029) vcan0 00002201#FBFF
(1740613392.340126) vcan0 00001305#BA0F
(1740613392.340129) vcan0 00002005#00000000
(1740613392.340171) vcan0 00002205#FCFF
(1740613392.343240) vcan0 00001309#830F
(1740613392.343242) vcan0 00002009#00000000
(1740613392.343381) vcan0 00002209#FCFF
(1740613392.344797) vcan0 0000130C#720F
(1740613392.344799) vcan0 0000200C#00000000
(1740613392.344964) vcan0 0000220C#FEFF
(1740613392.346643) vcan0 0000130B#B30F
(1740613392.346798) vcan0 0000200B#00000000
(1740613392.346986) vcan0 0000220B#FEFF
(1740613392.347641) vcan0 00001307#A60F
(1740613392.347643) vcan0 00002007#00000000
(1740613392.347804) vcan0 00002207#FCFF
(1740613392.350575) vcan0 00001303#900F
(1740613392.350578) vcan0 0000130A#A20F
(1740613392.350613) vcan0 00002003#00000000
(1740613392.350720) vcan0 00001304#9B0F
(1740613392.350758) vcan0 0000200A#00000000
(1740613392.350968) vcan0 00002004#00000000
(1740613392.350970) vcan0 0000220A#FCFF
(1740613392.351118) vcan0 00002203#FCFF
(1740613392.351331) vcan0 00002204#0000
(1740613392.358538) vcan0 00001302#7D0F
(1740613392.358540) vcan0 00002002#00000000
(1740613392.358718) vcan0 00002202#0000
(1740613392.358743) vcan0 00001308#A80F
(1740613392.358952) vcan0 00002008#00000000
(1740613392.359126) vcan0 00002208#F7FF
(1740613392.430781) vcan0 0000250F#C601
(1740613393.330679) vcan0 00001306#AD0F
(1740613393.330681) vcan0 00002006#00000000
(1740613393.330772) vcan0 00002206#FEFF
(1740613393.333453) vcan0 00001201#40
(1740613393.333526) vcan0 00001202#40
(1740613393.333565) vcan0 00001203#40
(1740613393.333603) vcan0 00001204#40
(1740613393.333640) vcan0 00001205#40
(1740613393.333676) vcan0 00001206#40
(1740613393.333713) vcan0 00001207#40
(1740613393.333765) vcan0 00001208#40
(1740613393.333801) vcan0 00001209#40
(1740613393.333839) vcan0 0000120A#40
(1740613393.333878) vcan0 0000120B#40
(1740613393.333921) vcan0 0000120C#40
(1740613393.333961) vcan0 00001221#40
(1740613393.334000) vcan0 00001222#40
(1740613393.334031) vcan0 0000120F#C0
(1740613393.336608) vcan0 00001301#B30F
(1740613393.336809) vcan0 00002001#00000000
(1740613393.337015) vcan0 00002201#FBFF
(1740613393.340069) vcan0 00001305#B80F
(1740613393.340071) vcan0 00002005#00000000
(1740613393.340132) vcan0 00002205#FBFF
(1740613393.343211) vcan0 00001309#830F
(1740613393.343213) vcan0 00002009#00000000
(1740613393.343371) vcan0 00002209#FCFF
(1740613393.344776) vcan0 0000130C#740F
(1740613393.344779) vcan0 0000200C#00000000
(1740613393.344944) vcan0 0000220C#FCFF
(1740613393.346644) vcan0 0000130B#B80F
(1740613393.346775) vcan0 0000200B#00000000
(1740613393.346957) vcan0 0000220B#FEFF
(1740613393.347633) vcan0 00001307#A40F
(1740613393.347660) vcan0 00002007#00000000
(1740613393.347784) vcan0 00002207#FCFF
(1740613393.350556) vcan0 00001303#8E0F
(1740613393.350559) vcan0 0000130A#A40F
(1740613393.350589) vcan0 00002003#00000000
(1740613393.350696) vcan0 00001304#970F
(1740613393.350734) vcan0 0000200A#00000000
(1740613393.350951) vcan0 0000220A#FCFF
(1740613393.350953) vcan0 00002004#00000000
(1740613393.351107) vcan0 00002203#FBFF
(1740613393.351318) vcan0 00002204#FEFF
(1740613393.358526) vcan0 00001302#810F
(1740613393.358529) vcan0 00002002#00000000
(1740613393.358701) vcan0 00002202#0000
(1740613393.358727) vcan0 00001308#A80F
(1740613393.358946) vcan0 00002008#00000000
(1740613393.359113) vcan0 00002208#F9FF
(1740613393.430769) vcan0 0000250F#C601
(1740613394.330665) vcan0 00001306#AF0F
(1740613394.330667) vcan0 00002006#00000000
(1740613394.330742) vcan0 00002206#FEFF
(1740613394.333529) vcan0 00001201#40
(1740613394.333601) vcan0 00001202#40
(1740613394.333639) vcan0 00001203#40
(1740613394.333677) vcan0 00001204#40
(1740613394.333713) vcan0 00001205#40
(1740613394.333749) vcan0 00001206#40
(1740613394.333785) vcan0 00001207#40
(1740613394.333821) vcan0 00001208#40
(1740613394.333858) vcan0 00001209#40
(1740613394.333893) vcan0 0000120A#40
(1740613394.333930) vcan0 0000120B#40
(1740613394.333955) vcan0 0000120C#40
(1740613394.333979) vcan0 00001221#40
(1740613394.334000) vcan0 00001222#40
(1740613394.334028) vcan0 0000120F#C0
(1740613394.336636) vcan0 00001301#B50F
(1740613394.336797) vcan0 00002001#00000000
(1740613394.337005) vcan0 00002201#FBFF
(1740613394.339746) vcan0 00001305#BA0F
(1740613394.339952) vcan0 00002005#00000000
(1740613394.340114) vcan0 00002205#FCFF
(1740613394.343291) vcan0 00001309#830F
(1740613394.343294) vcan0 00002009#00000000
(1740613394.343321) vcan0 00002209#FCFF
(1740613394.344992) vcan0 0000130C#740F
(1740613394.344994) vcan0 0000200C#00000000
(1740613394.344996) vcan0 0000220C#FEFF
(1740613394.346557) vcan0 0000130B#B50F
(1740613394.346773) vcan0 0000200B#00000000
(1740613394.346941) vcan0 0000220B#FCFF
(1740613394.347393) vcan0 00001307#A80F
(1740613394.347651) vcan0 00002007#00000000
(1740613394.347763) vcan0 00002207#FEFF
(1740613394.350328) vcan0 00001303#8E0F
(1740613394.350581) vcan0 0000130A#A20F
(1740613394.350584) vcan0 00002003#00000000
(1740613394.350709) vcan0 00001304#990F
(1740613394.350739) vcan0 0000200A#00000000
(1740613394.350931) vcan0 0000220A#FCFF
(1740613394.350949) vcan0 00002004#00000000
(1740613394.351091) vcan0 00002203#FCFF
(1740613394.351302) vcan0 00002204#FEFF
(1740613394.358521) vcan0 00001302#7F0F
(1740613394.358523) vcan0 00002002#00000000
(1740613394.358691) vcan0 00002202#0000
(1740613394.358716) vcan0 00001308#A80F
(1740613394.358949) vcan0 00002008#00000000
(1740613394.359094) vcan0 00002208#FBFF
(1740613394.430784) vcan0 0000250F#C601
(1740613395.330622) vcan0 00001306#AF0F
(1740613395.330624) vcan0 00002006#00000000
(1740613395.330722) vcan0 00002206#0000
(1740613395.333469) vcan0 00001201#40
(1740613395.333542) vcan0 00001202#40
(1740613395.333581) vcan0 00001203#40
(1740613395.333618) vcan0 00001204#40
(1740613395.333654) vcan0 00001205#40
(1740613395.333691) vcan0 00001206#40
(1740613395.333728) vcan0 00001207#40
(1740613395.333764) vcan0 00001208#40
(1740613395.333801) vcan0 00001209#40
(1740613395.333837) vcan0 0000120A#40
(1740613395.333872) vcan0 0000120B#40
(1740613395.333896) vcan0 0000120C#40
(1740613395.333920) vcan0 00001221#40
(1740613395.333952) vcan0 00001222#40
(1740613395.333995) vcan0 0000120F#C0
(1740613395.336574) vcan0 00001301#B30F
(1740613395.336788) vcan0 00002001#00000000
(1740613395.336987) vcan0 00002201#FCFF
(1740613395.339945) vcan0 00001305#B80F
(1740613395.339948) vcan0 00002005#00000000
(1740613395.340114) vcan0 00002205#FBFF
(1740613395.343176) vcan0 00001309#810F
(1740613395.343178) vcan0 00002009#00000000
(1740613395.343318) vcan0 00002209#FCFF
(1740613395.344744) vcan0 0000130C#720F
(1740613395.344746) vcan0 0000200C#00000000
(1740613395.344901) vcan0 0000220C#FCFF
(1740613395.346547) vcan0 0000130B#B30F
(1740613395.346754) vcan0 0000200B#00000000
(1740613395.346918) vcan0 0000220B#FCFF
(1740613395.347612) vcan0 00001307#A60F
(1740613395.347638) vcan0 00002007#00000000
(1740613395.347757) vcan0 00002207#FEFF
(1740613395.350537) vcan0 00001303#900F
(1740613395.350540) vcan0 0000130A#A40F
(1740613395.350542) vcan0 00002003#00000000
(1740613395.350687) vcan0 00001304#9D0F
(1740613395.350725) vcan0 0000200A#00000000
(1740613395.350911) vcan0 0000220A#FEFF
(1740613395.350913) vcan0 00002004#00000000
(1740613395.351065) vcan0 00002203#FBFF
(1740613395.351279) vcan0 00002204#FEFF
(1740613395.358506) vcan0 00001302#810F
(1740613395.358508) vcan0 00002002#00000000
(1740613395.358670) vcan0 00002202#0000
(1740613395.358694) vcan0 00001308#A80F
(1740613395.358948) vcan0 00002008#00000000
(1740613395.359083) vcan0 00002208#F9FF
(1740613395.430773) vcan0 0000250F#C601
(1740613396.330727) vcan0 00001306#AF0F
(1740613396.330730) vcan0 00002006#00000000
(1740613396.330766) vcan0 00002206#0000
(1740613396.333679) vcan0 00001201#40
(1740613396.333790) vcan0 00001202#40
(1740613396.333836) vcan0 00001203#40
(1740613396.333874) vcan0 00001204#40
(1740613396.333910) vcan0 00001205#40
(1740613396.333946) vcan0 00001206#40
(1740613396.333996) vcan0 00001207#40
(1740613396.334037) vcan0 00001208#40
(1740613396.334077) vcan0 00001209#40
(1740613396.334115) vcan0 0000120A#40
(1740613396.334152) vcan0 0000120B#40
(1740613396.334193) vcan0 0000120C#40
(1740613396.334232) vcan0 00001221#40
(1740613396.334272) vcan0 00001222#40
(1740613396.334311) vcan0 0000120F#C0
(1740613396.336642) vcan0 00001301#B50F
(1740613396.336812) vcan0 00002001#00000000
(1740613396.337002) vcan0 00002201#F9FF
(1740613396.339910) vcan0 00001305#BC0F
(1740613396.339937) vcan0 00002005#00000000
(1740613396.340086) vcan0 00002205#FCFF
(1740613396.343181) vcan0 00001309#830F
(1740613396.343183) vcan0 00002009#00000000
(1740613396.343279) vcan0 00002209#FBFF
(1740613396.344717) vcan0 0000130C#740F
(1740613396.344719) vcan0 0000200C#00000000
(1740613396.344888) vcan0 0000220C#FEFF
(1740613396.346734) vcan0 0000130B#B80F
(1740613396.346761) vcan0 0000200B#00000000
(1740613396.346925) vcan0 0000220B#FCFF
(1740613396.347582) vcan0 00001307#A40F
(1740613396.347584) vcan0 00002007#00000000
(1740613396.347748) vcan0 00002207#FCFF
(1740613396.350511) vcan0 00001303#8E0F
(1740613396.350513) vcan0 0000130A#A60F
(1740613396.350544) vcan0 00002003#00000000
(1740613396.350689) vcan0 00001304#990F
(1740613396.350691) vcan0 0000200A#00000000
(1740613396.350898) vcan0 0000220A#FCFF
(1740613396.350901) vcan0 00002004#00000000
(1740613396.351085) vcan0 00002203#FBFF
(1740613396.351264) vcan0 00002204#FEFF
(1740613396.358502) vcan0 00001302#7F0F
(1740613396.358505) vcan0 00002002#00000000
(1740613396.358654) vcan0 00002202#0000
(1740613396.358677) vcan0 00001308#A80F
(1740613396.358954) vcan0 00002008#00000000
(1740613396.359083) vcan0 00002208#F9FF
(1740613396.430772) vcan0 0000250F#C601
(1740613397.330649) vcan0 00001306#AA0F
(1740613397.330651) vcan0 00002006#00000000
(1740613397.330694) vcan0 00002206#0000
(1740613397.333442) vcan0 00001201#40
(1740613397.333539) vcan0 00001202#40
(1740613397.333578) vcan0 00001203#40
(1740613397.333615) vcan0 00001204#40
(1740613397.333652) vcan0 00001205#40
(1740613397.333688) vcan0 00001206#40
(1740613397.333738) vcan0 00001207#40
(1740613397.333775) vcan0 00001208#40
(1740613397.333813) vcan0 00001209#40
(1740613397.333851) vcan0 0000120A#40
(1740613397.333890) vcan0 0000120B#40
(1740613397.333929) vcan0 0000120C#40
(1740613397.333966) vcan0 00001221#40
(1740613397.334004) vcan0 00001222#40
(1740613397.334042) vcan0 0000120F#C0
(1740613397.336537) vcan0 00001301#B50F
(1740613397.336747) vcan0 00002001#00000000
(1740613397.336944) vcan0 00002201#FBFF
(1740613397.339958) vcan0 00001305#BA0F
(1740613397.339960) vcan0 00002005#00000000
(1740613397.340052) vcan0 00002205#FBFF
(1740613397.343144) vcan0 00001309#810F
(1740613397.343146) vcan0 00002009#00000000
(1740613397.343247) vcan0 00002209#FCFF
(1740613397.344680) vcan0 0000130C#740F
(1740613397.344682) vcan0 0000200C#00000000
(1740613397.344855) vcan0 0000220C#FCFF
(1740613397.346721) vcan0 0000130B#B50F
(1740613397.346749) vcan0 0000200B#00000000
(1740613397.346898) vcan0 0000220B#FEFF
(1740613397.347541) vcan0 00001307#A60F
(1740613397.347569) vcan0 00002007#00000000
(1740613397.347728) vcan0 00002207#FCFF
(1740613397.350760) vcan0 00001303#900F
(1740613397.350763) vcan0 0000130A#A40F
(1740613397.350765) vcan0 00002003#00000000
(1740613397.350766) vcan0 00001304#990F
(1740613397.350768) vcan0 0000200A#00000000
(1740613397.350846) vcan0 0000220A#FCFF
(1740613397.350895) vcan0 00002004#00000000
(1740613397.351051) vcan0 00002203#FEFF
(1740613397.351240) vcan0 00002204#FEFF
(1740613397.358467) vcan0 00001302#7F0F
(1740613397.358469) vcan0 00002002#00000000
(1740613397.358649) vcan0 00002202#0000
(1740613397.358651) vcan0 00001308#A80F
(1740613397.358943) vcan0 00002008#00000000
(1740613397.359052) vcan0 00002208#F9FF
(1740613397.430850) vcan0 0000250F#C601
(1740613398.330556) vcan0 00001306#AD0F
(1740613398.330559) vcan0 00002006#00000000
(1740613398.330699) vcan0 00002206#0000
(1740613398.333454) vcan0 00001201#40
(1740613398.333529) vcan0 00001202#40
(1740613398.333568) vcan0 00001203#40
(1740613398.333606) vcan0 00001204#40
(1740613398.333643) vcan0 00001205#40
(1740613398.333679) vcan0 00001206#40
(1740613398.333715) vcan0 00001207#40
(1740613398.333764) vcan0 00001208#40
(1740613398.333803) vcan0 00001209#40
(1740613398.333841) vcan0 0000120A#40
(1740613398.333879) vcan0 0000120B#40
(1740613398.333918) vcan0 0000120C#40
(1740613398.333957) vcan0 00001221#40
(1740613398.333997) vcan0 00001222#40
(1740613398.334035) vcan0 0000120F#C0
(1740613398.336499) vcan0 00001301#B30F
(1740613398.336712) vcan0 00002001#00000000
(1740613398.336919) vcan0 00002201#FBFF
(1740613398.339923) vcan0 00001305#BA0F
(1740613398.339926) vcan0 00002005#00000000
(1740613398.340062) vcan0 00002205#FBFF
(1740613398.342920) vcan0 00001309#810F
(1740613398.343058) vcan0 00002009#00000000
(1740613398.343249) vcan0 00002209#FCFF
(1740613398.344451) vcan0 0000130C#720F
(1740613398.344663) vcan0 0000200C#00000000
(1740613398.344847) vcan0 0000220C#FCFF
(1740613398.346475) vcan0 0000130B#B50F
(1740613398.346711) vcan0 0000200B#00000000
(1740613398.346881) vcan0 0000220B#FEFF
(1740613398.347546) vcan0 00001307#A60F
(1740613398.347580) vcan0 00002007#00000000
(1740613398.347711) vcan0 00002207#FCFF
(1740613398.350261) vcan0 00001303#900F
(1740613398.350568) vcan0 0000130A#A20F
(1740613398.350570) vcan0 00002003#00000000
(1740613398.350630) vcan0 00001304#990F
(1740613398.350677) vcan0 0000200A#00000000
(1740613398.350879) vcan0 0000220A#FCFF
(1740613398.350882) vcan0 00002004#00000000
(1740613398.351039) vcan0 00002203#FBFF
(1740613398.351209) vcan0 00002204#FEFF
(1740613398.358692) vcan0 00001302#7F0F
(1740613398.358694) vcan0 00002002#00000000
(1740613398.358696) vcan0 00002202#FEFF
(1740613398.358698) vcan0 00001308#A80F
(1740613398.358864) vcan0 00002008#00000000
(1740613398.359045) vcan0 00002208#F9FF
(1740613398.430751) vcan0 0000250F#C601
(1740613399.330534) vcan0 00001306#AA0F
(1740613399.330536) vcan0 00002006#00000000
(1740613399.330652) vcan0 00002206#0000
(1740613399.333377) vcan0 00001201#40
(1740613399.333451) vcan0 00001202#40
(1740613399.333490) vcan0 00001203#40
(1740613399.333529) vcan0 00001204#40
(1740613399.333566) vcan0 00001205#40
(1740613399.333602) vcan0 00001206#40
(1740613399.333639) vcan0 00001207#40
(1740613399.333691) vcan0 00001208#40
(1740613399.333730) vcan0 00001209#40
(1740613399.333777) vcan0 0000120A#40
(1740613399.333815) vcan0 0000120B#40
(1740613399.333856) vcan0 0000120C#40
(1740613399.333895) vcan0 00001221#40
(1740613399.333934) vcan0 00001222#40
(1740613399.333976) vcan0 0000120F#C0
(1740613399.336476) vcan0 00001301#B30F
(1740613399.336719) vcan0 00002001#00000000
(1740613399.336885) vcan0 00002201#FBFF
(1740613399.339850) vcan0 00001305#BC0F
(1740613399.339853) vcan0 00002005#00000000
(1740613399.340018) vcan0 00002205#FBFF
(1740613399.343120) vcan0 00001309#830F
(1740613399.343122) vcan0 00002009#00000000
(1740613399.343223) vcan0 00002209#FCFF
(1740613399.344657) vcan0 0000130C#6B0F
(1740613399.344660) vcan0 0000200C#00000000
(1740613399.344828) vcan0 0000220C#FCFF
(1740613399.346677) vcan0 0000130B#B50F
(1740613399.346679) vcan0 0000200B#00000000
(1740613399.346846) vcan0 0000220B#FEFF
(1740613399.347523) vcan0 00001307#A60F
(1740613399.347525) vcan0 00002007#00000000
(1740613399.347687) vcan0 00002207#FEFF
(1740613399.350461) vcan0 00001303#900F
(1740613399.350463) vcan0 0000130A#A40F
(1740613399.350494) vcan0 00002003#00000000
(1740613399.350626) vcan0 00001304#970F
(1740613399.350653) vcan0 0000200A#00000000
(1740613399.350838) vcan0 0000220A#FCFF
(1740613399.350840) vcan0 00002004#00000000
(1740613399.351013) vcan0 00002203#FBFF
(1740613399.351209) vcan0 00002204#FEFF
(1740613399.358586) vcan0 00001302#7F0F
(1740613399.358588) vcan0 00002002#00000000
(1740613399.358635) vcan0 00001308#A80F
(1740613399.358653) vcan0 00002202#0100
(1740613399.358834) vcan0 00002008#00000000
(1740613399.359020) vcan0 00002208#F9FF
(1740613399.430741) vcan0 0000250F#C601
(1740613400.330500) vcan0 00001306#AD0F
(1740613400.330502) vcan0 00002006#00000000
(1740613400.330650) vcan0 00002206#0000
(1740613400.333703) vcan0 00001201#40
(1740613400.333776) vcan0 00001202#40
(1740613400.333815) vcan0 00001203#40
(1740613400.333853) vcan0 00001204#40
(1740613400.333889) vcan0 00001205#40
(1740613400.333926) vcan0 00001206#40
(1740613400.333964) vcan0 00001207#40
(1740613400.334003) vcan0 00001208#40
(1740613400.334041) vcan0 00001209#40
(1740613400.334080) vcan0 0000120A#40
(1740613400.334120) vcan0 0000120B#40
(1740613400.334159) vcan0 0000120C#40
(1740613400.334199) vcan0 00001221#40
(1740613400.334237) vcan0 00001222#40
(1740613400.334274) vcan0 0000120F#C0
(1740613400.336617) vcan0 00001301#B30F
(1740613400.336770) vcan0 00002001#00000000
(1740613400.337348) vcan0 00002201#F9FF
(1740613400.339867) vcan0 00001305#BA0F
(1740613400.339869) vcan0 00002005#00000000
(1740613400.340026) vcan0 00002205#FBFF
(1740613400.343104) vcan0 00001309#830F
(1740613400.343106) vcan0 00002009#00000000
(1740613400.343213) vcan0 00002209#FCFF
(1740613400.344638) vcan0 0000130C#740F
(1740613400.344672) vcan0 0000200C#00000000
(1740613400.344807) vcan0 0000220C#FEFF
(1740613400.346448) vcan0 0000130B#B30F
(1740613400.346714) vcan0 0000200B#00000000
(1740613400.346835) vcan0 0000220B#FCFF
(1740613400.347678) vcan0 00001307#A80F
