(1740617484.242236) vcan0 00001306#7E02
(1740617484.242238) vcan0 00002006#00000000
(1740617484.242347) vcan0 00002206#0000
(1740617484.244556) vcan0 00001201#00
(1740617484.244615) vcan0 00001202#00
(1740617484.244645) vcan0 00001203#00
(1740617484.244673) vcan0 00001204#00
(1740617484.244703) vcan0 00001205#00
(1740617484.244734) vcan0 00001206#00
(1740617484.244763) vcan0 00001207#00
(1740617484.244791) vcan0 00001208#00
(1740617484.244821) vcan0 00001209#00
(1740617484.244855) vcan0 0000120A#00
(1740617484.244884) vcan0 0000120B#00
(1740617484.244926) vcan0 0000120C#00
(1740617484.244972) vcan0 00001221#00
(1740617484.244995) vcan0 00001222#00
(1740617484.245017) vcan0 0000120F#00
(1740617484.258029) vcan0 00001301#6601
(1740617484.258252) vcan0 00002001#00000000
(1740617484.258429) vcan0 00002201#FBFF
(1740617484.261775) vcan0 00001305#A502
(1740617484.261777) vcan0 00002005#00000000
(1740617484.261891) vcan0 00002205#F9FF
(1740617484.266713) vcan0 00001309#2C02
(1740617484.266716) vcan0 00002009#00000000
(1740617484.266849) vcan0 00002209#FCFF
(1740617484.267200) vcan0 0000130C#ED01
(1740617484.267423) vcan0 0000200C#00000000
(1740617484.267586) vcan0 0000220C#FCFF
(1740617484.271194) vcan0 0000130B#8B02
(1740617484.271310) vcan0 0000200B#00000000
(1740617484.271515) vcan0 0000220B#FEFF
(1740617484.277737) vcan0 00001307#F901
(1740617484.277739) vcan0 00002007#00000000
(1740617484.277864) vcan0 00002207#FCFF
(1740617484.278139) vcan0 0000130A#5B02
(1740617484.278372) vcan0 0000200A#00000000
(1740617484.278538) vcan0 0000220A#FCFF
(1740617484.281216) vcan0 00001304#8D02
(1740617484.281218) vcan0 00002004#00000000
(1740617484.281326) vcan0 00002204#FEFF
(1740617484.282126) vcan0 00001303#3801
(1740617484.282129) vcan0 00002003#00000000
(1740617484.282207) vcan0 00002203#FBFF
(1740617484.297566) vcan0 00001308#9602
(1740617484.297568) vcan0 00002008#00000000
(1740617484.297676) vcan0 00002208#F9FF
(1740617484.297723) vcan0 00001302#2E02
(1740617484.297979) vcan0 00002002#00000000
(1740617484.298070) vcan0 00002202#0000
(1740617484.412541) vcan0 0000250F#BE01
(1740617485.242247) vcan0 00001306#7E02
(1740617485.242249) vcan0 00002006#00000000
(1740617485.242330) vcan0 00002206#0000
(1740617485.245140) vcan0 00001201#00
(1740617485.245213) vcan0 00001202#00
(1740617485.245251) vcan0 00001203#00
(1740617485.245297) vcan0 00001204#00
(1740617485.245337) vcan0 00001205#00
(1740617485.245376) vcan0 00001206#00
(1740617485.245414) vcan0 00001207#00
(1740617485.245455) vcan0 00001208#00
(1740617485.245494) vcan0 00001209#00
(1740617485.245535) vcan0 0000120A#00
(1740617485.245579) vcan0 0000120B#00
(1740617485.245617) vcan0 0000120C#00
(1740617485.245661) vcan0 00001221#00
(1740617485.245698) vcan0 00001222#00
(1740617485.245739) vcan0 0000120F#00
(1740617485.258252) vcan0 00001301#6601
(1740617485.258254) vcan0 00002001#00000000
(1740617485.258378) vcan0 00002201#FBFF
(1740617485.261751) vcan0 00001305#A502
(1740617485.261753) vcan0 00002005#00000000
(1740617485.261876) vcan0 00002205#F9FF
(1740617485.266714) vcan0 00001309#2C02
(1740617485.266717) vcan0 00002009#00000000
(1740617485.266827) vcan0 00002209#FCFF
(1740617485.267172) vcan0 0000130C#ED01
(1740617485.267397) vcan0 0000200C#00000000
(1740617485.267574) vcan0 0000220C#FCFF
(1740617485.271178) vcan0 0000130B#8B02
(1740617485.271292) vcan0 0000200B#00000000
(1740617485.271500) vcan0 0000220B#FEFF
(1740617485.277735) vcan0 00001307#F901
(1740617485.277737) vcan0 00002007#00000000
(1740617485.277850) vcan0 00002207#FCFF
(1740617485.278124) vcan0 0000130A#5B02
(1740617485.278356) vcan0 0000200A#00000000
(1740617485.278522) vcan0 0000220A#FCFF
(1740617485.281216) vcan0 00001304#8D02
(1740617485.281218) vcan0 00002004#00000000
(1740617485.281313) vcan0 00002204#FEFF
(1740617485.282117) vcan0 00001303#3801
(1740617485.282120) vcan0 00002003#00000000
(1740617485.282198) vcan0 00002203#FBFF
(1740617485.297545) vcan0 00001308#9602
(1740617485.297547) vcan0 00002008#00000000
(1740617485.297665) vcan0 00001302#2E02
(1740617485.297705) vcan0 00002208#F9FF
(1740617485.297909) vcan0 00002002#00000000
(1740617485.298071) vcan0 00002202#0000
(1740617485.412537) vcan0 0000250F#BE01
(1740617486.242186) vcan0 00001306#7E02
(1740617486.242188) vcan0 00002006#00000000
(1740617486.242299) vcan0 00002206#0000
(1740617486.245044) vcan0 00001201#00
(1740617486.245118) vcan0 00001202#00
(1740617486.245162) vcan0 00001203#00
(1740617486.245201) vcan0 00001204#00
(1740617486.245240) vcan0 00001205#00
(1740617486.245279) vcan0 00001206#00
(1740617486.245322) vcan0 00001207#00
(1740617486.245359) vcan0 00001208#00
(1740617486.245396) vcan0 00001209#00
(1740617486.245439) vcan0 0000120A#00
(1740617486.245485) vcan0 0000120B#00
(1740617486.245528) vcan0 0000120C#00
(1740617486.245566) vcan0 00001221#00
(1740617486.245604) vcan0 00001222#00
(1740617486.245644) vcan0 0000120F#00
(1740617486.257967) vcan0 00001301#6601
(1740617486.258207) vcan0 00002001#00000000
(1740617486.258388) vcan0 00002201#FBFF
(1740617486.261727) vcan0 00001305#A502
(1740617486.261729) vcan0 00002005#00000000
(1740617486.261844) vcan0 00002205#F9FF
(1740617486.266689) vcan0 00001309#2C02
(1740617486.266691) vcan0 00002009#00000000
(1740617486.266802) vcan0 00002209#FCFF
(1740617486.267156) vcan0 0000130C#ED01
(1740617486.267376) vcan0 0000200C#00000000
(1740617486.267544) vcan0 0000220C#FCFF
(1740617486.271199) vcan0 0000130B#8B02
(1740617486.271274) vcan0 0000200B#00000000
(1740617486.271484) vcan0 0000220B#FEFF
(1740617486.277698) vcan0 00001307#F901
(1740617486.277700) vcan0 00002007#00000000
(1740617486.277834) vcan0 00002207#FCFF
(1740617486.278109) vcan0 0000130A#5B02
(1740617486.278329) vcan0 0000200A#00000000
(1740617486.278514) vcan0 0000220A#FCFF
(1740617486.281150) vcan0 00001304#8D02
(1740617486.281152) vcan0 00002004#00000000
(1740617486.281301) vcan0 00002204#FEFF
(1740617486.282046) vcan0 00001303#3801
(1740617486.282048) vcan0 00002003#00000000
(1740617486.282178) vcan0 00002203#FBFF
(1740617486.297551) vcan0 00001308#9602
(1740617486.297553) vcan0 00002008#00000000
(1740617486.297656) vcan0 00001302#2E02
(1740617486.297691) vcan0 00002208#F9FF
(1740617486.297900) vcan0 00002002#00000000
(1740617486.298060) vcan0 00002202#0000
(1740617486.412534) vcan0 0000250F#BE01
(1740617487.242157) vcan0 00001306#7E02
(1740617487.242160) vcan0 00002006#00000000
(1740617487.242274) vcan0 00002206#0000
(1740617487.245006) vcan0 00001201#00
(1740617487.245081) vcan0 00001202#00
(1740617487.245120) vcan0 00001203#00
(1740617487.245157) vcan0 00001204#00
(1740617487.245193) vcan0 00001205#00
(1740617487.245229) vcan0 00001206#00
(1740617487.245265) vcan0 00001207#00
(1740617487.245325) vcan0 00001208#00
(1740617487.245366) vcan0 00001209#00
(1740617487.245408) vcan0 0000120A#00
(1740617487.245448) vcan0 0000120B#00
(1740617487.245489) vcan0 0000120C#00
(1740617487.245529) vcan0 00001221#00
(1740617487.245569) vcan0 00001222#00
(1740617487.245605) vcan0 0000120F#00
(1740617487.257987) vcan0 00001301#6601
(1740617487.258221) vcan0 00002001#00000000
(1740617487.258370) vcan0 00002201#FBFF
(1740617487.261711) vcan0 00001305#A502
(1740617487.261713) vcan0 00002005#00000000
(1740617487.261841) vcan0 00002205#F9FF
(1740617487.266661) vcan0 00001309#2C02
(1740617487.266663) vcan0 00002009#00000000
(1740617487.266798) vcan0 00002209#FCFF
(1740617487.267141) vcan0 0000130C#ED01
(1740617487.267363) vcan0 0000200C#00000000
(1740617487.267545) vcan0 0000220C#FCFF
(1740617487.271202) vcan0 0000130B#8B02
(1740617487.271263) vcan0 0000200B#00000000
(1740617487.271470) vcan0 0000220B#FEFF
(1740617487.277711) vcan0 00001307#F901
(1740617487.277713) vcan0 00002007#00000000
(1740617487.277807) vcan0 00002207#FCFF
(1740617487.278092) vcan0 0000130A#5B02
(1740617487.278325) vcan0 0000200A#00000000
(1740617487.278496) vcan0 0000220A#FCFF
(1740617487.281143) vcan0 00001304#8D02
(1740617487.281145) vcan0 00002004#00000000
(1740617487.281280) vcan0 00002204#FEFF
(1740617487.282242) vcan0 00001303#3801
(1740617487.282244) vcan0 00002003#00000000
(1740617487.282246) vcan0 00002203#FBFF
(1740617487.297528) vcan0 00001308#9602
(1740617487.297530) vcan0 00002008#00000000
(1740617487.297636) vcan0 00002208#F9FF
(1740617487.297683) vcan0 00001302#2E02
(1740617487.297877) vcan0 00002002#00000000
(1740617487.298061) vcan0 00002202#0000
(1740617487.412530) vcan0 0000250F#C101
(1740617488.242145) vcan0 00001306#7E02
(1740617488.242147) vcan0 00002006#00000000
(1740617488.242247) vcan0 00002206#0000
(1740617488.244934) vcan0 00001201#00
(1740617488.245009) vcan0 00001202#00
(1740617488.245047) vcan0 00001203#00
(1740617488.245084) vcan0 00001204#00
(1740617488.245121) vcan0 00001205#00
(1740617488.245156) vcan0 00001206#00
(1740617488.245193) vcan0 00001207#00
(1740617488.245256) vcan0 00001208#00
(1740617488.245294) vcan0 00001209#00
(1740617488.245335) vcan0 0000120A#00
(1740617488.245375) vcan0 0000120B#00
(1740617488.245415) vcan0 0000120C#00
(1740617488.245455) vcan0 00001221#00
(1740617488.245496) vcan0 00001222#00
(1740617488.245533) vcan0 0000120F#00
(1740617488.258229) vcan0 00001301#6601
(1740617488.258231) vcan0 00002001#00000000
(1740617488.258327) vcan0 00002201#FBFF
(1740617488.261866) vcan0 00001305#A502
(1740617488.261868) vcan0 00002005#00000000
(1740617488.261870) vcan0 00002205#F9FF
(1740617488.266803) vcan0 00001309#2C02
(1740617488.266806) vcan0 00002009#00000000
(1740617488.266846) vcan0 00002209#FCFF
(1740617488.267125) vcan0 0000130C#ED01
(1740617488.267347) vcan0 0000200C#00000000
(1740617488.267528) vcan0 0000220C#FCFF
(1740617488.271207) vcan0 0000130B#8B02
(1740617488.271250) vcan0 0000200B#00000000
(1740617488.271420) vcan0 0000220B#FEFF
(1740617488.277834) vcan0 00001307#F901
(1740617488.277836) vcan0 00002007#00000000
(1740617488.277877) vcan0 00002207#FCFF
(1740617488.278057) vcan0 0000130A#5B02
(1740617488.278290) vcan0 0000200A#00000000
(1740617488.278470) vcan0 0000220A#FCFF
(1740617488.281111) vcan0 00001304#8D02
(1740617488.281113) vcan0 00002004#00000000
(1740617488.281246) vcan0 00002204#FEFF
(1740617488.282083) vcan0 00001303#3801
(1740617488.282085) vcan0 00002003#00000000
(1740617488.282140) vcan0 00002203#FBFF
(1740617488.297492) vcan0 00001308#9602
(1740617488.297494) vcan0 00002008#00000000
(1740617488.297621) vcan0 00001302#2E02
(1740617488.297658) vcan0 00002208#F9FF
(1740617488.297859) vcan0 00002002#00000000
(1740617488.298050) vcan0 00002202#0000
(1740617488.412533) vcan0 0000250F#BE01
(1740617489.242119) vcan0 00001306#7E02
(1740617489.242122) vcan0 00002006#00000000
(1740617489.242227) vcan0 00002206#0000
(1740617489.244954) vcan0 00001201#00
(1740617489.245028) vcan0 00001202#00
(1740617489.245067) vcan0 00001203#00
(1740617489.245106) vcan0 00001204#00
(1740617489.245143) vcan0 00001205#00
(1740617489.245179) vcan0 00001206#00
(1740617489.245216) vcan0 00001207#00
(1740617489.245267) vcan0 00001208#00
(1740617489.245312) vcan0 00001209#00
(1740617489.245353) vcan0 0000120A#00
(1740617489.245398) vcan0 0000120B#00
(1740617489.245436) vcan0 0000120C#00
(1740617489.245479) vcan0 00001221#00
(1740617489.245523) vcan0 00001222#00
(1740617489.245559) vcan0 0000120F#00
(1740617489.257989) vcan0 00001301#6601
(1740617489.258118) vcan0 00002001#00000000
(1740617489.258328) vcan0 00002201#FBFF
(1740617489.261805) vcan0 00001305#A502
(1740617489.261808) vcan0 00002005#00000000
(1740617489.261848) vcan0 00002205#F9FF
(1740617489.266706) vcan0 00001309#2C02
(1740617489.266709) vcan0 00002009#00000000
(1740617489.266759) vcan0 00002209#FCFF
(1740617489.267104) vcan0 0000130C#ED01
(1740617489.267336) vcan0 0000200C#00000000
(1740617489.267504) vcan0 0000220C#FCFF
(1740617489.271203) vcan0 0000130B#8B02
(1740617489.271246) vcan0 0000200B#00000000
(1740617489.271404) vcan0 0000220B#FEFF
(1740617489.277750) vcan0 00001307#F901
(1740617489.277752) vcan0 00002007#00000000
(1740617489.277800) vcan0 00002207#FCFF
(1740617489.278062) vcan0 0000130A#5B02
(1740617489.278274) vcan0 0000200A#00000000
(1740617489.278454) vcan0 0000220A#FCFF
(1740617489.281086) vcan0 00001304#8D02
(1740617489.281088) vcan0 00002004#00000000
(1740617489.281249) vcan0 00002204#FEFF
(1740617489.282185) vcan0 00001303#3801
(1740617489.282187) vcan0 00002003#00000000
(1740617489.282189) vcan0 00002203#FBFF
(1740617489.297516) vcan0 00001308#9602
(1740617489.297518) vcan0 00002008#00000000
(1740617489.297604) vcan0 00001302#2E02
(1740617489.297640) vcan0 00002208#F9FF
(1740617489.297852) vcan0 00002002#00000000
(1740617489.298039) vcan0 00002202#0000
(1740617489.412530) vcan0 0000250F#C101
(1740617490.242096) vcan0 00001306#7E02
(1740617490.242098) vcan0 00002006#00000000
(1740617490.242212) vcan0 00002206#0000
(1740617490.244960) vcan0 00001201#00
(1740617490.245034) vcan0 00001202#00
(1740617490.245073) vcan0 00001203#00
(1740617490.245109) vcan0 00001204#00
(1740617490.245146) vcan0 00001205#00
(1740617490.245182) vcan0 00001206#00
(1740617490.245219) vcan0 00001207#00
(1740617490.245256) vcan0 00001208#00
(1740617490.245296) vcan0 00001209#00
(1740617490.245335) vcan0 0000120A#00
(1740617490.245377) vcan0 0000120B#00
(1740617490.245419) vcan0 0000120C#00
(1740617490.245458) vcan0 00001221#00
(1740617490.245496) vcan0 00001222#00
(1740617490.245534) vcan0 0000120F#00
(1740617490.258161) vcan0 00001301#6601
(1740617490.258163) vcan0 00002001#00000000
(1740617490.258282) vcan0 00002201#FBFF
(1740617490.261654) vcan0 00001305#A502
(1740617490.261656) vcan0 00002005#00000000
(1740617490.261777) vcan0 00002205#F9FF
(1740617490.266619) vcan0 00001309#2C02
(1740617490.266621) vcan0 00002009#00000000
(1740617490.266746) vcan0 00002209#FCFF
(1740617490.267093) vcan0 0000130C#ED01
(1740617490.267313) vcan0 0000200C#00000000
(1740617490.267488) vcan0 0000220C#FCFF
(1740617490.271212) vcan0 0000130B#8B02
(1740617490.271246) vcan0 0000200B#00000000
(1740617490.271393) vcan0 0000220B#FEFF
(1740617490.277452) vcan0 00001307#F901
(1740617490.277587) vcan0 00002007#00000000
(1740617490.277808) vcan0 00002207#FCFF
(1740617490.278040) vcan0 0000130A#5B02
(1740617490.278274) vcan0 0000200A#00000000
(1740617490.278444) vcan0 0000220A#FCFF
(1740617490.281075) vcan0 00001304#8D02
(1740617490.281078) vcan0 00002004#00000000
(1740617490.281222) vcan0 00002204#FEFF
(1740617490.282165) vcan0 00001303#3801
(1740617490.282168) vcan0 00002003#00000000
(1740617490.282170) vcan0 00002203#FBFF
(1740617490.297484) vcan0 00001308#9602
(1740617490.297487) vcan0 00002008#00000000
(1740617490.297588) vcan0 00001302#2E02
(1740617490.297624) vcan0 00002208#F9FF
(1740617490.297832) vcan0 00002002#00000000
(1740617490.298025) vcan0 00002202#0000
(1740617490.412491) vcan0 0000250F#C101
(1740617491.242064) vcan0 00001306#7E02
(1740617491.242066) vcan0 00002006#00000000
(1740617491.242191) vcan0 00002206#0000
(1740617491.245184) vcan0 00001201#00
(1740617491.245258) vcan0 00001202#00
(1740617491.245296) vcan0 00001203#00
(1740617491.245334) vcan0 00001204#00
(1740617491.245371) vcan0 00001205#00
(1740617491.245407) vcan0 00001206#00
(1740617491.245444) vcan0 00001207#00
(1740617491.245480) vcan0 00001208#00
(1740617491.245516) vcan0 00001209#00
(1740617491.245553) vcan0 0000120A#00
(1740617491.245589) vcan0 0000120B#00
(1740617491.245613) vcan0 0000120C#00
(1740617491.245636) vcan0 00001221#00
(1740617491.245668) vcan0 00001222#00
(1740617491.245714) vcan0 0000120F#00
(1740617491.257899) vcan0 00001301#6601
(1740617491.258138) vcan0 00002001#00000000
(1740617491.258288) vcan0 00002201#FBFF
(1740617491.261625) vcan0 00001305#A502
(1740617491.261627) vcan0 00002005#00000000
(1740617491.261762) vcan0 00002205#F9FF
(1740617491.266586) vcan0 00001309#2C02
(1740617491.266588) vcan0 00002009#00000000
(1740617491.266725) vcan0 00002209#FCFF
(1740617491.267066) vcan0 0000130C#ED01
(1740617491.267289) vcan0 0000200C#00000000
(1740617491.267471) vcan0 0000220C#FCFF
(1740617491.271194) vcan0 0000130B#8B02
(1740617491.271231) vcan0 0000200B#00000000
(1740617491.271378) vcan0 0000220B#FEFF
(1740617491.277622) vcan0 00001307#F901
(1740617491.277624) vcan0 00002007#00000000
(1740617491.277753) vcan0 00002207#FCFF
(1740617491.278025) vcan0 0000130A#5B02
(1740617491.278257) vcan0 0000200A#00000000
(1740617491.278418) vcan0 0000220A#FCFF
(1740617491.281054) vcan0 00001304#8D02
(1740617491.281084) vcan0 00002004#00000000
(1740617491.281201) vcan0 00002204#FEFF
(1740617491.282144) vcan0 00001303#3801
(1740617491.282146) vcan0 00002003#00000000
(1740617491.282148) vcan0 00002203#FBFF
(1740617491.297640) vcan0 00001308#9602
(1740617491.297642) vcan0 00002008#00000000
(1740617491.297645) vcan0 00001302#2E02
(1740617491.297689) vcan0 00002208#F9FF
(1740617491.297796) vcan0 00002002#00000000
(1740617491.298003) vcan0 00002202#0000
(1740617491.412540) vcan0 0000250F#C101
(1740617492.242057) vcan0 00001306#7E02
(1740617492.242059) vcan0 00002006#00000000
(1740617492.242175) vcan0 00002206#0000
(1740617492.244851) vcan0 00001201#00
(1740617492.244924) vcan0 00001202#00
(1740617492.244963) vcan0 00001203#00
(1740617492.245000) vcan0 00001204#00
(1740617492.245037) vcan0 00001205#00
(1740617492.245074) vcan0 00001206#00
(1740617492.245109) vcan0 00001207#00
(1740617492.245145) vcan0 00001208#00
(1740617492.245211) vcan0 00001209#00
(1740617492.245250) vcan0 0000120A#00
(1740617492.245289) vcan0 0000120B#00
(1740617492.245335) vcan0 0000120C#00
(1740617492.245375) vcan0 00001221#00
(1740617492.245416) vcan0 00001222#00
(1740617492.245454) vcan0 0000120F#00
(1740617492.258139) vcan0 00001301#6601
(1740617492.258141) vcan0 00002001#00000000
(1740617492.258245) vcan0 00002201#FBFF
(1740617492.261613) vcan0 00001305#A502
(1740617492.261615) vcan0 00002005#00000000
(1740617492.261742) vcan0 00002205#F9FF
(1740617492.266573) vcan0 00001309#2C02
(1740617492.266576) vcan0 00002009#00000000
(1740617492.266704) vcan0 00002209#FCFF
(1740617492.267045) vcan0 0000130C#ED01
(1740617492.267268) vcan0 0000200C#00000000
(1740617492.267451) vcan0 0000220C#FCFF
(1740617492.271204) vcan0 0000130B#8B02
(1740617492.271239) vcan0 0000200B#00000000
(1740617492.271355) vcan0 0000220B#FEFF
(1740617492.277613) vcan0 00001307#F901
(1740617492.277615) vcan0 00002007#00000000
(1740617492.277731) vcan0 00002207#FCFF
(1740617492.278004) vcan0 0000130A#5B02
(1740617492.278237) vcan0 0000200A#00000000
(1740617492.278403) vcan0 0000220A#FCFF
(1740617492.281043) vcan0 00001304#8D02
(1740617492.281045) vcan0 00002004#00000000
(1740617492.281178) vcan0 00002204#FEFF
(1740617492.282114) vcan0 00001303#3801
(1740617492.282116) vcan0 00002003#00000000
(1740617492.282118) vcan0 00002203#FBFF
(1740617492.297550) vcan0 00001308#9602
(1740617492.297553) vcan0 00002008#00000000
(1740617492.297602) vcan0 00001302#2E02
(1740617492.297617) vcan0 00002208#F9FF
(1740617492.297809) vcan0 00002002#00000000
(1740617492.297988) vcan0 00002202#0000
(1740617492.412507) vcan0 0000250F#BE01
(1740617493.242074) vcan0 00001306#7E02
(1740617493.242076) vcan0 00002006#00000000
(1740617493.242145) vcan0 00002206#0000
(1740617493.244907) vcan0 00001201#00
(1740617493.244981) vcan0 00001202#00
(1740617493.245019) vcan0 00001203#00
(1740617493.245056) vcan0 00001204#00
(1740617493.245094) vcan0 00001205#00
(1740617493.245130) vcan0 00001206#00
(1740617493.245167) vcan0 00001207#00
(1740617493.245218) vcan0 00001208#00
(1740617493.245253) vcan0 00001209#00
(1740617493.245291) vcan0 0000120A#00
(1740617493.245330) vcan0 0000120B#00
(1740617493.245369) vcan0 0000120C#00
(1740617493.245408) vcan0 00001221#00
(1740617493.245447) vcan0 00001222#00
(1740617493.245478) vcan0 0000120F#00
(1740617493.257864) vcan0 00001301#6601
(1740617493.258113) vcan0 00002001#00000000
(1740617493.258237) vcan0 00002201#FBFF
(1740617493.261588) vcan0 00001305#A502
(1740617493.261591) vcan0 00002005#00000000
(1740617493.261717) vcan0 00002205#F9FF
(1740617493.266549) vcan0 00001309#2C02
(1740617493.266551) vcan0 00002009#00000000
(1740617493.266683) vcan0 00002209#FCFF
(1740617493.267038) vcan0 0000130C#ED01
(1740617493.267252) vcan0 0000200C#00000000
(1740617493.267441) vcan0 0000220C#FCFF
(1740617493.271203) vcan0 0000130B#8B02
(1740617493.271205) vcan0 0000200B#00000000
(1740617493.271342) vcan0 0000220B#FEFF
(1740617493.277587) vcan0 00001307#F901
(1740617493.277589) vcan0 00002007#00000000
(1740617493.277727) vcan0 00002207#FCFF
(1740617493.277990) vcan0 0000130A#5B02
(1740617493.278221) vcan0 0000200A#00000000
(1740617493.278387) vcan0 0000220A#FCFF
(1740617493.281059) vcan0 00001304#8D02
(1740617493.281061) vcan0 00002004#00000000
(1740617493.281177) vcan0 00002204#FEFF
(1740617493.281677) vcan0 00001303#3801
(1740617493.281904) vcan0 00002003#00000000
(1740617493.282086) vcan0 00002203#FBFF
(1740617493.297450) vcan0 00001308#9602
(1740617493.297453) vcan0 00002008#00000000
(1740617493.297553) vcan0 00001302#2E02
(1740617493.297588) vcan0 00002208#F9FF
(1740617493.297796) vcan0 00002002#00000000
(1740617493.297988) vcan0 00002202#0000
(1740617493.412526) vcan0 0000250F#BE01
(1740617494.241978) vcan0 00001306#7E02
(1740617494.242037) vcan0 00002006#00000000
(1740617494.242136) vcan0 00002206#0000
(1740617494.244245) vcan0 00001201#00
(1740617494.244296) vcan0 00001202#00
(1740617494.244331) vcan0 00001203#00
(1740617494.244360) vcan0 00001204#00
(1740617494.244393) vcan0 00001205#00
(1740617494.244424) vcan0 00001206#00
(1740617494.244459) vcan0 00001207#00
(1740617494.244490) vcan0 00001208#00
(1740617494.244538) vcan0 00001209#00
(1740617494.244578) vcan0 0000120A#00
(1740617494.244608) vcan0 0000120B#00
(1740617494.244639) vcan0 0000120C#00
(1740617494.244670) vcan0 00001221#00
(1740617494.244701) vcan0 00001222#00
(1740617494.244723) vcan0 0000120F#00
(1740617494.258063) vcan0 00001301#6601
(1740617494.258065) vcan0 00002001#00000000
(1740617494.258213) vcan0 00002201#FBFF
(1740617494.261440) vcan0 00001305#A502
(1740617494.261529) vcan0 00002005#00000000
(1740617494.261724) vcan0 00002205#F9FF
(1740617494.266531) vcan0 00001309#2C02
(1740617494.266534) vcan0 00002009#00000000
(1740617494.266666) vcan0 00002209#FCFF
(1740617494.267020) vcan0 0000130C#ED01
(1740617494.267243) vcan0 0000200C#00000000
(1740617494.267415) vcan0 0000220C#FCFF
(1740617494.270968) vcan0 0000130B#8B02
(1740617494.271448) vcan0 0000200B#00000000
(1740617494.271450) vcan0 0000220B#FEFF
(1740617494.277550) vcan0 00001307#F901
(1740617494.277606) vcan0 00002007#00000000
(1740617494.277695) vcan0 00002207#FCFF
(1740617494.277982) vcan0 0000130A#5B02
(1740617494.278187) vcan0 0000200A#00000000
(1740617494.278385) vcan0 0000220A#FCFF
(1740617494.281008) vcan0 00001304#8D02
(1740617494.281010) vcan0 00002004#00000000
(1740617494.281153) vcan0 00002204#FEFF
(1740617494.281886) vcan0 00001303#3801
(1740617494.281941) vcan0 00002003#00000000
(1740617494.282034) vcan0 00002203#FBFF
(1740617494.297424) vcan0 00001308#9602
(1740617494.297426) vcan0 00002008#00000000
(1740617494.297530) vcan0 00001302#2E02
(1740617494.297570) vcan0 00002208#F9FF
(1740617494.297775) vcan0 00002002#00000000
(1740617494.297989) vcan0 00002202#0000
(1740617494.412591) vcan0 0000250F#BE01
(1740617495.241954) vcan0 00001306#7E02
(1740617495.242015) vcan0 00002006#00000000
(1740617495.242093) vcan0 00002206#0000
(1740617495.244647) vcan0 00001201#00
(1740617495.244714) vcan0 00001202#00
(1740617495.244774) vcan0 00001203#00
(1740617495.244812) vcan0 00001204#00
(1740617495.244851) vcan0 00001205#00
(1740617495.244887) vcan0 00001206#00
(1740617495.244925) vcan0 00001207#00
(1740617495.244965) vcan0 00001208#00
(1740617495.245002) vcan0 00001209#00
(1740617495.245043) vcan0 0000120A#00
(1740617495.245091) vcan0 0000120B#00
(1740617495.245130) vcan0 0000120C#00
(1740617495.245183) vcan0 00001221#00
(1740617495.245232) vcan0 00001222#00
(1740617495.245278) vcan0 0000120F#00
(1740617495.257812) vcan0 00001301#6601
(1740617495.258010) vcan0 00002001#00000000
(1740617495.258220) vcan0 00002201#FBFF
(1740617495.261546) vcan0 00001305#A502
(1740617495.261548) vcan0 00002005#00000000
(1740617495.261684) vcan0 00002205#F9FF
(1740617495.266515) vcan0 00001309#2C02
(1740617495.266517) vcan0 00002009#00000000
(1740617495.266641) vcan0 00002209#FCFF
(1740617495.267002) vcan0 0000130C#ED01
(1740617495.267227) vcan0 0000200C#00000000
(1740617495.267405) vcan0 0000220C#FCFF
(1740617495.271183) vcan0 0000130B#8B02
(1740617495.271185) vcan0 0000200B#00000000
(1740617495.271312) vcan0 0000220B#FEFF
(1740617495.277527) vcan0 00001307#F901
(1740617495.277587) vcan0 00002007#00000000
(1740617495.277685) vcan0 00002207#FCFF
(1740617495.277982) vcan0 0000130A#5B02
(1740617495.278178) vcan0 0000200A#00000000
(1740617495.278338) vcan0 0000220A#FCFF
(1740617495.280991) vcan0 00001304#8D02
(1740617495.280993) vcan0 00002004#00000000
(1740617495.281133) vcan0 00002204#FEFF
(1740617495.281655) vcan0 00001303#3801
(1740617495.281862) vcan0 00002003#00000000
(1740617495.282042) vcan0 00002203#FBFF
(1740617495.297404) vcan0 00001308#9602
(1740617495.297406) vcan0 00002008#00000000
