(1740613353.331307) vcan0 00001306#AF0F
(1740613353.337378) vcan0 00001301#B50F
(1740613353.340746) vcan0 00001305#BA0F
(1740613353.343948) vcan0 00001309#830F
(1740613353.345540) vcan0 0000130C#720F
(1740613353.347620) vcan0 0000130B#B50F
(1740613353.348393) vcan0 00001307#A80F
(1740613353.351126) vcan0 00001303#900F
(1740613353.351225) vcan0 0000130A#A40F
(1740613353.351389) vcan0 00001304#9D0F
(1740613353.359125) vcan0 00001302#7F0F
(1740613353.359305) vcan0 00001308#A80F
(1740613354.331508) vcan0 00001306#AF0F
(1740613354.337362) vcan0 00001301#B10F
(1740613354.340726) vcan0 00001305#BA0F
(1740613354.344061) vcan0 00001309#810F
(1740613354.345520) vcan0 0000130C#740F
(1740613354.347578) vcan0 0000130B#B80F
(1740613354.348311) vcan0 00001307#A80F
(1740613354.350954) vcan0 00001303#900F
(1740613354.351216) vcan0 0000130A#A20F
(1740613354.351368) vcan0 00001304#970F
(1740613354.359152) vcan0 00001302#7F0F
(1740613354.359288) vcan0 00001308#AA0F
(1740613355.331476) vcan0 00001306#AD0F
(1740613355.337346) vcan0 00001301#B50F
(1740613355.340712) vcan0 00001305#BC0F
(1740613355.343904) vcan0 00001309#830F
(1740613355.345500) vcan0 0000130C#720F
(1740613355.347291) vcan0 0000130B#B50F
(1740613355.348502) vcan0 00001307#A60F
(1740613355.350950) vcan0 00001303#900F
(1740613355.351323) vcan0 0000130A#A40F
(1740613355.351348) vcan0 00001304#9B0F
(1740613355.359239) vcan0 00001302#7F0F
(1740613355.359297) vcan0 00001308#AA0F
(1740613356.331466) vcan0 00001306#AF0F
(1740613356.337331) vcan0 00001301#B30F
(1740613356.340672) vcan0 00001305#BC0F
(1740613356.343898) vcan0 00001309#830F
(1740613356.345479) vcan0 0000130C#720F
(1740613356.347488) vcan0 0000130B#B50F
(1740613356.348249) vcan0 00001307#A80F
(1740613356.351245) vcan0 00001303#900F
(1740613356.351250) vcan0 0000130A#A40F
(1740613356.351314) vcan0 00001304#990F
(1740613356.359153) vcan0 00001302#7F0F
(1740613356.359253) vcan0 00001308#A80F
(1740613357.331440) vcan0 00001306#AF0F
(1740613357.337304) vcan0 00001301#B50F
(1740613357.340690) vcan0 00001305#BC0F
(1740613357.343867) vcan0 00001309#830F
(1740613357.345445) vcan0 0000130C#720F
(1740613357.347462) vcan0 0000130B#B80F
(1740613357.348386) vcan0 00001307#A60F
(1740613357.351179) vcan0 00001303#8E0F
(1740613357.351220) vcan0 0000130A#A40F
(1740613357.351329) vcan0 00001304#9B0F
(1740613357.359074) vcan0 00001302#7F0F
(1740613357.359248) vcan0 00001308#A80F
(1740613358.331421) vcan0 00001306#AD0F
(1740613358.337284) vcan0 00001301#B30F
(1740613358.340689) vcan0 00001305#BA0F
(1740613358.343848) vcan0 00001309#830F
(1740613358.345441) vcan0 0000130C#720F
(1740613358.347444) vcan0 0000130B#B50F
(1740613358.348392) vcan0 00001307#A60F
(1740613358.350955) vcan0 00001303#900F
(1740613358.351147) vcan0 0000130A#A40F
(1740613358.351313) vcan0 00001304#9B0F
(1740613358.358802) vcan0 00001302#810F
(1740613358.359258) vcan0 00001308#A80F
(1740613359.331392) vcan0 00001306#AD0F
(1740613359.337264) vcan0 00001301#B30F
(1740613359.340626) vcan0 00001305#B80F
(1740613359.344127) vcan0 00001309#7F0F
(1740613359.345420) vcan0 0000130C#720F
(1740613359.347419) vcan0 0000130B#B50F
(1740613359.348345) vcan0 00001307#A80F
(1740613359.351143) vcan0 00001303#900F
(1740613359.351186) vcan0 0000130A#A40F
(1740613359.351269) vcan0 00001304#990F
(1740613359.359036) vcan0 00001302#7F0F
(1740613359.359220) vcan0 00001308#AA0F
(1740613360.331385) vcan0 00001306#AF0F
(1740613360.337242) vcan0 00001301#B50F
(1740613360.340740) vcan0 00001305#BC0F
(1740613360.344073) vcan0 00001309#830F
(1740613360.345406) vcan0 0000130C#720F
(1740613360.347408) vcan0 0000130B#B50F
(1740613360.348485) vcan0 00001307#A80F
(1740613360.351102) vcan0 00001303#900F
(1740613360.351136) vcan0 0000130A#A40F
(1740613360.351275) vcan0 00001304#9B0F
(1740613360.359012) vcan0 00001302#7F0F
(1740613360.359198) vcan0 00001308#A80F
(1740613361.331385) vcan0 00001306#AF0F
(1740613361.337227) vcan0 00001301#B30F
(1740613361.340644) vcan0 00001305#BA0F
(1740613361.344061) vcan0 00001309#830F
(1740613361.345408) vcan0 0000130C#720F
(1740613361.347379) vcan0 0000130B#B50F
(1740613361.348353) vcan0 00001307#A40F
(1740613361.351101) vcan0 00001303#900F
(1740613361.351136) vcan0 0000130A#A40F
(1740613361.351254) vcan0 00001304#970F
(1740613361.359003) vcan0 00001302#7F0F
(1740613361.359184) vcan0 00001308#AA0F
(1740613362.331344) vcan0 00001306#AD0F
(1740613362.337206) vcan0 00001301#B50F
(1740613362.340566) vcan0 00001305#BC0F
(1740613362.343763) vcan0 00001309#810F
(1740613362.345365) vcan0 0000130C#740F
(1740613362.347371) vcan0 0000130B#B50F
(1740613362.348207) vcan0 00001307#A60F
(1740613362.350860) vcan0 00001303#900F
(1740613362.351157) vcan0 0000130A#A40F
(1740613362.351205) vcan0 00001304#990F
(1740613362.359060) vcan0 00001302#7F0F
(1740613362.359174) vcan0 00001308#A80F
(1740613363.331314) vcan0 00001306#AD0F
(1740613363.337213) vcan0 00001301#B50F
(1740613363.340561) vcan0 00001305#BA0F
(1740613363.343738) vcan0 00001309#810F
(1740613363.345493) vcan0 0000130C#740F
(1740613363.347382) vcan0 0000130B#B50F
(1740613363.348130) vcan0 00001307#A60F
(1740613363.351065) vcan0 00001303#900F
(1740613363.351100) vcan0 0000130A#A20F
(1740613363.351224) vcan0 00001304#990F
(1740613363.358979) vcan0 00001302#7F0F
(1740613363.359158) vcan0 00001308#A80F
(1740613364.331450) vcan0 00001306#AD0F
(1740613364.337164) vcan0 00001301#B50F
(1740613364.340541) vcan0 00001305#BC0F
(1740613364.343952) vcan0 00001309#810F
(1740613364.345514) vcan0 0000130C#720F
(1740613364.347328) vcan0 0000130B#B50F
(1740613364.348135) vcan0 00001307#A60F
(1740613364.351045) vcan0 00001303#920F
(1740613364.351080) vcan0 0000130A#A20F
(1740613364.351208) vcan0 00001304#970F
(1740613364.358946) vcan0 00001302#810F
(1740613364.359143) vcan0 00001308#A80F
(1740613365.331363) vcan0 00001306#AD0F
(1740613365.337238) vcan0 00001301#B30F
(1740613365.340296) vcan0 00001305#BA0F
(1740613365.343921) vcan0 00001309#830F
(1740613365.345445) vcan0 0000130C#740F
(1740613365.347355) vcan0 0000130B#B50F
(1740613365.348142) vcan0 00001307#A60F
(1740613365.351045) vcan0 00001303#8E0F
(1740613365.351079) vcan0 0000130A#A40F
(1740613365.351187) vcan0 00001304#990F
(1740613365.358961) vcan0 00001302#7D0F
(1740613365.359122) vcan0 00001308#AD0F
(1740613366.331268) vcan0 00001306#AA0F
(1740613366.337111) vcan0 00001301#B30F
(1740613366.340504) vcan0 00001305#B80F
(1740613366.343685) vcan0 00001309#7D0F
(1740613366.345279) vcan0 0000130C#700F
(1740613366.347312) vcan0 0000130B#B30F
(1740613366.348141) vcan0 00001307#A40F
(1740613366.350781) vcan0 00001303#8C0F
(1740613366.351004) vcan0 0000130A#9F0F
(1740613366.351184) vcan0 00001304#970F
(1740613366.358727) vcan0 00001302#7B0F
(1740613366.359099) vcan0 00001308#A80F
(1740613367.331214) vcan0 00001306#B50F
(1740613367.337107) vcan0 00001301#B30F
(1740613367.340468) vcan0 00001305#B50F
(1740613367.343655) vcan0 00001309#7F0F
(1740613367.345283) vcan0 0000130C#700F
(1740613367.347057) vcan0 0000130B#B30F
(1740613367.348073) vcan0 00001307#A40F
(1740613367.350994) vcan0 00001303#8C0F
(1740613367.351028) vcan0 0000130A#9F0F
(1740613367.351121) vcan0 00001304#950F
(1740613367.358910) vcan0 00001302#7B0F
(1740613367.359104) vcan0 00001308#A80F
(1740613368.331197) vcan0 00001306#A80F
(1740613368.337059) vcan0 00001301#B10F
(1740613368.340442) vcan0 00001305#B50F
(1740613368.343633) vcan0 00001309#7F0F
(1740613368.345263) vcan0 0000130C#6D0F
(1740613368.347041) vcan0 0000130B#B30F
(1740613368.347838) vcan0 00001307#A20F
(1740613368.351218) vcan0 00001303#8C0F
(1740613368.351223) vcan0 0000130A#9B0F
(1740613368.351225) vcan0 00001304#920F
(1740613368.358916) vcan0 00001302#7B0F
(1740613368.359080) vcan0 00001308#A80F
(1740613369.331170) vcan0 00001306#AF0F
(1740613369.337049) vcan0 00001301#B30F
(1740613369.340449) vcan0 00001305#BC0F
(1740613369.343641) vcan0 00001309#830F
(1740613369.345222) vcan0 0000130C#720F
(1740613369.347083) vcan0 0000130B#B50F
(1740613369.348039) vcan0 00001307#A60F
(1740613369.351123) vcan0 00001303#920F
(1740613369.351128) vcan0 0000130A#A60F
(1740613369.351177) vcan0 00001304#9B0F
(1740613369.358896) vcan0 00001302#810F
(1740613369.359072) vcan0 00001308#A80F
(1740613370.331165) vcan0 00001306#AD0F
(1740613370.337033) vcan0 00001301#B30F
(1740613370.340416) vcan0 00001305#BA0F
(1740613370.343602) vcan0 00001309#830F
(1740613370.345206) vcan0 0000130C#720F
(1740613370.346980) vcan0 0000130B#B30F
(1740613370.348034) vcan0 00001307#A80F
(1740613370.350748) vcan0 00001303#920F
(1740613370.350956) vcan0 0000130A#A40F
(1740613370.351087) vcan0 00001304#990F
(1740613370.358674) vcan0 00001302#7F0F
(1740613370.359057) vcan0 00001308#AA0F
(1740613371.331132) vcan0 00001306#AD0F
(1740613371.337007) vcan0 00001301#B30F
(1740613371.340393) vcan0 00001305#BA0F
(1740613371.343603) vcan0 00001309#830F
(1740613371.345176) vcan0 0000130C#740F
(1740613371.346968) vcan0 0000130B#B50F
(1740613371.348120) vcan0 00001307#A80F
(1740613371.350959) vcan0 00001303#900F
(1740613371.350998) vcan0 0000130A#A40F
(1740613371.351068) vcan0 00001304#990F
(1740613371.358866) vcan0 00001302#7F0F
(1740613371.359035) vcan0 00001308#A80F
(1740613372.331112) vcan0 00001306#AD0F
(1740613372.336992) vcan0 00001301#B50F
(1740613372.340389) vcan0 00001305#BA0F
(1740613372.343573) vcan0 00001309#830F
(1740613372.345166) vcan0 0000130C#720F
(1740613372.346963) vcan0 0000130B#B50F
(1740613372.348031) vcan0 00001307#A40F
(1740613372.350906) vcan0 00001303#900F
(1740613372.350940) vcan0 0000130A#A40F
(1740613372.351043) vcan0 00001304#970F
(1740613372.358865) vcan0 00001302#7F0F
(1740613372.359022) vcan0 00001308#A80F
(1740613373.331089) vcan0 00001306#AD0F
(1740613373.336970) vcan0 00001301#B30F
(1740613373.340365) vcan0 00001305#BE0F
(1740613373.343564) vcan0 00001309#810F
(1740613373.345152) vcan0 0000130C#720F
(1740613373.346955) vcan0 0000130B#B30F
(1740613373.347965) vcan0 00001307#A80F
(1740613373.350879) vcan0 00001303#900F
(1740613373.350936) vcan0 0000130A#A40F
(1740613373.351021) vcan0 00001304#990F
(1740613373.358865) vcan0 00001302#7F0F
(1740613373.358999) vcan0 00001308#A40F
(1740613374.331069) vcan0 00001306#AD0F
(1740613374.336950) vcan0 00001301#B30F
(1740613374.340343) vcan0 00001305#BC0F
(1740613374.343533) vcan0 00001309#830F
(1740613374.345130) vcan0 0000130C#720F
(1740613374.346957) vcan0 0000130B#B50F
(1740613374.348099) vcan0 00001307#A80F
(1740613374.350651) vcan0 00001303#900F
(1740613374.350902) vcan0 0000130A#A40F
(1740613374.351009) vcan0 00001304#990F
(1740613374.358711) vcan0 00001302#810F
(1740613374.358983) vcan0 00001308#A80F
(1740613375.331048) vcan0 00001306#AD0F
(1740613375.337016) vcan0 00001301#B80F
(1740613375.340468) vcan0 00001305#BA0F
(1740613375.343605) vcan0 00001309#810F
(1740613375.345133) vcan0 0000130C#720F
(1740613375.346950) vcan0 0000130B#B50F
(1740613375.347925) vcan0 00001307#A60F
(1740613375.350849) vcan0 00001303#920F
(1740613375.350889) vcan0 0000130A#A20F
(1740613375.351003) vcan0 00001304#990F
(1740613375.358788) vcan0 00001302#7F0F
(1740613375.358986) vcan0 00001308#A80F
(1740613376.331029) vcan0 00001306#AD0F
(1740613376.336947) vcan0 00001301#B30F
(1740613376.340293) vcan0 00001305#BA0F
(1740613376.343561) vcan0 00001309#830F
(1740613376.345120) vcan0 0000130C#720F
(1740613376.346944) vcan0 0000130B#B50F
(1740613376.347936) vcan0 00001307#A60F
(1740613376.350866) vcan0 00001303#900F
(1740613376.350953) vcan0 0000130A#A40F
(1740613376.350982) vcan0 00001304#990F
(1740613376.358771) vcan0 00001302#810F
(1740613376.358969) vcan0 00001308#A80F
(1740613377.331031) vcan0 00001306#AA0F
(1740613377.336926) vcan0 00001301#B50F
(1740613377.340407) vcan0 00001305#B80F
(1740613377.343296) vcan0 00001309#810F
(1740613377.345077) vcan0 0000130C#720F
(1740613377.346893) vcan0 0000130B#B80F
(1740613377.347920) vcan0 00001307#A40F
(1740613377.350879) vcan0 00001303#900F
(1740613377.350884) vcan0 0000130A#A20F
(1740613377.350957) vcan0 00001304#990F
(1740613377.358769) vcan0 00001302#810F
(1740613377.358952) vcan0 00001308#A80F
(1740613378.330996) vcan0 00001306#AF0F
(1740613378.336905) vcan0 00001301#B30F
(1740613378.340266) vcan0 00001305#BA0F
(1740613378.343533) vcan0 00001309#830F
(1740613378.345056) vcan0 0000130C#720F
(1740613378.346855) vcan0 0000130B#B50F
(1740613378.347889) vcan0 00001307#A60F
(1740613378.350681) vcan0 00001303#920F
(1740613378.350829) vcan0 0000130A#A20F
(1740613378.350942) vcan0 00001304#990F
(1740613378.358648) vcan0 00001302#7F0F
(1740613378.358941) vcan0 00001308#A80F
(1740613379.330960) vcan0 00001306#AD0F
(1740613379.336884) vcan0 00001301#B30F
(1740613379.340255) vcan0 00001305#BA0F
(1740613379.343259) vcan0 00001309#810F
(1740613379.345105) vcan0 0000130C#720F
(1740613379.346841) vcan0 0000130B#B80F
(1740613379.347644) vcan0 00001307#A80F
(1740613379.350821) vcan0 00001303#900F
(1740613379.350862) vcan0 0000130A#A20F
(1740613379.350929) vcan0 00001304#990F
(1740613379.358740) vcan0 00001302#7F0F
(1740613379.358929) vcan0 00001308#A80F
(1740613380.331091) vcan0 00001306#AF0F
(1740613380.336835) vcan0 00001301#B50F
(1740613380.340216) vcan0 00001305#B80F
(1740613380.343234) vcan0 00001309#830F
(1740613380.345036) vcan0 0000130C#720F
(1740613380.346819) vcan0 0000130B#B50F
(1740613380.347969) vcan0 00001307#A60F
(1740613380.350775) vcan0 00001303#900F
(1740613380.350808) vcan0 0000130A#A40F
(1740613380.350911) vcan0 00001304#970F
(1740613380.358723) vcan0 00001302#7F0F
(1740613380.358938) vcan0 00001308#A80F
(1740613381.331000) vcan0 00001306#AF0F
(1740613381.336820) vcan0 00001301#B30F
(1740613381.340199) vcan0 00001305#BA0F
(1740613381.343234) vcan0 00001309#830F
(1740613381.344995) vcan0 0000130C#740F
(1740613381.346805) vcan0 0000130B#B30F
(1740613381.347889) vcan0 00001307#A80F
(1740613381.350763) vcan0 00001303#8E0F
(1740613381.350798) vcan0 0000130A#A20F
(1740613381.350924) vcan0 00001304#990F
(1740613381.358473) vcan0 00001302#7F0F
(1740613381.358914) vcan0 00001308#A80F
(1740613382.330894) vcan0 00001306#AD0F
(1740613382.336792) vcan0 00001301#B30F
(1740613382.340174) vcan0 00001305#B80F
(1740613382.343547) vcan0 00001309#810F
(1740613382.345007) vcan0 0000130C#720F
(1740613382.346783) vcan0 0000130B#B50F
(1740613382.347837) vcan0 00001307#A60F
(1740613382.350653) vcan0 00001303#920F
(1740613382.350754) vcan0 0000130A#A40F
(1740613382.350930) vcan0 00001304#990F
(1740613382.358647) vcan0 00001302#7F0F
(1740613382.358867) vcan0 00001308#AA0F
(1740613383.330893) vcan0 00001306#AD0F
(1740613383.336779) vcan0 00001301#B50F
(1740613383.340168) vcan0 00001305#BA0F
(1740613383.343201) vcan0 00001309#830F
(1740613383.344962) vcan0 0000130C#720F
(1740613383.346762) vcan0 0000130B#B50F
(1740613383.347850) vcan0 00001307#A60F
(1740613383.350985) vcan0 00001303#900F
(1740613383.350990) vcan0 0000130A#A40F
(1740613383.350992) vcan0 00001304#990F
(1740613383.358691) vcan0 00001302#7F0F
(1740613383.358850) vcan0 00001308#A80F
(1740613384.330898) vcan0 00001306#AD0F
(1740613384.336752) vcan0 00001301#B50F
(1740613384.340167) vcan0 00001305#BA0F
(1740613384.343166) vcan0 00001309#830F
(1740613384.344948) vcan0 0000130C#740F
(1740613384.346753) vcan0 0000130B#B80F
(1740613384.347775) vcan0 00001307#A60F
(1740613384.350870) vcan0 00001303#8E0F
(1740613384.350875) vcan0 0000130A#A40F
(1740613384.350948) vcan0 00001304#9B0F
(1740613384.358783) vcan0 00001302#7F0F
(1740613384.358852) vcan0 00001308#A80F
(1740613385.330839) vcan0 00001306#AF0F
(1740613385.336743) vcan0 00001301#B10F
(1740613385.340145) vcan0 00001305#BA0F
(1740613385.343167) vcan0 00001309#830F
(1740613385.344931) vcan0 0000130C#720F
(1740613385.346731) vcan0 0000130B#B30F
(1740613385.347955) vcan0 00001307#A80F
(1740613385.350781) vcan0 00001303#900F
(1740613385.350786) vcan0 0000130A#A20F
(1740613385.350833) vcan0 00001304#9B0F
(1740613385.358694) vcan0 00001302#7F0F
(1740613385.358827) vcan0 00001308#AA0F
(1740613386.330816) vcan0 00001306#AD0F
(1740613386.336744) vcan0 00001301#B50F
(1740613386.340127) vcan0 00001305#BC0F
(1740613386.343159) vcan0 00001309#810F
(1740613386.344894) vcan0 0000130C#700F
(1740613386.346716) vcan0 0000130B#B50F
(1740613386.347898) vcan0 00001307#A60F
(1740613386.350732) vcan0 00001303#900F
(1740613386.350782) vcan0 0000130A#A40F
(1740613386.350818) vcan0 00001304#9D0F
(1740613386.358643) vcan0 00001302#7F0F
(1740613386.358828) vcan0 00001308#AA0F
(1740613387.330787) vcan0 00001306#AF0F
(1740613387.336711) vcan0 00001301#B30F
(1740613387.340108) vcan0 00001305#BA0F
(1740613387.343208) vcan0 00001309#810F
(1740613387.344898) vcan0 0000130C#720F
(1740613387.346695) vcan0 0000130B#B50F
(1740613387.347935) vcan0 00001307#A80F
(1740613387.350656) vcan0 00001303#900F
(1740613387.350690) vcan0 0000130A#A40F
(1740613387.350815) vcan0 00001304#990F
(1740613387.358621) vcan0 00001302#810F
(1740613387.358803) vcan0 00001308#A80F
(1740613388.330770) vcan0 00001306#AD0F
(1740613388.336808) vcan0 00001301#B50F
(1740613388.340066) vcan0 00001305#BC0F
(1740613388.343167) vcan0 00001309#810F
(1740613388.344869) vcan0 0000130C#720F
(1740613388.346673) vcan0 0000130B#B50F
(1740613388.347486) vcan0 00001307#A60F
(1740613388.350434) vcan0 00001303#900F
(1740613388.350691) vcan0 0000130A#A40F
(1740613388.350815) vcan0 00001304#990F
(1740613388.358605) vcan0 00001302#810F
(1740613388.358791) vcan0 00001308#A80F
(1740613389.330749) vcan0 00001306#AF0F
(1740613389.336697) vcan0 00001301#B30F
(1740613389.340093) vcan0 00001305#BA0F
(1740613389.343432) vcan0 00001309#830F
(1740613389.344876) vcan0 0000130C#740F
(1740613389.346653) vcan0 0000130B#B50F
(1740613389.347695) vcan0 00001307#A60F
(1740613389.350629) vcan0 00001303#900F
(1740613389.350679) vcan0 0000130A#A60F
(1740613389.350775) vcan0 00001304#9B0F
(1740613389.358582) vcan0 00001302#810F
(1740613389.358784) vcan0 00001308#A80F
(1740613390.330722) vcan0 00001306#AF0F
(1740613390.336670) vcan0 00001301#B50F
(1740613390.339825) vcan0 00001305#BA0F
(1740613390.343166) vcan0 00001309#830F
(1740613390.344868) vcan0 0000130C#720F
(1740613390.346643) vcan0 0000130B#B50F
(1740613390.347464) vcan0 00001307#A80F
(1740613390.350415) vcan0 00001303#900F
(1740613390.350661) vcan0 0000130A#A40F
(1740613390.350784) vcan0 00001304#990F
(1740613390.358572) vcan0 00001302#7F0F
(1740613390.358772) vcan0 00001308#A80F
(1740613391.330696) vcan0 00001306#AF0F
(1740613391.336655) vcan0 00001301#B50F
(1740613391.340108) vcan0 00001305#BA0F
(1740613391.343293) vcan0 00001309#830F
(1740613391.344818) vcan0 0000130C#700F
(1740613391.346643) vcan0 0000130B#B80F
(1740613391.347653) vcan0 00001307#A60F
(1740613391.350586) vcan0 00001303#900F
(1740613391.350620) vcan0 0000130A#A40F
(1740613391.350721) vcan0 00001304#990F
(1740613391.358564) vcan0 00001302#810F
(1740613391.358743) vcan0 00001308#A80F
(1740613392.330681) vcan0 00001306#AA0F
(1740613392.336607) vcan0 00001301#B30F
(1740613392.340126) vcan0 00001305#BA0F
(1740613392.343240) vcan0 00001309#830F
(1740613392.344797) vcan0 0000130C#720F
(1740613392.346643) vcan0 0000130B#B30F
(1740613392.347641) vcan0 00001307#A60F
(1740613392.350575) vcan0 00001303#900F
(1740613392.350578) vcan0 0000130A#A20F
(1740613392.350720) vcan0 00001304#9B0F
(1740613392.358538) vcan0 00001302#7D0F
(1740613392.358743) vcan0 00001308#A80F
(1740613393.330679) vcan0 00001306#AD0F
(1740613393.336608) vcan0 00001301#B30F
(1740613393.340069) vcan0 00001305#B80F
(1740613393.343211) vcan0 00001309#830F
(1740613393.344776) vcan0 0000130C#740F
(1740613393.346644) vcan0 0000130B#B80F
(1740613393.347633) vcan0 00001307#A40F
(1740613393.350556) vcan0 00001303#8E0F
(1740613393.350559) vcan0 0000130A#A40F
(1740613393.350696) vcan0 00001304#970F
(1740613393.358526) vcan0 00001302#810F
(1740613393.358727) vcan0 00001308#A80F
(1740613394.330665) vcan0 00001306#AF0F
(1740613394.336636) vcan0 00001301#B50F
(1740613394.339746) vcan0 00001305#BA0F
(1740613394.343291) vcan0 00001309#830F
(1740613394.344992) vcan0 0000130C#740F
(1740613394.346557) vcan0 0000130B#B50F
(1740613394.347393) vcan0 00001307#A80F
(1740613394.350328) vcan0 00001303#8E0F
(1740613394.350581) vcan0 0000130A#A20F
(1740613394.350709) vcan0 00001304#990F
(1740613394.358521) vcan0 00001302#7F0F
(1740613394.358716) vcan0 00001308#A80F
(1740613395.330622) vcan0 00001306#AF0F
(1740613395.336574) vcan0 00001301#B30F
(1740613395.339945) vcan0 00001305#B80F
(1740613395.343176) vcan0 00001309#810F
(1740613395.344744) vcan0 0000130C#720F
(1740613395.346547) vcan0 0000130B#B30F
(1740613395.347612) vcan0 00001307#A60F
(1740613395.350537) vcan0 00001303#900F
(1740613395.350540) vcan0 0000130A#A40F
(1740613395.350687) vcan0 00001304#9D0F
(1740613395.358506) vcan0 00001302#810F
(1740613395.358694) vcan0 00001308#A80F
(1740613396.330727) vcan0 00001306#AF0F
(1740613396.336642) vcan0 00001301#B50F
(1740613396.339910) vcan0 00001305#BC0F
(1740613396.343181) vcan0 00001309#830F
(1740613396.344717) vcan0 0000130C#740F
(1740613396.346734) vcan0 0000130B#B80F
(1740613396.347582) vcan0 00001307#A40F
(1740613396.350511) vcan0 00001303#8E0F
(1740613396.350513) vcan0 0000130A#A60F
(1740613396.350689) vcan0 00001304#990F
(1740613396.358502) vcan0 00001302#7F0F
(1740613396.358677) vcan0 00001308#A80F
(1740613397.330649) vcan0 00001306#AA0F
(1740613397.336537) vcan0 00001301#B50F
(1740613397.339958) vcan0 00001305#BA0F
(1740613397.343144) vcan0 00001309#810F
(1740613397.344680) vcan0 0000130C#740F
(1740613397.346721) vcan0 0000130B#B50F
(1740613397.347541) vcan0 00001307#A60F
(1740613397.350760) vcan0 00001303#900F
(1740613397.350763) vcan0 0000130A#A40F
(1740613397.350766) vcan0 00001304#990F
(1740613397.358467) vcan0 00001302#7F0F
(1740613397.358651) vcan0 00001308#A80F
(1740613398.330556) vcan0 00001306#AD0F
(1740613398.336499) vcan0 00001301#B30F
(1740613398.339923) vcan0 00001305#BA0F
(1740613398.342920) vcan0 00001309#810F
(1740613398.344451) vcan0 0000130C#720F
(1740613398.346475) vcan0 0000130B#B50F
(1740613398.347546) vcan0 00001307#A60F
(1740613398.350261) vcan0 00001303#900F
(1740613398.350568) vcan0 0000130A#A20F
(1740613398.350630) vcan0 00001304#990F
(1740613398.358692) vcan0 00001302#7F0F
(1740613398.358698) vcan0 00001308#A80F
(1740613399.330534) vcan0 00001306#AA0F
(1740613399.336476) vcan0 00001301#B30F
(1740613399.339850) vcan0 00001305#BC0F
(1740613399.343120) vcan0 00001309#830F
(1740613399.344657) vcan0 0000130C#6B0F
(1740613399.346677) vcan0 0000130B#B50F
(1740613399.347523) vcan0 00001307#A60F
(1740613399.350461) vcan0 00001303#900F
(1740613399.350463) vcan0 0000130A#A40F
(1740613399.350626) vcan0 00001304#970F
(1740613399.358586) vcan0 00001302#7F0F
(1740613399.358635) vcan0 00001308#A80F
(1740613400.330500) vcan0 00001306#AD0F
(1740613400.336617) vcan0 00001301#B30F
(1740613400.339867) vcan0 00001305#BA0F
(1740613400.343104) vcan0 00001309#830F
(1740613400.344638) vcan0 0000130C#740F
(1740613400.346448) vcan0 0000130B#B30F
(1740613400.347678) vcan0 00001307#A80F
(1740613400.350436) vcan0 00001303#900F
(1740613400.350438) vcan0 0000130A#A40F
(1740613400.350613) vcan0 00001304#9B0F
(1740613400.358524) vcan0 00001302#7F0F
(1740613400.358616) vcan0 00001308#A80F
(1740613401.330481) vcan0 00001306#AD0F
(1740613401.336436) vcan0 00001301#B50F
(1740613401.339869) vcan0 00001305#BA0F
(1740613401.343096) vcan0 00001309#810F
(1740613401.344598) vcan0 0000130C#720F
(1740613401.346638) vcan0 0000130B#B30F
(1740613401.347583) vcan0 00001307#A40F
(1740613401.350456) vcan0 00001303#900F
(1740613401.350459) vcan0 0000130A#A20F
(1740613401.350668) vcan0 00001304#990F
(1740613401.358410) vcan0 00001302#7F0F
(1740613401.358612) vcan0 00001308#A80F
(1740613402.330461) vcan0 00001306#AD0F
(1740613402.336416) vcan0 00001301#B30F
(1740613402.339980) vcan0 00001305#BA0F
(1740613402.342834) vcan0 00001309#810F
(1740613402.344577) vcan0 0000130C#740F
(1740613402.346405) vcan0 0000130B#B50F
(1740613402.347592) vcan0 00001307#A60F
(1740613402.350476) vcan0 00001303#900F
(1740613402.350479) vcan0 0000130A#A40F
(1740613402.350561) vcan0 00001304#990F
(1740613402.358400) vcan0 00001302#7F0F
(1740613402.358609) vcan0 00001308#AA0F
(1740613403.330439) vcan0 00001306#AD0F
(1740613403.336433) vcan0 00001301#B30F
(1740613403.339798) vcan0 00001305#BA0F
(1740613403.342788) vcan0 00001309#810F
(1740613403.344583) vcan0 0000130C#720F
(1740613403.346402) vcan0 0000130B#B50F
(1740613403.347459) vcan0 00001307#A60F
(1740613403.350411) vcan0 00001303#900F
(1740613403.350414) vcan0 0000130A#A20F
(1740613403.350539) vcan0 00001304#990F
(1740613403.358385) vcan0 00001302#7D0F
(1740613403.358573) vcan0 00001308#A80F
(1740613404.330424) vcan0 00001306#AF0F
(1740613404.336401) vcan0 00001301#B50F
(1740613404.339774) vcan0 00001305#B80F
(1740613404.342767) vcan0 00001309#830F
(1740613404.344552) vcan0 0000130C#740F
(1740613404.346375) vcan0 0000130B#B50F
(1740613404.347432) vcan0 00001307#A60F
(1740613404.350164) vcan0 00001303#950F
(1740613404.350432) vcan0 0000130A#A40F
(1740613404.350559) vcan0 00001304#990F
(1740613404.358374) vcan0 00001302#7F0F
(1740613404.358562) vcan0 00001308#AA0F
(1740613405.330401) vcan0 00001306#AD0F
(1740613405.336353) vcan0 00001301#B10F
(1740613405.339576) vcan0 00001305#BA0F
(1740613405.342746) vcan0 00001309#810F
(1740613405.344524) vcan0 0000130C#740F
(1740613405.346569) vcan0 0000130B#B50F
(1740613405.347640) vcan0 00001307#A40F
(1740613405.350382) vcan0 00001303#8E0F
(1740613405.350384) vcan0 0000130A#A40F
(1740613405.350545) vcan0 00001304#990F
(1740613405.358348) vcan0 00001302#7D0F
(1740613405.358550) vcan0 00001308#A80F
(1740613406.330384) vcan0 00001306#AD0F
(1740613406.336338) vcan0 00001301#B50F
(1740613406.339721) vcan0 00001305#BC0F
(1740613406.343014) vcan0 00001309#830F
(1740613406.344544) vcan0 0000130C#720F
(1740613406.346339) vcan0 0000130B#B50F
(1740613406.347414) vcan0 00001307#A60F
(1740613406.350341) vcan0 00001303#920F
(1740613406.350344) vcan0 0000130A#A20F
(1740613406.350479) vcan0 00001304#990F
(1740613406.358345) vcan0 00001302#7F0F
(1740613406.358523) vcan0 00001308#A80F
(1740613407.330368) vcan0 00001306#A80F
(1740613407.336344) vcan0 00001301#B10F
(1740613407.339725) vcan0 00001305#B50F
(1740613407.342970) vcan0 00001309#7F0F
(1740613407.344280) vcan0 0000130C#6D0F
(1740613407.346329) vcan0 0000130B#B10F
(1740613407.347409) vcan0 00001307#9D0F
(1740613407.350319) vcan0 00001303#8C0F
(1740613407.350322) vcan0 0000130A#9F0F
(1740613407.350482) vcan0 00001304#920F
(1740613407.358322) vcan0 00001302#7B0F
(1740613407.358516) vcan0 00001308#A80F
(1740613408.330340) vcan0 00001306#A60F
(1740613408.336301) vcan0 00001301#B30F
(1740613408.339669) vcan0 00001305#B30F
(1740613408.342950) vcan0 00001309#7F0F
(1740613408.344249) vcan0 0000130C#700F
(1740613408.346297) vcan0 0000130B#B30F
(1740613408.347426) vcan0 00001307#A40F
(1740613408.350307) vcan0 00001303#8A0F
(1740613408.350309) vcan0 0000130A#9B0F
(1740613408.350474) vcan0 00001304#920F
(1740613408.358311) vcan0 00001302#7B0F
(1740613408.358508) vcan0 00001308#AA0F
(1740613409.330327) vcan0 00001306#AA0F
(1740613409.336308) vcan0 00001301#B30F
(1740613409.339658) vcan0 00001305#B50F
(1740613409.342938) vcan0 00001309#7F0F
(1740613409.344243) vcan0 0000130C#6D0F
(1740613409.346292) vcan0 0000130B#B10F
(1740613409.347127) vcan0 00001307#A40F
(1740613409.350074) vcan0 00001303#8C0F
(1740613409.350329) vcan0 0000130A#9D0F
(1740613409.350468) vcan0 00001304#990F
(1740613409.358317) vcan0 00001302#7B0F
(1740613409.358466) vcan0 00001308#A80F
(1740613410.330304) vcan0 00001306#AD0F
(1740613410.336270) vcan0 00001301#B30F
(1740613410.339646) vcan0 00001305#BA0F
(1740613410.343040) vcan0 00001309#830F
(1740613410.344642) vcan0 0000130C#720F
(1740613410.346271) vcan0 0000130B#B50F
(1740613410.347332) vcan0 00001307#A60F
(1740613410.350277) vcan0 00001303#900F
(1740613410.350280) vcan0 0000130A#A40F
(1740613410.350430) vcan0 00001304#990F
(1740613410.358286) vcan0 00001302#810F
(1740613410.358463) vcan0 00001308#A80F
(1740613411.330271) vcan0 00001306#AD0F
(1740613411.336271) vcan0 00001301#B50F
(1740613411.339612) vcan0 00001305#BA0F
(1740613411.342904) vcan0 00001309#810F
(1740613411.344551) vcan0 0000130C#720F
(1740613411.346460) vcan0 0000130B#B50F
(1740613411.347335) vcan0 00001307#A60F
(1740613411.350271) vcan0 00001303#900F
(1740613411.350274) vcan0 0000130A#A40F
(1740613411.350420) vcan0 00001304#990F
(1740613411.358271) vcan0 00001302#810F
(1740613411.358454) vcan0 00001308#A80F
(1740613412.330393) vcan0 00001306#A80F
(1740613412.336234) vcan0 00001301#B30F
(1740613412.339613) vcan0 00001305#BA0F
(1740613412.342912) vcan0 00001309#810F
(1740613412.344409) vcan0 0000130C#720F
(1740613412.346442) vcan0 0000130B#B10F
(1740613412.347327) vcan0 00001307#A40F
(1740613412.350503) vcan0 00001303#8C0F
(1740613412.350506) vcan0 0000130A#A20F
(1740613412.350510) vcan0 00001304#950F
(1740613412.358407) vcan0 00001302#7D0F
(1740613412.358464) vcan0 00001308#A80F
(1740613413.330297) vcan0 00001306#A80F
(1740613413.336258) vcan0 00001301#B30F
(1740613413.339580) vcan0 00001305#B80F
(1740613413.342832) vcan0 00001309#7F0F
(1740613413.344385) vcan0 0000130C#6D0F
(1740613413.346419) vcan0 0000130B#B10F
(1740613413.347329) vcan0 00001307#A40F
(1740613413.350431) vcan0 00001303#880F
(1740613413.350434) vcan0 0000130A#9F0F
(1740613413.350438) vcan0 00001304#950F
(1740613413.358416) vcan0 00001302#7D0F
(1740613413.358462) vcan0 00001308#A80F
(1740613414.330206) vcan0 00001306#A80F
(1740613414.336186) vcan0 00001301#B10F
(1740613414.339383) vcan0 00001305#B80F
(1740613414.342908) vcan0 00001309#7F0F
(1740613414.344364) vcan0 0000130C#6D0F
(1740613414.346183) vcan0 0000130B#B30F
(1740613414.347327) vcan0 00001307#A20F
(1740613414.349995) vcan0 00001303#8C0F
(1740613414.350565) vcan0 0000130A#9D0F
(1740613414.350569) vcan0 00001304#970F
(1740613414.358337) vcan0 00001302#7B0F
(1740613414.358398) vcan0 00001308#A80F
(1740613415.330179) vcan0 00001306#AD0F
(1740613415.336171) vcan0 00001301#B30F
(1740613415.339545) vcan0 00001305#B50F
(1740613415.342781) vcan0 00001309#7F0F
(1740613415.344341) vcan0 0000130C#6B0F
(1740613415.346167) vcan0 0000130B#B30F
(1740613415.347607) vcan0 00001307#A20F
(1740613415.350196) vcan0 00001303#8C0F
(1740613415.350198) vcan0 0000130A#9B0F
(1740613415.350346) vcan0 00001304#920F
(1740613415.358201) vcan0 00001302#7B0F
(1740613415.358399) vcan0 00001308#A80F
(1740613416.330151) vcan0 00001306#A80F
(1740613416.336150) vcan0 00001301#B30F
(1740613416.339318) vcan0 00001305#B80F
(1740613416.342537) vcan0 00001309#7F0F
(1740613416.344315) vcan0 0000130C#700F
(1740613416.346146) vcan0 0000130B#B10F
(1740613416.347012) vcan0 00001307#A20F
(1740613416.349948) vcan0 00001303#8E0F
(1740613416.350212) vcan0 0000130A#9F0F
(1740613416.350365) vcan0 00001304#970F
(1740613416.358193) vcan0 00001302#7B0F
(1740613416.358379) vcan0 00001308#A80F
(1740613417.330135) vcan0 00001306#AA0F
(1740613417.336130) vcan0 00001301#B10F
(1740613417.339515) vcan0 00001305#B50F
(1740613417.342732) vcan0 00001309#7F0F
(1740613417.344296) vcan0 0000130C#6D0F
(1740613417.346345) vcan0 0000130B#B10F
(1740613417.346976) vcan0 00001307#A40F
(1740613417.350183) vcan0 00001303#8A0F
(1740613417.350186) vcan0 0000130A#9F0F
(1740613417.350344) vcan0 00001304#970F
(1740613417.358179) vcan0 00001302#7B0F
(1740613417.358366) vcan0 00001308#A80F
(1740613418.330119) vcan0 00001306#A80F
(1740613418.336115) vcan0 00001301#B30F
(1740613418.339527) vcan0 00001305#B80F
(1740613418.342503) vcan0 00001309#7D0F
(1740613418.344066) vcan0 0000130C#6D0F
(1740613418.346120) vcan0 0000130B#B10F
(1740613418.346954) vcan0 00001307#A40F
(1740613418.349922) vcan0 00001303#8E0F
(1740613418.350178) vcan0 0000130A#9D0F
(1740613418.350305) vcan0 00001304#950F
(1740613418.358157) vcan0 00001302#7B0F
(1740613418.358360) vcan0 00001308#A60F
(1740613419.330098) vcan0 00001306#AA0F
(1740613419.336088) vcan0 00001301#B30F
(1740613419.339291) vcan0 00001305#B80F
(1740613419.342890) vcan0 00001309#7D0F
(1740613419.344251) vcan0 0000130C#6D0F
(1740613419.346104) vcan0 0000130B#B30F
(1740613419.346956) vcan0 00001307#A40F
(1740613419.350132) vcan0 00001303#8C0F
(1740613419.350134) vcan0 0000130A#9D0F
(1740613419.350287) vcan0 00001304#920F
(1740613419.358147) vcan0 00001302#7B0F
(1740613419.358335) vcan0 00001308#A60F
(1740613420.330080) vcan0 00001306#AA0F
(1740613420.336078) vcan0 00001301#B30F
(1740613420.339239) vcan0 00001305#B50F
(1740613420.342465) vcan0 00001309#7F0F
(1740613420.344236) vcan0 0000130C#720F
(1740613420.346078) vcan0 0000130B#B10F
(1740613420.346938) vcan0 00001307#A60F
(1740613420.350116) vcan0 00001303#8A0F
(1740613420.350119) vcan0 0000130A#9D0F
(1740613420.350303) vcan0 00001304#970F
(1740613420.358127) vcan0 00001302#7B0F
(1740613420.358327) vcan0 00001308#A80F
(1740613421.330049) vcan0 00001306#A80F
(1740613421.336057) vcan0 00001301#B10F
(1740613421.339243) vcan0 00001305#B50F
(1740613421.342440) vcan0 00001309#7F0F
(1740613421.344225) vcan0 0000130C#6D0F
(1740613421.346063) vcan0 0000130B#B10F
(1740613421.346925) vcan0 00001307#A40F
(1740613421.350107) vcan0 00001303#8A0F
(1740613421.350110) vcan0 0000130A#9F0F
(1740613421.350285) vcan0 00001304#950F
(1740613421.358100) vcan0 00001302#7B0F
(1740613421.358292) vcan0 00001308#9D0F
(1740613422.330031) vcan0 00001306#990F
(1740613422.336036) vcan0 00001301#9D0F
(1740613422.339206) vcan0 00001305#A60F
(1740613422.342413) vcan0 00001309#6B0F
(1740613422.344210) vcan0 0000130C#5C0F
(1740613422.346058) vcan0 0000130B#9F0F
(1740613422.346918) vcan0 00001307#8E0F
(1740613422.350077) vcan0 00001303#780F
(1740613422.350080) vcan0 0000130A#8A0F
(1740613422.350265) vcan0 00001304#810F
(1740613422.358093) vcan0 00001302#6B0F
(1740613422.358276) vcan0 00001308#950F
(1740613423.330028) vcan0 00001306#AA0F
(1740613423.336043) vcan0 00001301#B30F
(1740613423.339187) vcan0 00001305#B80F
(1740613423.342633) vcan0 00001309#7F0F
(1740613423.344199) vcan0 0000130C#6D0F
(1740613423.346246) vcan0 0000130B#B10F
(1740613423.346903) vcan0 00001307#A40F
(1740613423.350069) vcan0 00001303#8E0F
(1740613423.350071) vcan0 0000130A#9F0F
(1740613423.350228) vcan0 00001304#950F
(1740613423.358117) vcan0 00001302#7D0F
(1740613423.358270) vcan0 00001308#A80F
(1740613424.329972) vcan0 00001306#900F
(1740613424.336027) vcan0 00001301#990F
(1740613424.339171) vcan0 00001305#9B0F
(1740613424.342593) vcan0 00001309#610F
(1740613424.344163) vcan0 0000130C#530F
(1740613424.346011) vcan0 0000130B#990F
(1740613424.346876) vcan0 00001307#8A0F
(1740613424.350061) vcan0 00001303#720F
(1740613424.350063) vcan0 0000130A#830F
(1740613424.350238) vcan0 00001304#7F0F
(1740613424.358067) vcan0 00001302#650F
(1740613424.358259) vcan0 00001308#8E0F
(1740613425.329978) vcan0 00001306#9B0F
(1740613425.335979) vcan0 00001301#A20F
(1740613425.339229) vcan0 00001305#A40F
(1740613425.342572) vcan0 00001309#690F
(1740613425.344243) vcan0 0000130C#5C0F
(1740613425.346240) vcan0 0000130B#A20F
(1740613425.346861) vcan0 00001307#920F
(1740613425.350044) vcan0 00001303#7B0F
(1740613425.350047) vcan0 0000130A#900F
(1740613425.350200) vcan0 00001304#830F
(1740613425.358084) vcan0 00001302#690F
(1740613425.358242) vcan0 00001308#950F
(1740613426.329973) vcan0 00001306#9F0F
(1740613426.335991) vcan0 00001301#A80F
(1740613426.339255) vcan0 00001305#AD0F
(1740613426.342348) vcan0 00001309#740F
(1740613426.343897) vcan0 0000130C#630F
(1740613426.345974) vcan0 0000130B#A80F
(1740613426.346851) vcan0 00001307#9D0F
(1740613426.350048) vcan0 00001303#830F
(1740613426.350051) vcan0 0000130A#950F
(1740613426.350191) vcan0 00001304#8E0F
(1740613426.358029) vcan0 00001302#720F
(1740613426.358226) vcan0 00001308#9B0F
(1740613427.329930) vcan0 00001306#9B0F
(1740613427.335965) vcan0 00001301#A80F
(1740613427.339189) vcan0 00001305#AA0F
(1740613427.342569) vcan0 00001309#720F
(1740613427.344085) vcan0 0000130C#650F
(1740613427.346156) vcan0 0000130B#A80F
(1740613427.346825) vcan0 00001307#9B0F
(1740613427.350145) vcan0 00001303#7F0F
(1740613427.350148) vcan0 0000130A#920F
(1740613427.350204) vcan0 00001304#880F
(1740613427.358147) vcan0 00001302#700F
(1740613427.358215) vcan0 00001308#9B0F
(1740613428.330047) vcan0 00001306#9F0F
(1740613428.335950) vcan0 00001301#AA0F
(1740613428.339142) vcan0 00001305#AD0F
(1740613428.342541) vcan0 00001309#760F
(1740613428.344125) vcan0 0000130C#690F
(1740613428.346140) vcan0 0000130B#AA0F
(1740613428.346799) vcan0 00001307#9D0F
(1740613428.350154) vcan0 00001303#830F
(1740613428.350157) vcan0 0000130A#970F
(1740613428.350208) vcan0 00001304#900F
(1740613428.358053) vcan0 00001302#720F
(1740613428.358197) vcan0 00001308#A20F
(1740613429.329921) vcan0 00001306#B30F
(1740613429.335933) vcan0 00001301#BC0F
(1740613429.339184) vcan0 00001305#BC0F
(1740613429.342513) vcan0 00001309#880F
(1740613429.344063) vcan0 0000130C#740F
(1740613429.346129) vcan0 0000130B#BA0F
(1740613429.346800) vcan0 00001307#AA0F
(1740613429.350069) vcan0 00001303#920F
(1740613429.350073) vcan0 0000130A#A60F
(1740613429.350145) vcan0 00001304#9D0F
(1740613429.358060) vcan0 00001302#830F
(1740613429.358188) vcan0 00001308#AF0F
(1740613430.329860) vcan0 00001306#AF0F
(1740613430.335881) vcan0 00001301#B30F
(1740613430.339003) vcan0 00001305#B80F
(1740613430.342278) vcan0 00001309#810F
(1740613430.344248) vcan0 0000130C#720F
(1740613430.345897) vcan0 0000130B#B50F
(1740613430.346773) vcan0 00001307#A60F
(1740613430.349731) vcan0 00001303#8E0F
(1740613430.350064) vcan0 0000130A#A40F
(1740613430.350111) vcan0 00001304#990F
(1740613430.358008) vcan0 00001302#7F0F
(1740613430.358170) vcan0 00001308#A80F
(1740613431.329815) vcan0 00001306#AF0F
(1740613431.336121) vcan0 00001301#B30F
(1740613431.339157) vcan0 00001305#BA0F
(1740613431.342270) vcan0 00001309#830F
(1740613431.343810) vcan0 0000130C#740F
(1740613431.345881) vcan0 0000130B#B30F
(1740613431.346757) vcan0 00001307#A60F
(1740613431.349939) vcan0 00001303#900F
(1740613431.349942) vcan0 0000130A#A20F
(1740613431.350091) vcan0 00001304#990F
(1740613431.357978) vcan0 00001302#7F0F
(1740613431.358154) vcan0 00001308#A80F
(1740613432.329811) vcan0 00001306#AF0F
(1740613432.335878) vcan0 00001301#B30F
(1740613432.339155) vcan0 00001305#BC0F
(1740613432.342483) vcan0 00001309#830F
(1740613432.344027) vcan0 0000130C#720F
(1740613432.346060) vcan0 0000130B#B50F
(1740613432.346733) vcan0 00001307#A60F
(1740613432.349936) vcan0 00001303#900F
(1740613432.349938) vcan0 0000130A#A40F
(1740613432.350076) vcan0 00001304#990F
(1740613432.357959) vcan0 00001302#810F
(1740613432.358138) vcan0 00001308#A80F
(1740613433.329774) vcan0 00001306#AD0F
(1740613433.335839) vcan0 00001301#B10F
(1740613433.339168) vcan0 00001305#BA0F
(1740613433.342214) vcan0 00001309#7F0F
(1740613433.343970) vcan0 0000130C#720F
(1740613433.346049) vcan0 0000130B#B50F
(1740613433.346712) vcan0 00001307#A60F
(1740613433.349912) vcan0 00001303#900F
(1740613433.349914) vcan0 0000130A#A20F
(1740613433.350059) vcan0 00001304#9B0F
(1740613433.357952) vcan0 00001302#7F0F
(1740613433.358124) vcan0 00001308#A60F
(1740613434.329767) vcan0 00001306#AD0F
(1740613434.335810) vcan0 00001301#B30F
(1740613434.339183) vcan0 00001305#BA0F
(1740613434.342201) vcan0 00001309#830F
(1740613434.343986) vcan0 0000130C#720F
(1740613434.345818) vcan0 0000130B#B50F
(1740613434.346706) vcan0 00001307#A60F
(1740613434.349890) vcan0 00001303#900F
(1740613434.349892) vcan0 0000130A#A40F
(1740613434.350036) vcan0 00001304#970F
(1740613434.357925) vcan0 00001302#7F0F
(1740613434.358126) vcan0 00001308#AA0F
(1740613435.329757) vcan0 00001306#AA0F
(1740613435.335787) vcan0 00001301#B30F
(1740613435.339133) vcan0 00001305#B80F
(1740613435.342524) vcan0 00001309#830F
(1740613435.343937) vcan0 0000130C#700F
(1740613435.346004) vcan0 0000130B#B30F
(1740613435.346685) vcan0 00001307#A60F
(1740613435.349911) vcan0 00001303#900F
(1740613435.349913) vcan0 0000130A#A40F
(1740613435.350013) vcan0 00001304#970F
(1740613435.357916) vcan0 00001302#7D0F
(1740613435.358098) vcan0 00001308#AA0F
(1740613436.329709) vcan0 00001306#AD0F
(1740613436.335766) vcan0 00001301#B50F
(1740613436.339134) vcan0 00001305#BA0F
(1740613436.342433) vcan0 00001309#830F
(1740613436.343918) vcan0 0000130C#720F
(1740613436.345993) vcan0 0000130B#B50F
(1740613436.346675) vcan0 00001307#A60F
(1740613436.349916) vcan0 00001303#900F
(1740613436.349919) vcan0 0000130A#9F0F
(1740613436.350009) vcan0 00001304#970F
(1740613436.357892) vcan0 00001302#7F0F
(1740613436.358093) vcan0 00001308#A80F
(1740613437.329705) vcan0 00001306#AD0F
(1740613437.335752) vcan0 00001301#B30F
(1740613437.339354) vcan0 00001305#BA0F
(1740613437.342375) vcan0 00001309#810F
(1740613437.343914) vcan0 0000130C#720F
(1740613437.345983) vcan0 0000130B#B50F
(1740613437.346675) vcan0 00001307#A60F
(1740613437.349830) vcan0 00001303#8E0F
(1740613437.349832) vcan0 0000130A#A20F
(1740613437.349998) vcan0 00001304#9B0F
(1740613437.357882) vcan0 00001302#810F
(1740613437.358060) vcan0 00001308#AA0F
(1740613438.329683) vcan0 00001306#AD0F
(1740613438.335750) vcan0 00001301#B30F
(1740613438.339271) vcan0 00001305#B80F
(1740613438.342120) vcan0 00001309#830F
(1740613438.343873) vcan0 0000130C#740F
(1740613438.345966) vcan0 0000130B#B50F
(1740613438.346670) vcan0 00001307#A80F
(1740613438.349842) vcan0 00001303#8A0F
(1740613438.349845) vcan0 0000130A#A40F
(1740613438.349969) vcan0 00001304#990F
(1740613438.357883) vcan0 00001302#810F
(1740613438.358060) vcan0 00001308#AA0F
(1740613439.329667) vcan0 00001306#AD0F
(1740613439.335705) vcan0 00001301#B30F
(1740613439.339196) vcan0 00001305#BA0F
(1740613439.342338) vcan0 00001309#830F
(1740613439.343907) vcan0 0000130C#720F
(1740613439.346096) vcan0 0000130B#B50F
(1740613439.346671) vcan0 00001307#A60F
(1740613439.349809) vcan0 00001303#8E0F
(1740613439.349813) vcan0 0000130A#A40F
(1740613439.349949) vcan0 00001304#990F
(1740613439.357902) vcan0 00001302#7F0F
(1740613439.358044) vcan0 00001308#A80F
(1740613440.329639) vcan0 00001306#AD0F
(1740613440.335689) vcan0 00001301#B30F
(1740613440.338848) vcan0 00001305#BA0F
(1740613440.342316) vcan0 00001309#830F
(1740613440.344107) vcan0 0000130C#740F
(1740613440.345976) vcan0 0000130B#B50F
(1740613440.346600) vcan0 00001307#A60F
(1740613440.349784) vcan0 00001303#970F
(1740613440.349786) vcan0 0000130A#A40F
(1740613440.349940) vcan0 00001304#970F
(1740613440.358129) vcan0 00001302#810F
(1740613440.358136) vcan0 00001308#A80F
(1740613441.329625) vcan0 00001306#AD0F
(1740613441.335673) vcan0 00001301#B30F
(1740613441.339067) vcan0 00001305#B80F
(1740613441.342295) vcan0 00001309#830F
(1740613441.343916) vcan0 0000130C#720F
(1740613441.345901) vcan0 0000130B#B50F
(1740613441.346579) vcan0 00001307#A40F
(1740613441.350059) vcan0 00001303#900F
(1740613441.350062) vcan0 0000130A#A40F
(1740613441.350068) vcan0 00001304#970F
(1740613441.357973) vcan0 00001302#7F0F
(1740613441.358028) vcan0 00001308#A80F
(1740613442.329604) vcan0 00001306#AD0F
(1740613442.335662) vcan0 00001301#B50F
(1740613442.338803) vcan0 00001305#B80F
(1740613442.342053) vcan0 00001309#830F
(1740613442.343830) vcan0 0000130C#720F
(1740613442.345952) vcan0 0000130B#B50F
(1740613442.346563) vcan0 00001307#A60F
(1740613442.349533) vcan0 00001303#8E0F
(1740613442.350163) vcan0 0000130A#A40F
(1740613442.350171) vcan0 00001304#990F
(1740613442.357973) vcan0 00001302#7F0F
(1740613442.358029) vcan0 00001308#A80F
(1740613443.329579) vcan0 00001306#AD0F
(1740613443.335664) vcan0 00001301#B10F
(1740613443.339042) vcan0 00001305#BA0F
(1740613443.342237) vcan0 00001309#810F
(1740613443.343805) vcan0 0000130C#720F
(1740613443.345673) vcan0 0000130B#B30F
(1740613443.346548) vcan0 00001307#A60F
(1740613443.349883) vcan0 00001303#900F
(1740613443.349885) vcan0 0000130A#A40F
(1740613443.349936) vcan0 00001304#990F
(1740613443.357803) vcan0 00001302#7F0F
(1740613443.357988) vcan0 00001308#A80F
(1740613444.329669) vcan0 00001306#AD0F
(1740613444.335636) vcan0 00001301#B30F
(1740613444.339046) vcan0 00001305#BA0F
(1740613444.342231) vcan0 00001309#830F
(1740613444.343774) vcan0 0000130C#720F
(1740613444.345878) vcan0 0000130B#B50F
(1740613444.346527) vcan0 00001307#A40F
(1740613444.349784) vcan0 00001303#8E0F
(1740613444.349787) vcan0 0000130A#A40F
(1740613444.349855) vcan0 00001304#990F
(1740613444.357825) vcan0 00001302#7F0F
(1740613444.357974) vcan0 00001308#A80F
(1740613445.329594) vcan0 00001306#AF0F
(1740613445.335643) vcan0 00001301#B50F
(1740613445.338970) vcan0 00001305#B80F
(1740613445.342227) vcan0 00001309#830F
(1740613445.343743) vcan0 0000130C#700F
(1740613445.345820) vcan0 0000130B#B10F
(1740613445.346513) vcan0 00001307#A60F
(1740613445.349470) vcan0 00001303#900F
(1740613445.349715) vcan0 0000130A#A40F
(1740613445.349878) vcan0 00001304#990F
(1740613445.357535) vcan0 00001302#7D0F
(1740613445.357952) vcan0 00001308#A80F
(1740613446.329537) vcan0 00001306#AA0F
(1740613446.335575) vcan0 00001301#B50F
(1740613446.338739) vcan0 00001305#B80F
(1740613446.341965) vcan0 00001309#810F
(1740613446.343517) vcan0 0000130C#740F
(1740613446.345597) vcan0 0000130B#B50F
(1740613446.346492) vcan0 00001307#A40F
(1740613446.349451) vcan0 00001303#8E0F
(1740613446.349572) vcan0 0000130A#9F0F
(1740613446.349833) vcan0 00001304#990F
(1740613446.357735) vcan0 00001302#7F0F
(1740613446.357938) vcan0 00001308#A80F
(1740613447.329495) vcan0 00001306#AA0F
(1740613447.335581) vcan0 00001301#B50F
(1740613447.338734) vcan0 00001305#BA0F
(1740613447.342169) vcan0 00001309#830F
(1740613447.343733) vcan0 0000130C#740F
(1740613447.345577) vcan0 0000130B#B50F
(1740613447.346477) vcan0 00001307#A60F
(1740613447.349655) vcan0 00001303#900F
(1740613447.349657) vcan0 0000130A#A40F
(1740613447.349805) vcan0 00001304#990F
(1740613447.357722) vcan0 00001302#7F0F
(1740613447.357921) vcan0 00001308#A60F
(1740613448.329468) vcan0 00001306#AD0F
(1740613448.335555) vcan0 00001301#B30F
(1740613448.338702) vcan0 00001305#BA0F
(1740613448.341928) vcan0 00001309#830F
(1740613448.343700) vcan0 0000130C#720F
(1740613448.345556) vcan0 0000130B#B30F
(1740613448.346467) vcan0 00001307#A40F
(1740613448.349648) vcan0 00001303#8E0F
(1740613448.349650) vcan0 0000130A#A20F
(1740613448.349791) vcan0 00001304#970F
(1740613448.357707) vcan0 00001302#7F0F
(1740613448.357870) vcan0 00001308#AA0F
(1740613449.329437) vcan0 00001306#AD0F
(1740613449.335551) vcan0 00001301#B50F
(1740613449.338952) vcan0 00001305#B80F
(1740613449.341922) vcan0 00001309#830F
(1740613449.343741) vcan0 0000130C#720F
(1740613449.345540) vcan0 0000130B#B50F
(1740613449.346440) vcan0 00001307#A60F
(1740613449.349637) vcan0 00001303#8E0F
(1740613449.349640) vcan0 0000130A#A20F
(1740613449.349764) vcan0 00001304#970F
(1740613449.357730) vcan0 00001302#7F0F
(1740613449.357897) vcan0 00001308#AA0F
(1740613450.329422) vcan0 00001306#AA0F
(1740613450.335526) vcan0 00001301#B50F
(1740613450.338668) vcan0 00001305#BA0F
(1740613450.341897) vcan0 00001309#810F
(1740613450.343675) vcan0 0000130C#720F
(1740613450.345726) vcan0 0000130B#B50F
(1740613450.346409) vcan0 00001307#A60F
(1740613450.349405) vcan0 00001303#8E0F
(1740613450.349495) vcan0 0000130A#9F0F
(1740613450.349750) vcan0 00001304#9B0F
(1740613450.357686) vcan0 00001302#7F0F
(1740613450.357873) vcan0 00001308#A80F
(1740613451.329403) vcan0 00001306#A80F
(1740613451.335509) vcan0 00001301#B30F
(1740613451.338954) vcan0 00001305#B80F
(1740613451.341890) vcan0 00001309#830F
(1740613451.343422) vcan0 0000130C#720F
(1740613451.345498) vcan0 0000130B#B50F
(1740613451.346410) vcan0 00001307#A60F
(1740613451.349631) vcan0 00001303#8E0F
(1740613451.349633) vcan0 0000130A#A40F
(1740613451.349736) vcan0 00001304#970F
(1740613451.357689) vcan0 00001302#810F
(1740613451.357822) vcan0 00001308#A80F
(1740613452.329361) vcan0 00001306#AD0F
(1740613452.335488) vcan0 00001301#B30F
(1740613452.338679) vcan0 00001305#BA0F
(1740613452.341855) vcan0 00001309#830F
(1740613452.343612) vcan0 0000130C#740F
(1740613452.345700) vcan0 0000130B#B50F
(1740613452.346389) vcan0 00001307#A60F
(1740613452.349599) vcan0 00001303#900F
(1740613452.349602) vcan0 0000130A#A40F
(1740613452.349714) vcan0 00001304#990F
(1740613452.357686) vcan0 00001302#7F0F
(1740613452.357810) vcan0 00001308#AA0F
(1740613453.329144) vcan0 00001306#AD0F
(1740613453.335468) vcan0 00001301#B30F
(1740613453.338938) vcan0 00001305#BA0F
(1740613453.341838) vcan0 00001309#830F
(1740613453.343386) vcan0 0000130C#720F
(1740613453.345468) vcan0 0000130B#B50F
(1740613453.346378) vcan0 00001307#A60F
(1740613453.349601) vcan0 00001303#8E0F
(1740613453.349604) vcan0 0000130A#A40F
(1740613453.349701) vcan0 00001304#9B0F
(1740613453.357670) vcan0 00001302#810F
(1740613453.357830) vcan0 00001308#A80F
(1740613454.329352) vcan0 00001306#AD0F
(1740613454.335447) vcan0 00001301#B50F
(1740613454.338950) vcan0 00001305#BA0F
(1740613454.341809) vcan0 00001309#810F
(1740613454.343574) vcan0 0000130C#740F
(1740613454.345801) vcan0 0000130B#B50F
(1740613454.346357) vcan0 00001307#A60F
(1740613454.349331) vcan0 00001303#8E0F
(1740613454.349428) vcan0 0000130A#A20F
(1740613454.349699) vcan0 00001304#990F
(1740613454.357624) vcan0 00001302#7F0F
(1740613454.357813) vcan0 00001308#A80F
(1740613455.329321) vcan0 00001306#AD0F
(1740613455.335431) vcan0 00001301#B30F
(1740613455.338569) vcan0 00001305#B80F
(1740613455.341799) vcan0 00001309#810F
(1740613455.343575) vcan0 0000130C#720F
(1740613455.345703) vcan0 0000130B#B30F
(1740613455.346337) vcan0 00001307#A60F
(1740613455.349529) vcan0 00001303#900F
(1740613455.349532) vcan0 0000130A#A20F
(1740613455.349684) vcan0 00001304#990F
(1740613455.357876) vcan0 00001302#7F0F
(1740613455.357883) vcan0 00001308#A80F
(1740613456.329297) vcan0 00001306#AD0F
(1740613456.335404) vcan0 00001301#B50F
(1740613456.338544) vcan0 00001305#BA0F
(1740613456.341783) vcan0 00001309#830F
(1740613456.343547) vcan0 0000130C#720F
(1740613456.345605) vcan0 0000130B#B50F
(1740613456.346316) vcan0 00001307#A60F
(1740613456.349773) vcan0 00001303#900F
(1740613456.349782) vcan0 0000130A#A20F
(1740613456.349788) vcan0 00001304#970F
(1740613456.357755) vcan0 00001302#810F
(1740613456.357816) vcan0 00001308#A80F
(1740613457.329276) vcan0 00001306#AD0F
(1740613457.335389) vcan0 00001301#B50F
(1740613457.338768) vcan0 00001305#BA0F
(1740613457.341993) vcan0 00001309#830F
(1740613457.343537) vcan0 0000130C#740F
(1740613457.345590) vcan0 0000130B#B50F
(1740613457.346308) vcan0 00001307#A60F
(1740613457.349680) vcan0 00001303#900F
(1740613457.349683) vcan0 0000130A#A20F
(1740613457.349738) vcan0 00001304#990F
(1740613457.357685) vcan0 00001302#830F
(1740613457.357778) vcan0 00001308#A80F
(1740613458.329248) vcan0 00001306#AD0F
(1740613458.335374) vcan0 00001301#B80F
(1740613458.338514) vcan0 00001305#BC0F
(1740613458.341747) vcan0 00001309#810F
(1740613458.343514) vcan0 0000130C#740F
(1740613458.345584) vcan0 0000130B#B50F
(1740613458.346282) vcan0 00001307#A40F
(1740613458.349621) vcan0 00001303#8E0F
(1740613458.349624) vcan0 0000130A#A40F
(1740613458.349683) vcan0 00001304#970F
(1740613458.357606) vcan0 00001302#7F0F
(1740613458.357765) vcan0 00001308#A80F
(1740613459.329238) vcan0 00001306#AD0F
(1740613459.335347) vcan0 00001301#B50F
(1740613459.338717) vcan0 00001305#BA0F
(1740613459.341951) vcan0 00001309#810F
(1740613459.343500) vcan0 0000130C#720F
(1740613459.345556) vcan0 0000130B#B50F
(1740613459.346271) vcan0 00001307#A60F
(1740613459.349522) vcan0 00001303#8E0F
(1740613459.349525) vcan0 0000130A#A20F
(1740613459.349647) vcan0 00001304#9B0F
(1740613459.357568) vcan0 00001302#7F0F
(1740613459.357699) vcan0 00001308#AA0F
(1740613460.329330) vcan0 00001306#AA0F
(1740613460.335338) vcan0 00001301#B50F
(1740613460.338677) vcan0 00001305#B80F
(1740613460.341913) vcan0 00001309#810F
(1740613460.343474) vcan0 0000130C#720F
(1740613460.345532) vcan0 0000130B#B30F
(1740613460.346245) vcan0 00001307#A60F
(1740613460.349469) vcan0 00001303#8E0F
(1740613460.349472) vcan0 0000130A#A40F
(1740613460.349643) vcan0 00001304#990F
(1740613460.357526) vcan0 00001302#810F
(1740613460.357689) vcan0 00001308#A60F
(1740613461.329237) vcan0 00001306#AF0F
(1740613461.335315) vcan0 00001301#B30F
(1740613461.338684) vcan0 00001305#BA0F
(1740613461.341906) vcan0 00001309#810F
(1740613461.343457) vcan0 0000130C#700F
(1740613461.345517) vcan0 0000130B#B50F
(1740613461.346229) vcan0 00001307#A60F
(1740613461.349445) vcan0 00001303#900F
(1740613461.349448) vcan0 0000130A#A20F
(1740613461.349555) vcan0 00001304#990F
(1740613461.357507) vcan0 00001302#810F
(1740613461.357708) vcan0 00001308#A80F
(1740613462.329174) vcan0 00001306#AA0F
(1740613462.335301) vcan0 00001301#B30F
(1740613462.338662) vcan0 00001305#BA0F
(1740613462.341898) vcan0 00001309#810F
(1740613462.343655) vcan0 0000130C#740F
(1740613462.345497) vcan0 0000130B#B50F
(1740613462.346199) vcan0 00001307#A80F
(1740613462.349396) vcan0 00001303#900F
(1740613462.349398) vcan0 0000130A#A40F
(1740613462.349544) vcan0 00001304#9B0F
(1740613462.357505) vcan0 00001302#7F0F
(1740613462.357646) vcan0 00001308#A80F
(1740613463.329137) vcan0 00001306#AF0F
(1740613463.335275) vcan0 00001301#B30F
(1740613463.338619) vcan0 00001305#BC0F
(1740613463.342151) vcan0 00001309#830F
(1740613463.343498) vcan0 0000130C#740F
(1740613463.345485) vcan0 0000130B#B50F
(1740613463.346198) vcan0 00001307#A40F
(1740613463.349395) vcan0 00001303#900F
(1740613463.349398) vcan0 0000130A#A40F
(1740613463.349537) vcan0 00001304#970F
(1740613463.357489) vcan0 00001302#7F0F
(1740613463.357688) vcan0 00001308#A80F
(1740613464.329113) vcan0 00001306#AD0F
(1740613464.335254) vcan0 00001301#B50F
(1740613464.338651) vcan0 00001305#BA0F
(1740613464.342073) vcan0 00001309#810F
(1740613464.343398) vcan0 0000130C#720F
(1740613464.345476) vcan0 0000130B#B50F
(1740613464.346183) vcan0 00001307#A40F
(1740613464.349375) vcan0 00001303#900F
(1740613464.349378) vcan0 0000130A#A20F
(1740613464.349506) vcan0 00001304#9B0F
(1740613464.357479) vcan0 00001302#7F0F
(1740613464.357655) vcan0 00001308#AA0F
(1740613465.329077) vcan0 00001306#AD0F
(1740613465.335238) vcan0 00001301#B80F
(1740613465.338590) vcan0 00001305#BA0F
(1740613465.341977) vcan0 00001309#830F
(1740613465.343383) vcan0 0000130C#720F
(1740613465.345451) vcan0 0000130B#B50F
(1740613465.346162) vcan0 00001307#A60F
(1740613465.349358) vcan0 00001303#920F
(1740613465.349361) vcan0 0000130A#A40F
(1740613465.349501) vcan0 00001304#970F
(1740613465.357453) vcan0 00001302#7F0F
(1740613465.357659) vcan0 00001308#A80F
(1740613466.329073) vcan0 00001306#B10F
(1740613466.335224) vcan0 00001301#B30F
(1740613466.338570) vcan0 00001305#B80F
(1740613466.341900) vcan0 00001309#810F
(1740613466.343421) vcan0 0000130C#720F
(1740613466.345454) vcan0 0000130B#B30F
(1740613466.346153) vcan0 00001307#A80F
(1740613466.349346) vcan0 00001303#900F
(1740613466.349348) vcan0 0000130A#A40F
(1740613466.349481) vcan0 00001304#990F
(1740613466.357450) vcan0 00001302#7F0F
(1740613466.357657) vcan0 00001308#AA0F
(1740613467.329052) vcan0 00001306#AD0F
(1740613467.335197) vcan0 00001301#B30F
(1740613467.338336) vcan0 00001305#BC0F
(1740613467.341851) vcan0 00001309#830F
(1740613467.343418) vcan0 0000130C#700F
(1740613467.345207) vcan0 0000130B#B50F
(1740613467.346132) vcan0 00001307#A80F
(1740613467.349329) vcan0 00001303#900F
(1740613467.349332) vcan0 0000130A#A20F
(1740613467.349459) vcan0 00001304#990F
(1740613467.357436) vcan0 00001302#7F0F
(1740613467.357583) vcan0 00001308#A60F
(1740613468.329034) vcan0 00001306#AD0F
(1740613468.335181) vcan0 00001301#B50F
(1740613468.338325) vcan0 00001305#BA0F
(1740613468.341787) vcan0 00001309#810F
(1740613468.343088) vcan0 0000130C#720F
(1740613468.345404) vcan0 0000130B#B50F
(1740613468.346111) vcan0 00001307#A60F
(1740613468.349326) vcan0 00001303#900F
(1740613468.349328) vcan0 0000130A#A40F
(1740613468.349449) vcan0 00001304#970F
(1740613468.357453) vcan0 00001302#810F
(1740613468.357569) vcan0 00001308#A80F
(1740613469.329009) vcan0 00001306#AD0F
(1740613469.335155) vcan0 00001301#B10F
(1740613469.338299) vcan0 00001305#BA0F
(1740613469.341768) vcan0 00001309#830F
(1740613469.343063) vcan0 0000130C#720F
(1740613469.345531) vcan0 0000130B#B50F
(1740613469.346090) vcan0 00001307#A40F
(1740613469.349304) vcan0 00001303#900F
(1740613469.349307) vcan0 0000130A#A20F
(1740613469.349428) vcan0 00001304#990F
(1740613469.357456) vcan0 00001302#7F0F
(1740613469.357556) vcan0 00001308#A80F
(1740613470.328995) vcan0 00001306#AD0F
(1740613470.335138) vcan0 00001301#B30F
(1740613470.338556) vcan0 00001305#BA0F
(1740613470.341724) vcan0 00001309#830F
(1740613470.343038) vcan0 0000130C#720F
(1740613470.345441) vcan0 0000130B#B50F
(1740613470.346069) vcan0 00001307#A40F
(1740613470.349060) vcan0 00001303#8E0F
(1740613470.349130) vcan0 0000130A#A40F
(1740613470.349417) vcan0 00001304#990F
(1740613470.357454) vcan0 00001302#7F0F
(1740613470.357519) vcan0 00001308#AA0F
(1740613471.328972) vcan0 00001306#AD0F
(1740613471.335124) vcan0 00001301#B50F
(1740613471.338502) vcan0 00001305#BA0F
(1740613471.341496) vcan0 00001309#810F
(1740613471.343030) vcan0 0000130C#720F
(1740613471.345128) vcan0 0000130B#B50F
(1740613471.346059) vcan0 00001307#A60F
(1740613471.349048) vcan0 00001303#8E0F
(1740613471.349120) vcan0 0000130A#9F0F
(1740613471.349403) vcan0 00001304#990F
(1740613471.357513) vcan0 00001302#7F0F
(1740613471.357555) vcan0 00001308#A80F
(1740613472.328966) vcan0 00001306#AD0F
(1740613472.335098) vcan0 00001301#B10F
(1740613472.338473) vcan0 00001305#BA0F
(1740613472.341486) vcan0 00001309#830F
(1740613472.343008) vcan0 0000130C#740F
(1740613472.345108) vcan0 0000130B#B50F
(1740613472.346038) vcan0 00001307#A60F
(1740613472.349267) vcan0 00001303#900F
(1740613472.349270) vcan0 0000130A#A20F
(1740613472.349377) vcan0 00001304#990F
(1740613472.357360) vcan0 00001302#7F0F
(1740613472.357507) vcan0 00001308#A80F
(1740613473.328929) vcan0 00001306#AD0F
(1740613473.335088) vcan0 00001301#B30F
(1740613473.338452) vcan0 00001305#BA0F
(1740613473.341461) vcan0 00001309#810F
(1740613473.342962) vcan0 0000130C#740F
(1740613473.345093) vcan0 0000130B#B30F
(1740613473.346033) vcan0 00001307#A60F
(1740613473.349216) vcan0 00001303#900F
(1740613473.349218) vcan0 0000130A#A20F
(1740613473.349361) vcan0 00001304#990F
(1740613473.357353) vcan0 00001302#7F0F
(1740613473.357484) vcan0 00001308#A80F
(1740613474.328950) vcan0 00001306#AA0F
(1740613474.335076) vcan0 00001301#B30F
(1740613474.338416) vcan0 00001305#BA0F
(1740613474.341451) vcan0 00001309#830F
(1740613474.342960) vcan0 0000130C#720F
(1740613474.345066) vcan0 0000130B#B50F
(1740613474.346006) vcan0 00001307#A60F
(1740613474.349199) vcan0 00001303#900F
(1740613474.349201) vcan0 0000130A#A40F
(1740613474.349346) vcan0 00001304#990F
(1740613474.357327) vcan0 00001302#810F
(1740613474.357477) vcan0 00001308#A80F
(1740613475.328890) vcan0 00001306#AD0F
(1740613475.335045) vcan0 00001301#B30F
(1740613475.338171) vcan0 00001305#BA0F
(1740613475.341427) vcan0 00001309#830F
(1740613475.342961) vcan0 0000130C#720F
(1740613475.345057) vcan0 0000130B#B50F
(1740613475.345997) vcan0 00001307#A60F
(1740613475.349188) vcan0 00001303#900F
(1740613475.349191) vcan0 0000130A#A60F
(1740613475.349324) vcan0 00001304#990F
(1740613475.357307) vcan0 00001302#7D0F
(1740613475.357454) vcan0 00001308#A80F
(1740613476.328934) vcan0 00001306#AD0F
(1740613476.335024) vcan0 00001301#B30F
(1740613476.338397) vcan0 00001305#B80F
(1740613476.341409) vcan0 00001309#810F
(1740613476.342955) vcan0 0000130C#720F
(1740613476.345030) vcan0 0000130B#B50F
(1740613476.345982) vcan0 00001307#A60F
(1740613476.349197) vcan0 00001303#900F
(1740613476.349199) vcan0 0000130A#9F0F
(1740613476.349305) vcan0 00001304#9B0F
(1740613476.357319) vcan0 00001302#7F0F
(1740613476.357450) vcan0 00001308#AA0F
(1740613477.328809) vcan0 00001306#AD0F
(1740613477.335004) vcan0 00001301#B30F
(1740613477.338387) vcan0 00001305#BA0F
(1740613477.341393) vcan0 00001309#830F
(1740613477.342945) vcan0 0000130C#720F
(1740613477.345020) vcan0 0000130B#B50F
(1740613477.345961) vcan0 00001307#A40F
(1740613477.349176) vcan0 00001303#900F
(1740613477.349178) vcan0 0000130A#9F0F
(1740613477.349300) vcan0 00001304#9B0F
(1740613477.357302) vcan0 00001302#7F0F
(1740613477.357425) vcan0 00001308#AA0F
(1740613478.328764) vcan0 00001306#AD0F
(1740613478.334988) vcan0 00001301#B30F
(1740613478.338357) vcan0 00001305#B80F
(1740613478.341372) vcan0 00001309#810F
(1740613478.342923) vcan0 0000130C#720F
(1740613478.344998) vcan0 0000130B#B50F
(1740613478.345939) vcan0 00001307#A40F
(1740613478.348930) vcan0 00001303#900F
(1740613478.348989) vcan0 0000130A#9F0F
(1740613478.349284) vcan0 00001304#990F
(1740613478.357282) vcan0 00001302#7D0F
(1740613478.357418) vcan0 00001308#A80F
(1740613479.328786) vcan0 00001306#AD0F
(1740613479.334947) vcan0 00001301#B30F
(1740613479.338107) vcan0 00001305#B80F
(1740613479.341802) vcan0 00001309#830F
(1740613479.342923) vcan0 0000130C#700F
(1740613479.344978) vcan0 0000130B#B50F
(1740613479.345919) vcan0 00001307#A80F
(1740613479.349120) vcan0 00001303#900F
(1740613479.349123) vcan0 0000130A#A40F
(1740613479.349268) vcan0 00001304#990F
(1740613479.357262) vcan0 00001302#7D0F
(1740613479.357393) vcan0 00001308#A80F
(1740613480.328746) vcan0 00001306#AD0F
(1740613480.334943) vcan0 00001301#B50F
(1740613480.338085) vcan0 00001305#BA0F
(1740613480.341706) vcan0 00001309#810F
(1740613480.342855) vcan0 0000130C#720F
(1740613480.345170) vcan0 0000130B#B50F
(1740613480.345909) vcan0 00001307#A60F
(1740613480.349115) vcan0 00001303#900F
(1740613480.349117) vcan0 0000130A#A40F
(1740613480.349241) vcan0 00001304#9B0F
(1740613480.357241) vcan0 00001302#7F0F
(1740613480.357376) vcan0 00001308#A80F
(1740613481.328734) vcan0 00001306#AD0F
(1740613481.334921) vcan0 00001301#B30F
(1740613481.338069) vcan0 00001305#BA0F
(1740613481.341312) vcan0 00001309#830F
(1740613481.342839) vcan0 0000130C#740F
(1740613481.345157) vcan0 0000130B#B30F
(1740613481.345883) vcan0 00001307#A60F
(1740613481.349095) vcan0 00001303#900F
(1740613481.349098) vcan0 0000130A#A20F
(1740613481.349225) vcan0 00001304#990F
(1740613481.357245) vcan0 00001302#7F0F
(1740613481.357366) vcan0 00001308#A80F
(1740613482.328708) vcan0 00001306#AD0F
(1740613482.334914) vcan0 00001301#B50F
(1740613482.338043) vcan0 00001305#BA0F
(1740613482.341291) vcan0 00001309#810F
(1740613482.342818) vcan0 0000130C#720F
(1740613482.345139) vcan0 0000130B#B30F
(1740613482.345873) vcan0 00001307#A60F
(1740613482.348863) vcan0 00001303#900F
(1740613482.348907) vcan0 0000130A#A40F
(1740613482.349212) vcan0 00001304#9B0F
(1740613482.357217) vcan0 00001302#7F0F
(1740613482.357337) vcan0 00001308#AA0F
(1740613483.328671) vcan0 00001306#AD0F
(1740613483.334907) vcan0 00001301#B30F
(1740613483.338034) vcan0 00001305#BA0F
(1740613483.341506) vcan0 00001309#810F
(1740613483.342803) vcan0 0000130C#720F
(1740613483.345126) vcan0 0000130B#B30F
(1740613483.345858) vcan0 00001307#A60F
(1740613483.349065) vcan0 00001303#900F
(1740613483.349067) vcan0 0000130A#A40F
(1740613483.349220) vcan0 00001304#970F
(1740613483.357204) vcan0 00001302#7F0F
(1740613483.357366) vcan0 00001308#A80F
(1740613484.328656) vcan0 00001306#AD0F
(1740613484.334873) vcan0 00001301#B50F
(1740613484.338008) vcan0 00001305#BA0F
(1740613484.341241) vcan0 00001309#830F
(1740613484.342777) vcan0 0000130C#720F
(1740613484.344890) vcan0 0000130B#B30F
(1740613484.345831) vcan0 00001307#A60F
(1740613484.349054) vcan0 00001303#8E0F
(1740613484.349057) vcan0 0000130A#A20F
(1740613484.349217) vcan0 00001304#970F
(1740613484.357428) vcan0 00001302#7F0F
(1740613484.357433) vcan0 00001308#A60F
(1740613485.328614) vcan0 00001306#AD0F
(1740613485.334852) vcan0 00001301#B30F
(1740613485.338292) vcan0 00001305#BA0F
(1740613485.341438) vcan0 00001309#810F
(1740613485.342757) vcan0 0000130C#740F
(1740613485.345153) vcan0 0000130B#B50F
(1740613485.345810) vcan0 00001307#A60F
(1740613485.349030) vcan0 00001303#900F
(1740613485.349032) vcan0 0000130A#A20F
(1740613485.349187) vcan0 00001304#9B0F
(1740613485.357176) vcan0 00001302#7F0F
(1740613485.357329) vcan0 00001308#A80F
(1740613486.328601) vcan0 00001306#AD0F
(1740613486.335246) vcan0 00001301#B30F
(1740613486.338363) vcan0 00001305#BA0F
(1740613486.341428) vcan0 00001309#830F
(1740613486.342747) vcan0 0000130C#740F
(1740613486.345078) vcan0 0000130B#B50F
(1740613486.345799) vcan0 00001307#A80F
(1740613486.349100) vcan0 00001303#900F
(1740613486.349103) vcan0 0000130A#A20F
(1740613486.349155) vcan0 00001304#990F
(1740613486.357232) vcan0 00001302#7F0F
(1740613486.357281) vcan0 00001308#A80F
(1740613487.328604) vcan0 00001306#AD0F
(1740613487.335165) vcan0 00001301#B50F
(1740613487.338264) vcan0 00001305#BA0F
(1740613487.341396) vcan0 00001309#810F
(1740613487.342720) vcan0 0000130C#720F
(1740613487.345038) vcan0 0000130B#B50F
(1740613487.345774) vcan0 00001307#A80F
(1740613487.349018) vcan0 00001303#920F
(1740613487.349020) vcan0 0000130A#A40F
(1740613487.349135) vcan0 00001304#990F
(1740613487.357136) vcan0 00001302#7D0F
(1740613487.357292) vcan0 00001308#A80F
(1740613488.328353) vcan0 00001306#AD0F
(1740613488.334772) vcan0 00001301#B30F
(1740613488.337926) vcan0 00001305#BA0F
(1740613488.341379) vcan0 00001309#810F
(1740613488.342705) vcan0 0000130C#720F
(1740613488.345014) vcan0 0000130B#B50F
(1740613488.345769) vcan0 00001307#A60F
(1740613488.348976) vcan0 00001303#900F
(1740613488.348979) vcan0 0000130A#A40F
(1740613488.349109) vcan0 00001304#990F
(1740613488.357121) vcan0 00001302#810F
(1740613488.357274) vcan0 00001308#A80F
(1740613489.328545) vcan0 00001306#AF0F
(1740613489.334746) vcan0 00001301#B30F
(1740613489.337920) vcan0 00001305#BA0F
(1740613489.341156) vcan0 00001309#810F
(1740613489.342699) vcan0 0000130C#720F
(1740613489.344790) vcan0 0000130B#B50F
(1740613489.345742) vcan0 00001307#A40F
(1740613489.348968) vcan0 00001303#8E0F
(1740613489.348970) vcan0 0000130A#A20F
(1740613489.349099) vcan0 00001304#970F
(1740613489.357108) vcan0 00001302#7F0F
(1740613489.357239) vcan0 00001308#A80F
(1740613490.328540) vcan0 00001306#AD0F
(1740613490.334732) vcan0 00001301#B30F
(1740613490.337883) vcan0 00001305#B80F
(1740613490.341370) vcan0 00001309#810F
(1740613490.342700) vcan0 0000130C#720F
(1740613490.344780) vcan0 0000130B#B30F
(1740613490.345722) vcan0 00001307#A40F
(1740613490.348945) vcan0 00001303#900F
(1740613490.348947) vcan0 0000130A#A40F
(1740613490.349078) vcan0 00001304#990F
(1740613490.357095) vcan0 00001302#7F0F
(1740613490.357228) vcan0 00001308#AA0F
(1740613491.328696) vcan0 00001306#AD0F
(1740613491.334718) vcan0 00001301#B50F
(1740613491.337873) vcan0 00001305#BA0F
(1740613491.341329) vcan0 00001309#810F
(1740613491.342638) vcan0 0000130C#720F
(1740613491.344964) vcan0 0000130B#B50F
(1740613491.345708) vcan0 00001307#A60F
(1740613491.348709) vcan0 00001303#8E0F
(1740613491.348755) vcan0 0000130A#A20F
(1740613491.349104) vcan0 00001304#970F
(1740613491.357078) vcan0 00001302#7D0F
(1740613491.357212) vcan0 00001308#A80F
(1740613492.328631) vcan0 00001306#AD0F
(1740613492.334686) vcan0 00001301#BA0F
(1740613492.338061) vcan0 00001305#BA0F
(1740613492.341100) vcan0 00001309#810F
(1740613492.342619) vcan0 0000130C#740F
(1740613492.344940) vcan0 0000130B#B30F
(1740613492.345707) vcan0 00001307#A60F
(1740613492.348918) vcan0 00001303#900F
(1740613492.348921) vcan0 0000130A#A40F
(1740613492.349044) vcan0 00001304#970F
(1740613492.357056) vcan0 00001302#7F0F
(1740613492.357181) vcan0 00001308#A60F
(1740613493.328531) vcan0 00001306#AD0F
(1740613493.334703) vcan0 00001301#B10F
(1740613493.338047) vcan0 00001305#B80F
(1740613493.341084) vcan0 00001309#830F
(1740613493.342602) vcan0 0000130C#720F
(1740613493.344931) vcan0 0000130B#B50F
(1740613493.345708) vcan0 00001307#A60F
(1740613493.348920) vcan0 00001303#8E0F
(1740613493.348923) vcan0 0000130A#9F0F
(1740613493.349036) vcan0 00001304#990F
(1740613493.357049) vcan0 00001302#7D0F
(1740613493.357216) vcan0 00001308#A80F
(1740613494.328471) vcan0 00001306#AA0F
(1740613494.334698) vcan0 00001301#B50F
(1740613494.338038) vcan0 00001305#BA0F
(1740613494.341067) vcan0 00001309#830F
(1740613494.342586) vcan0 0000130C#720F
(1740613494.344707) vcan0 0000130B#B50F
(1740613494.345702) vcan0 00001307#A40F
(1740613494.348711) vcan0 00001303#8E0F
(1740613494.348713) vcan0 0000130A#A20F
(1740613494.349033) vcan0 00001304#990F
(1740613494.357037) vcan0 00001302#7F0F
(1740613494.357153) vcan0 00001308#A80F
(1740613495.328451) vcan0 00001306#AD0F
(1740613495.334666) vcan0 00001301#B50F
(1740613495.337794) vcan0 00001305#BA0F
(1740613495.341041) vcan0 00001309#810F
(1740613495.342559) vcan0 0000130C#720F
(1740613495.344917) vcan0 0000130B#B50F
(1740613495.345643) vcan0 00001307#A60F
(1740613495.348863) vcan0 00001303#8E0F
(1740613495.348866) vcan0 0000130A#A20F
(1740613495.348993) vcan0 00001304#990F
(1740613495.357052) vcan0 00001302#7F0F
(1740613495.357156) vcan0 00001308#A80F
(1740613496.328425) vcan0 00001306#AD0F
(1740613496.334672) vcan0 00001301#B30F
(1740613496.337779) vcan0 00001305#BA0F
(1740613496.341026) vcan0 00001309#830F
(1740613496.342546) vcan0 0000130C#740F
(1740613496.344709) vcan0 0000130B#B30F
(1740613496.345627) vcan0 00001307#A80F
(1740613496.348849) vcan0 00001303#8E0F
(1740613496.348852) vcan0 0000130A#A40F
(1740613496.348983) vcan0 00001304#990F
(1740613496.357039) vcan0 00001302#7F0F
(1740613496.357131) vcan0 00001308#A80F
(1740613497.328403) vcan0 00001306#AA0F
(1740613497.334593) vcan0 00001301#B50F
(1740613497.337989) vcan0 00001305#BA0F
(1740613497.341011) vcan0 00001309#830F
(1740613497.342530) vcan0 0000130C#720F
(1740613497.344915) vcan0 0000130B#B50F
(1740613497.345611) vcan0 00001307#A60F
(1740613497.348835) vcan0 00001303#900F
(1740613497.348838) vcan0 0000130A#A20F
(1740613497.348963) vcan0 00001304#990F
(1740613497.357022) vcan0 00001302#7F0F
(1740613497.357115) vcan0 00001308#A80F
(1740613498.328384) vcan0 00001306#A60F
(1740613498.334572) vcan0 00001301#A80F
(1740613498.338192) vcan0 00001305#B80F
(1740613498.340991) vcan0 00001309#7D0F
(1740613498.342498) vcan0 0000130C#6D0F
(1740613498.344847) vcan0 0000130B#AD0F
(1740613498.345597) vcan0 00001307#A40F
(1740613498.348598) vcan0 00001303#8C0F
(1740613498.348668) vcan0 0000130A#9F0F
(1740613498.348949) vcan0 00001304#970F
(1740613498.356753) vcan0 00001302#7D0F
(1740613498.357116) vcan0 00001308#A60F
(1740613499.328358) vcan0 00001306#A60F
(1740613499.334557) vcan0 00001301#B10F
(1740613499.338126) vcan0 00001305#B30F
(1740613499.340967) vcan0 00001309#7D0F
(1740613499.342488) vcan0 0000130C#6B0F
(1740613499.344834) vcan0 0000130B#B10F
(1740613499.345582) vcan0 00001307#A40F
(1740613499.348792) vcan0 00001303#8C0F
(1740613499.348794) vcan0 0000130A#9F0F
(1740613499.348920) vcan0 00001304#920F
(1740613499.357155) vcan0 00001302#7B0F
(1740613499.357159) vcan0 00001308#A20F
(1740613500.328337) vcan0 00001306#A80F
(1740613500.334537) vcan0 00001301#B10F
(1740613500.338027) vcan0 00001305#B30F
(1740613500.340957) vcan0 00001309#7F0F
(1740613500.342461) vcan0 0000130C#6D0F
(1740613500.345057) vcan0 0000130B#B10F
(1740613500.345551) vcan0 00001307#A40F
(1740613500.348935) vcan0 00001303#8C0F
(1740613500.348937) vcan0 0000130A#9D0F
(1740613500.348990) vcan0 00001304#920F
(1740613500.356988) vcan0 00001302#7B0F
(1740613500.357068) vcan0 00001308#A60F
(1740613501.328285) vcan0 00001306#A60F
(1740613501.334516) vcan0 00001301#AF0F
(1740613501.337954) vcan0 00001305#B50F
(1740613501.340930) vcan0 00001309#7F0F
(1740613501.342447) vcan0 0000130C#6B0F
(1740613501.344968) vcan0 0000130B#B10F
(1740613501.345544) vcan0 00001307#A20F
(1740613501.348956) vcan0 00001303#8C0F
(1740613501.348959) vcan0 0000130A#9D0F
(1740613501.348965) vcan0 00001304#970F
(1740613501.357003) vcan0 00001302#780F
(1740613501.357058) vcan0 00001308#A80F
(1740613502.328291) vcan0 00001306#A80F
(1740613502.334494) vcan0 00001301#B10F
(1740613502.337938) vcan0 00001305#B50F
(1740613502.340971) vcan0 00001309#810F
(1740613502.342420) vcan0 0000130C#6D0F
(1740613502.344883) vcan0 0000130B#B10F
(1740613502.345523) vcan0 00001307#A20F
(1740613502.348908) vcan0 00001303#880F
(1740613502.348911) vcan0 0000130A#9D0F
(1740613502.348979) vcan0 00001304#970F
(1740613502.356936) vcan0 00001302#7B0F
(1740613502.357042) vcan0 00001308#A60F
(1740613503.328273) vcan0 00001306#A60F
(1740613503.334484) vcan0 00001301#B30F
(1740613503.337861) vcan0 00001305#B50F
(1740613503.341094) vcan0 00001309#7B0F
(1740613503.342405) vcan0 0000130C#6D0F
(1740613503.344750) vcan0 0000130B#B10F
(1740613503.345504) vcan0 00001307#A20F
(1740613503.348732) vcan0 00001303#8C0F
(1740613503.348734) vcan0 0000130A#9D0F
(1740613503.348850) vcan0 00001304#950F
(1740613503.356915) vcan0 00001302#720F
(1740613503.357019) vcan0 00001308#A60F
(1740613504.328264) vcan0 00001306#A80F
(1740613504.334463) vcan0 00001301#B30F
(1740613504.337851) vcan0 00001305#B80F
(1740613504.340872) vcan0 00001309#7F0F
(1740613504.342380) vcan0 0000130C#700F
(1740613504.344725) vcan0 0000130B#B10F
(1740613504.345488) vcan0 00001307#A40F
(1740613504.348714) vcan0 00001303#8A0F
(1740613504.348717) vcan0 0000130A#9F0F
(1740613504.348845) vcan0 00001304#950F
(1740613504.356912) vcan0 00001302#7B0F
(1740613504.357003) vcan0 00001308#A80F
(1740613505.328222) vcan0 00001306#9D0F
(1740613505.334443) vcan0 00001301#A60F
(1740613505.337833) vcan0 00001305#AF0F
(1740613505.340851) vcan0 00001309#740F
(1740613505.342368) vcan0 0000130C#630F
(1740613505.344709) vcan0 0000130B#A60F
(1740613505.345473) vcan0 00001307#970F
(1740613505.348697) vcan0 00001303#7F0F
(1740613505.348699) vcan0 0000130A#920F
(1740613505.348838) vcan0 00001304#8A0F
(1740613505.356916) vcan0 00001302#700F
(1740613505.356982) vcan0 00001308#9B0F
(1740613506.328222) vcan0 00001306#B10F
(1740613506.334422) vcan0 00001301#BE0F
(1740613506.337580) vcan0 00001305#C00F
(1740613506.340838) vcan0 00001309#900F
(1740613506.342346) vcan0 0000130C#850F
(1740613506.344479) vcan0 0000130B#C40F
(1740613506.345452) vcan0 00001307#B50F
(1740613506.348675) vcan0 00001303#A20F
(1740613506.348678) vcan0 0000130A#AA0F
(1740613506.348817) vcan0 00001304#A20F
(1740613506.356852) vcan0 00001302#850F
(1740613506.356968) vcan0 00001308#B30F
(1740613507.328355) vcan0 00001306#920F
(1740613507.334406) vcan0 00001301#9D0F
(1740613507.337796) vcan0 00001305#9F0F
(1740613507.340808) vcan0 00001309#670F
(1740613507.342337) vcan0 0000130C#5C0F
(1740613507.344670) vcan0 0000130B#9D0F
(1740613507.345443) vcan0 00001307#8E0F
(1740613507.348652) vcan0 00001303#760F
(1740613507.348654) vcan0 0000130A#8A0F
(1740613507.348794) vcan0 00001304#810F
(1740613507.356849) vcan0 00001302#650F
(1740613507.356959) vcan0 00001308#920F
(1740613508.328299) vcan0 00001306#8E0F
(1740613508.334384) vcan0 00001301#A20F
(1740613508.337777) vcan0 00001305#A40F
(1740613508.340788) vcan0 00001309#700F
(1740613508.342305) vcan0 0000130C#E70E
(1740613508.344648) vcan0 0000130B#A20F
(1740613508.345421) vcan0 00001307#920F
(1740613508.348639) vcan0 00001303#7B0F
(1740613508.348641) vcan0 0000130A#8E0F
(1740613508.348777) vcan0 00001304#850F
(1740613508.356831) vcan0 00001302#630F
(1740613508.356944) vcan0 00001308#8C0F
(1740613509.328157) vcan0 00001306#9F0F
(1740613509.334370) vcan0 00001301#AA0F
(1740613509.337737) vcan0 00001305#B10F
(1740613509.340772) vcan0 00001309#740F
(1740613509.342289) vcan0 0000130C#670F
(1740613509.344630) vcan0 0000130B#A80F
(1740613509.345401) vcan0 00001307#9B0F
(1740613509.348624) vcan0 00001303#830F
(1740613509.348627) vcan0 0000130A#970F
(1740613509.348762) vcan0 00001304#8C0F
(1740613509.356845) vcan0 00001302#740F
(1740613509.356932) vcan0 00001308#9F0F
(1740613510.328128) vcan0 00001306#A60F
(1740613510.334339) vcan0 00001301#B10F
(1740613510.337728) vcan0 00001305#B50F
(1740613510.340762) vcan0 00001309#780F
(1740613510.342269) vcan0 0000130C#690F
(1740613510.344621) vcan0 0000130B#AD0F
(1740613510.345387) vcan0 00001307#9D0F
(1740613510.348611) vcan0 00001303#880F
(1740613510.348613) vcan0 0000130A#970F
(1740613510.348742) vcan0 00001304#8E0F
(1740613510.356806) vcan0 00001302#740F
(1740613510.356906) vcan0 00001308#A20F
(1740613511.328101) vcan0 00001306#9B0F
(1740613511.334334) vcan0 00001301#A40F
(1740613511.337702) vcan0 00001305#A80F
(1740613511.340730) vcan0 00001309#700F
(1740613511.342248) vcan0 0000130C#630F
(1740613511.344593) vcan0 0000130B#A20F
(1740613511.345376) vcan0 00001307#950F
(1740613511.348589) vcan0 00001303#7B0F
(1740613511.348592) vcan0 0000130A#8E0F
(1740613511.348717) vcan0 00001304#850F
(1740613511.356774) vcan0 00001302#6B0F
(1740613511.356889) vcan0 00001308#970F
(1740613512.328073) vcan0 00001306#8C0F
(1740613512.334307) vcan0 00001301#950F
(1740613512.337686) vcan0 00001305#970F
(1740613512.340715) vcan0 00001309#610F
(1740613512.342222) vcan0 0000130C#510F
(1740613512.344597) vcan0 0000130B#970F
(1740613512.345349) vcan0 00001307#880F
(1740613512.348579) vcan0 00001303#700F
(1740613512.348581) vcan0 0000130A#850F
(1740613512.348713) vcan0 00001304#7B0F
(1740613512.356792) vcan0 00001302#650F
(1740613512.356878) vcan0 00001308#900F
(1740613513.328048) vcan0 00001306#900F
(1740613513.334287) vcan0 00001301#9D0F
(1740613513.337922) vcan0 00001305#A60F
(1740613513.340720) vcan0 00001309#650F
(1740613513.342207) vcan0 0000130C#390E
(1740613513.344569) vcan0 0000130B#9B0F
(1740613513.345334) vcan0 00001307#8C0F
(1740613513.348598) vcan0 00001303#760F
(1740613513.348601) vcan0 0000130A#720F
(1740613513.348701) vcan0 00001304#7F0F
(1740613513.356980) vcan0 00001302#5C0F
(1740613513.356985) vcan0 00001308#830F
(1740613514.328032) vcan0 00001306#920F
(1740613514.334271) vcan0 00001301#9B0F
(1740613514.337841) vcan0 00001305#A20F
(1740613514.340716) vcan0 00001309#6B0F
(1740613514.342193) vcan0 0000130C#580F
(1740613514.344552) vcan0 0000130B#9F0F
(1740613514.345319) vcan0 00001307#8E0F
(1740613514.348550) vcan0 00001303#760F
(1740613514.348553) vcan0 0000130A#880F
(1740613514.348682) vcan0 00001304#810F
(1740613514.356741) vcan0 00001302#670F
(1740613514.356850) vcan0 00001308#920F
(1740613515.328016) vcan0 00001306#920F
(1740613515.334273) vcan0 00001301#9B0F
(1740613515.337763) vcan0 00001305#9F0F
(1740613515.340919) vcan0 00001309#690F
(1740613515.342400) vcan0 0000130C#5A0F
(1740613515.344647) vcan0 0000130B#9D0F
(1740613515.345503) vcan0 00001307#8E0F
(1740613515.348664) vcan0 00001303#760F
(1740613515.348666) vcan0 0000130A#880F
(1740613515.348708) vcan0 00001304#7F0F
(1740613515.356751) vcan0 00001302#650F
(1740613515.356829) vcan0 00001308#920F
(1740613516.327997) vcan0 00001306#8E0F
(1740613516.334707) vcan0 00001301#970F
(1740613516.337700) vcan0 00001305#9D0F
(1740613516.340846) vcan0 00001309#630F
(1740613516.342387) vcan0 0000130C#560F
(1740613516.344552) vcan0 0000130B#950F
(1740613516.345482) vcan0 00001307#880F
(1740613516.348574) vcan0 00001303#700F
(1740613516.348577) vcan0 0000130A#830F
(1740613516.348674) vcan0 00001304#7D0F
(1740613516.356727) vcan0 00001302#610F
(1740613516.356826) vcan0 00001308#8C0F
(1740613517.327975) vcan0 00001306#900F
(1740613517.334762) vcan0 00001301#970F
(1740613517.337738) vcan0 00001305#9B0F
(1740613517.340828) vcan0 00001309#690F
(1740613517.342597) vcan0 0000130C#580F
(1740613517.344486) vcan0 0000130B#9B0F
(1740613517.345474) vcan0 00001307#8E0F
(1740613517.348482) vcan0 00001303#720F
(1740613517.348484) vcan0 0000130A#880F
(1740613517.348708) vcan0 00001304#7D0F
(1740613517.356729) vcan0 00001302#650F
(1740613517.356803) vcan0 00001308#900F
(1740613518.327973) vcan0 00001306#8A0F
(1740613518.334226) vcan0 00001301#920F
(1740613518.337557) vcan0 00001305#970F
(1740613518.340814) vcan0 00001309#610F
(1740613518.342113) vcan0 0000130C#510F
(1740613518.344471) vcan0 0000130B#950F
(1740613518.345443) vcan0 00001307#830F
(1740613518.348462) vcan0 00001303#6B0F
(1740613518.348464) vcan0 0000130A#810F
(1740613518.348627) vcan0 00001304#760F
(1740613518.356673) vcan0 00001302#5C0F
(1740613518.356818) vcan0 00001308#880F
(1740613519.327916) vcan0 00001306#8C0F
(1740613519.334586) vcan0 00001301#950F
(1740613519.337566) vcan0 00001305#970F
(1740613519.340786) vcan0 00001309#610F
(1740613519.342305) vcan0 0000130C#4F0F
(1740613519.344453) vcan0 0000130B#950F
(1740613519.345436) vcan0 00001307#850F
(1740613519.348457) vcan0 00001303#700F
(1740613519.348464) vcan0 0000130A#7F0F
(1740613519.348622) vcan0 00001304#760F
(1740613519.356674) vcan0 00001302#610F
(1740613519.356761) vcan0 00001308#8A0F
(1740613520.327907) vcan0 00001306#850F
(1740613520.334193) vcan0 00001301#900F
(1740613520.337508) vcan0 00001305#950F
(1740613520.340771) vcan0 00001309#5E0F
(1740613520.342281) vcan0 0000130C#4D0F
(1740613520.344422) vcan0 0000130B#950F
(1740613520.345528) vcan0 00001307#830F
(1740613520.348440) vcan0 00001303#6B0F
(1740613520.348442) vcan0 0000130A#7D0F
(1740613520.348602) vcan0 00001304#760F
(1740613520.356664) vcan0 00001302#610F
(1740613520.356759) vcan0 00001308#880F
(1740613521.327887) vcan0 00001306#880F
(1740613521.334151) vcan0 00001301#970F
(1740613521.337494) vcan0 00001305#990F
(1740613521.340755) vcan0 00001309#650F
(1740613521.342254) vcan0 0000130C#5A0F
(1740613521.344401) vcan0 0000130B#9B0F
(1740613521.345419) vcan0 00001307#8C0F
(1740613521.348451) vcan0 00001303#740F
(1740613521.348454) vcan0 0000130A#830F
(1740613521.348561) vcan0 00001304#7D0F
(1740613521.356657) vcan0 00001302#580F
(1740613521.356730) vcan0 00001308#850F
(1740613522.327861) vcan0 00001306#810F
(1740613522.334148) vcan0 00001301#920F
(1740613522.337479) vcan0 00001305#950F
(1740613522.340752) vcan0 00001309#610F
(1740613522.342030) vcan0 0000130C#510F
(1740613522.344397) vcan0 0000130B#920F
(1740613522.345386) vcan0 00001307#850F
(1740613522.348407) vcan0 00001303#6D0F
(1740613522.348409) vcan0 0000130A#7F0F
(1740613522.348565) vcan0 00001304#780F
(1740613522.356608) vcan0 00001302#630F
(1740613522.356752) vcan0 00001308#8A0F
(1740613523.328002) vcan0 00001306#810F
(1740613523.334122) vcan0 00001301#920F
(1740613523.337461) vcan0 00001305#900F
(1740613523.340715) vcan0 00001309#5A0F
(1740613523.342235) vcan0 0000130C#4F0F
(1740613523.344371) vcan0 0000130B#950F
(1740613523.345360) vcan0 00001307#850F
(1740613523.348382) vcan0 00001303#670F
(1740613523.348385) vcan0 0000130A#7F0F
(1740613523.348539) vcan0 00001304#780F
(1740613523.356621) vcan0 00001302#5C0F
(1740613523.356701) vcan0 00001308#8A0F
(1740613524.327924) vcan0 00001306#830F
(1740613524.334100) vcan0 00001301#8E0F
(1740613524.337431) vcan0 00001305#900F
(1740613524.340704) vcan0 00001309#580F
(1740613524.342214) vcan0 0000130C#480F
(1740613524.344348) vcan0 0000130B#8C0F
(1740613524.345338) vcan0 00001307#7D0F
(1740613524.348371) vcan0 00001303#650F
(1740613524.348373) vcan0 0000130A#7B0F
(1740613524.348528) vcan0 00001304#720F
(1740613524.356608) vcan0 00001302#580F
(1740613524.356678) vcan0 00001308#830F
(1740613525.327829) vcan0 00001306#850F
(1740613525.334084) vcan0 00001301#900F
(1740613525.337422) vcan0 00001305#900F
(1740613525.340782) vcan0 00001309#580F
(1740613525.342167) vcan0 0000130C#4D0F
(1740613525.344328) vcan0 0000130B#8C0F
(1740613525.345332) vcan0 00001307#810F
(1740613525.348352) vcan0 00001303#670F
(1740613525.348354) vcan0 0000130A#7B0F
(1740613525.348508) vcan0 00001304#720F
(1740613525.356581) vcan0 00001302#580F
(1740613525.356681) vcan0 00001308#810F
(1740613526.327773) vcan0 00001306#830F
(1740613526.334065) vcan0 00001301#8C0F
(1740613526.337431) vcan0 00001305#8C0F
(1740613526.340696) vcan0 00001309#5C0F
(1740613526.341951) vcan0 0000130C#480F
(1740613526.344317) vcan0 0000130B#8C0F
(1740613526.345103) vcan0 00001307#7D0F
(1740613526.348336) vcan0 00001303#670F
(1740613526.348338) vcan0 0000130A#780F
(1740613526.348492) vcan0 00001304#6D0F
(1740613526.356560) vcan0 00001302#560F
(1740613526.356711) vcan0 00001308#810F
(1740613527.327746) vcan0 00001306#830F
(1740613527.334038) vcan0 00001301#8C0F
(1740613527.337389) vcan0 00001305#900F
(1740613527.340641) vcan0 00001309#580F
(1740613527.342146) vcan0 0000130C#480F
(1740613527.344307) vcan0 0000130B#8A0F
(1740613527.345279) vcan0 00001307#7F0F
(1740613527.348351) vcan0 00001303#670F
(1740613527.348354) vcan0 0000130A#7B0F
(1740613527.348447) vcan0 00001304#720F
(1740613527.356722) vcan0 00001302#560F
(1740613527.356769) vcan0 00001308#830F
(1740613528.327714) vcan0 00001306#830F
(1740613528.334028) vcan0 00001301#8E0F
(1740613528.337157) vcan0 00001305#920F
(1740613528.340398) vcan0 00001309#5A0F
(1740613528.341909) vcan0 0000130C#460F
(1740613528.344287) vcan0 0000130B#8E0F
(1740613528.345284) vcan0 00001307#810F
(1740613528.348333) vcan0 00001303#690F
(1740613528.348336) vcan0 0000130A#7B0F
(1740613528.348442) vcan0 00001304#700F
(1740613528.356614) vcan0 00001302#580F
(1740613528.356687) vcan0 00001308#830F
(1740613529.327689) vcan0 00001306#830F
(1740613529.334007) vcan0 00001301#8E0F
(1740613529.337569) vcan0 00001305#920F
(1740613529.340589) vcan0 00001309#580F
(1740613529.342123) vcan0 0000130C#460F
(1740613529.344269) vcan0 0000130B#8E0F
(1740613529.345253) vcan0 00001307#7D0F
(1740613529.348303) vcan0 00001303#670F
(1740613529.348305) vcan0 0000130A#780F
(1740613529.348428) vcan0 00001304#700F
(1740613529.356553) vcan0 00001302#580F
(1740613529.356619) vcan0 00001308#830F
(1740613530.327672) vcan0 00001306#850F
(1740613530.333981) vcan0 00001301#900F
(1740613530.337474) vcan0 00001305#8C0F
(1740613530.340569) vcan0 00001309#580F
(1740613530.342081) vcan0 0000130C#4B0F
(1740613530.344379) vcan0 0000130B#8E0F
(1740613530.345257) vcan0 00001307#7F0F
(1740613530.348374) vcan0 00001303#670F
(1740613530.348377) vcan0 0000130A#7B0F
(1740613530.348424) vcan0 00001304#700F
(1740613530.356493) vcan0 00001302#580F
(1740613530.356593) vcan0 00001308#830F
(1740613531.327656) vcan0 00001306#880F
(1740613531.333966) vcan0 00001301#8E0F
(1740613531.337089) vcan0 00001305#8E0F
(1740613531.340554) vcan0 00001309#5C0F
(1740613531.342061) vcan0 0000130C#480F
(1740613531.344282) vcan0 0000130B#8C0F
(1740613531.345213) vcan0 00001307#810F
(1740613531.348298) vcan0 00001303#670F
(1740613531.348301) vcan0 0000130A#740F
(1740613531.348370) vcan0 00001304#740F
(1740613531.356510) vcan0 00001302#560F
(1740613531.356583) vcan0 00001308#830F
(1740613532.327629) vcan0 00001306#850F
(1740613532.333950) vcan0 00001301#8C0F
(1740613532.337359) vcan0 00001305#8E0F
(1740613532.340533) vcan0 00001309#5A0F
(1740613532.342317) vcan0 0000130C#480F
(1740613532.344205) vcan0 0000130B#880F
(1740613532.345201) vcan0 00001307#7D0F
(1740613532.348362) vcan0 00001303#670F
(1740613532.348364) vcan0 0000130A#7B0F
(1740613532.348424) vcan0 00001304#700F
(1740613532.356515) vcan0 00001302#560F
(1740613532.356563) vcan0 00001308#830F
(1740613533.327606) vcan0 00001306#810F
(1740613533.333930) vcan0 00001301#8C0F
(1740613533.337298) vcan0 00001305#920F
(1740613533.340512) vcan0 00001309#5A0F
(1740613533.342032) vcan0 0000130C#4B0F
(1740613533.344170) vcan0 0000130B#8C0F
(1740613533.345333) vcan0 00001307#7D0F
(1740613533.348209) vcan0 00001303#670F
(1740613533.348212) vcan0 0000130A#7B0F
(1740613533.348384) vcan0 00001304#700F
(1740613533.356443) vcan0 00001302#580F
(1740613533.356581) vcan0 00001308#830F
(1740613534.327592) vcan0 00001306#830F
(1740613534.333909) vcan0 00001301#8E0F
(1740613534.337241) vcan0 00001305#900F
(1740613534.340490) vcan0 00001309#5A0F
(1740613534.341789) vcan0 0000130C#4B0F
(1740613534.344149) vcan0 0000130B#8C0F
(1740613534.344950) vcan0 00001307#810F
(1740613534.348203) vcan0 00001303#670F
(1740613534.348205) vcan0 0000130A#7D0F
(1740613534.348375) vcan0 00001304#700F
(1740613534.356431) vcan0 00001302#580F
(1740613534.356531) vcan0 00001308#830F
(1740613535.327573) vcan0 00001306#830F
(1740613535.333882) vcan0 00001301#8C0F
(1740613535.337223) vcan0 00001305#900F
(1740613535.340478) vcan0 00001309#5A0F
(1740613535.341979) vcan0 0000130C#4D0F
(1740613535.344142) vcan0 0000130B#8E0F
(1740613535.345263) vcan0 00001307#830F
(1740613535.348186) vcan0 00001303#670F
(1740613535.348188) vcan0 0000130A#7D0F
(1740613535.348360) vcan0 00001304#740F
(1740613535.356465) vcan0 00001302#580F
(1740613535.356532) vcan0 00001308#830F
(1740613536.327555) vcan0 00001306#880F
(1740613536.333867) vcan0 00001301#8E0F
(1740613536.337197) vcan0 00001305#950F
(1740613536.340455) vcan0 00001309#5C0F
(1740613536.341943) vcan0 0000130C#4B0F
(1740613536.344124) vcan0 0000130B#8E0F
(1740613536.345148) vcan0 00001307#810F
(1740613536.348170) vcan0 00001303#690F
(1740613536.348172) vcan0 0000130A#7B0F
(1740613536.348343) vcan0 00001304#720F
(1740613536.356445) vcan0 00001302#580F
(1740613536.356512) vcan0 00001308#830F
(1740613537.327524) vcan0 00001306#8A0F
(1740613537.333852) vcan0 00001301#BC0F
(1740613537.337178) vcan0 00001305#9F0F
(1740613537.340470) vcan0 00001309#9D0F
(1740613537.341935) vcan0 0000130C#8A0F
(1740613537.344085) vcan0 0000130B#CD0F
(1740613537.345111) vcan0 00001307#C20F
(1740613537.348172) vcan0 00001303#A80F
(1740613537.348175) vcan0 0000130A#B50F
(1740613537.348283) vcan0 00001304#B10F
(1740613537.356434) vcan0 00001302#8C0F
(1740613537.356484) vcan0 00001308#BC0F
(1740613538.327514) vcan0 00001306#AD0F
(1740613538.333808) vcan0 00001301#B30F
(1740613538.337156) vcan0 00001305#BC0F
(1740613538.340436) vcan0 00001309#830F
(1740613538.341733) vcan0 0000130C#720F
(1740613538.344079) vcan0 0000130B#B50F
(1740613538.345085) vcan0 00001307#A60F
(1740613538.348132) vcan0 00001303#8C0F
(1740613538.348135) vcan0 0000130A#9F0F
(1740613538.348276) vcan0 00001304#990F
(1740613538.356389) vcan0 00001302#7F0F
(1740613538.356455) vcan0 00001308#AD0F
(1740613539.327486) vcan0 00001306#AD0F
(1740613539.333810) vcan0 00001301#B30F
(1740613539.337157) vcan0 00001305#BA0F
(1740613539.340422) vcan0 00001309#810F
(1740613539.341927) vcan0 0000130C#720F
(1740613539.344058) vcan0 0000130B#B50F
(1740613539.345075) vcan0 00001307#A40F
(1740613539.348148) vcan0 00001303#8E0F
(1740613539.348151) vcan0 0000130A#A20F
(1740613539.348259) vcan0 00001304#9B0F
(1740613539.356403) vcan0 00001302#7F0F
(1740613539.356453) vcan0 00001308#A80F
(1740613540.327221) vcan0 00001306#AD0F
(1740613540.333794) vcan0 00001301#B30F
(1740613540.337133) vcan0 00001305#BA0F
(1740613540.340380) vcan0 00001309#830F
(1740613540.341868) vcan0 0000130C#720F
(1740613540.344045) vcan0 0000130B#B50F
(1740613540.345059) vcan0 00001307#A80F
(1740613540.348114) vcan0 00001303#900F
(1740613540.348117) vcan0 0000130A#A40F
(1740613540.348238) vcan0 00001304#990F
(1740613540.356391) vcan0 00001302#7F0F
(1740613540.356442) vcan0 00001308#A80F
(1740613541.327467) vcan0 00001306#AA0F
(1740613541.333746) vcan0 00001301#B30F
(1740613541.337119) vcan0 00001305#BA0F
(1740613541.340359) vcan0 00001309#830F
(1740613541.341846) vcan0 0000130C#720F
(1740613541.344024) vcan0 0000130B#B30F
(1740613541.345043) vcan0 00001307#A60F
(1740613541.348084) vcan0 00001303#900F
(1740613541.348087) vcan0 0000130A#A20F
(1740613541.348235) vcan0 00001304#9B0F
(1740613541.356531) vcan0 00001302#7F0F
(1740613541.356536) vcan0 00001308#A80F
(1740613542.327406) vcan0 00001306#AD0F
(1740613542.333725) vcan0 00001301#B50F
(1740613542.337087) vcan0 00001305#B80F
(1740613542.340334) vcan0 00001309#810F
(1740613542.341617) vcan0 0000130C#720F
(1740613542.344033) vcan0 0000130B#B50F
(1740613542.344816) vcan0 00001307#A40F
(1740613542.348086) vcan0 00001303#8E0F
(1740613542.348088) vcan0 0000130A#A40F
(1740613542.348210) vcan0 00001304#990F
(1740613542.356318) vcan0 00001302#7F0F
(1740613542.356409) vcan0 00001308#A80F
(1740613543.327390) vcan0 00001306#AD0F
(1740613543.333709) vcan0 00001301#B30F
(1740613543.337073) vcan0 00001305#BA0F
(1740613543.340313) vcan0 00001309#830F
(1740613543.341813) vcan0 0000130C#720F
(1740613543.343980) vcan0 0000130B#B50F
(1740613543.344994) vcan0 00001307#A40F
(1740613543.348061) vcan0 00001303#8C0F
(1740613543.348063) vcan0 0000130A#A40F
(1740613543.348193) vcan0 00001304#970F
(1740613543.356312) vcan0 00001302#7F0F
(1740613543.356388) vcan0 00001308#AA0F
(1740613544.327363) vcan0 00001306#AD0F
(1740613544.333694) vcan0 00001301#B30F
(1740613544.337183) vcan0 00001305#B80F
(1740613544.340282) vcan0 00001309#810F
(1740613544.341784) vcan0 0000130C#720F
(1740613544.343966) vcan0 0000130B#B50F
(1740613544.344995) vcan0 00001307#A40F
(1740613544.348053) vcan0 00001303#8E0F
(1740613544.348055) vcan0 0000130A#A20F
(1740613544.348213) vcan0 00001304#990F
(1740613544.356330) vcan0 00001302#7F0F
(1740613544.356378) vcan0 00001308#A80F
(1740613545.327339) vcan0 00001306#AD0F
(1740613545.333695) vcan0 00001301#B30F
(1740613545.337071) vcan0 00001305#BA0F
(1740613545.340252) vcan0 00001309#810F
(1740613545.341773) vcan0 0000130C#720F
(1740613545.343953) vcan0 0000130B#B80F
(1740613545.344966) vcan0 00001307#A40F
(1740613545.348254) vcan0 00001303#900F
(1740613545.348257) vcan0 0000130A#A20F
(1740613545.348263) vcan0 00001304#970F
(1740613545.356303) vcan0 00001302#7F0F
(1740613545.356371) vcan0 00001308#A80F
(1740613546.327323) vcan0 00001306#AA0F
(1740613546.333701) vcan0 00001301#B10F
(1740613546.337134) vcan0 00001305#B80F
(1740613546.340243) vcan0 00001309#810F
(1740613546.341753) vcan0 0000130C#700F
(1740613546.344017) vcan0 0000130B#B30F
(1740613546.344942) vcan0 00001307#A40F
(1740613546.348027) vcan0 00001303#900F
(1740613546.348030) vcan0 0000130A#A20F
(1740613546.348179) vcan0 00001304#970F
(1740613546.356253) vcan0 00001302#7D0F
(1740613546.356324) vcan0 00001308#A80F
(1740613547.327304) vcan0 00001306#AD0F
(1740613547.333627) vcan0 00001301#B30F
(1740613547.337055) vcan0 00001305#B80F
(1740613547.340228) vcan0 00001309#810F
(1740613547.341736) vcan0 0000130C#720F
(1740613547.343945) vcan0 0000130B#B30F
(1740613547.344958) vcan0 00001307#A60F
(1740613547.348126) vcan0 00001303#900F
(1740613547.348129) vcan0 0000130A#A40F
(1740613547.348189) vcan0 00001304#990F
(1740613547.356287) vcan0 00001302#7F0F
(1740613547.356335) vcan0 00001308#A80F
(1740613548.327272) vcan0 00001306#AD0F
(1740613548.333606) vcan0 00001301#B30F
(1740613548.336971) vcan0 00001305#BA0F
(1740613548.340207) vcan0 00001309#810F
(1740613548.341850) vcan0 0000130C#700F
(1740613548.343939) vcan0 0000130B#B50F
(1740613548.344941) vcan0 00001307#A60F
(1740613548.348036) vcan0 00001303#8E0F
(1740613548.348039) vcan0 0000130A#A60F
(1740613548.348110) vcan0 00001304#990F
(1740613548.356274) vcan0 00001302#7F0F
(1740613548.356323) vcan0 00001308#A80F
(1740613549.327257) vcan0 00001306#AA0F
(1740613549.333585) vcan0 00001301#B30F
(1740613549.336946) vcan0 00001305#BA0F
(1740613549.340200) vcan0 00001309#810F
(1740613549.341757) vcan0 0000130C#720F
(1740613549.343862) vcan0 0000130B#B30F
(1740613549.345083) vcan0 00001307#A40F
(1740613549.347964) vcan0 00001303#8E0F
(1740613549.347966) vcan0 0000130A#A40F
(1740613549.348096) vcan0 00001304#970F
(1740613549.356258) vcan0 00001302#7F0F
(1740613549.356307) vcan0 00001308#A80F
(1740613550.327239) vcan0 00001306#AA0F
(1740613550.333593) vcan0 00001301#B30F
(1740613550.336945) vcan0 00001305#BA0F
(1740613550.340184) vcan0 00001309#830F
(1740613550.341464) vcan0 0000130C#720F
(1740613550.343841) vcan0 0000130B#B50F
(1740613550.344670) vcan0 00001307#A40F
(1740613550.347964) vcan0 00001303#900F
(1740613550.347967) vcan0 0000130A#A20F
(1740613550.348077) vcan0 00001304#990F
(1740613550.356190) vcan0 00001302#7F0F
(1740613550.356276) vcan0 00001308#A80F
(1740613551.327211) vcan0 00001306#AD0F
(1740613551.333571) vcan0 00001301#B10F
(1740613551.336736) vcan0 00001305#BA0F
(1740613551.339939) vcan0 00001309#810F
(1740613551.341438) vcan0 0000130C#700F
(1740613551.343826) vcan0 0000130B#B50F
(1740613551.344884) vcan0 00001307#A40F
(1740613551.347951) vcan0 0000130A#A40F
(1740613551.347953) vcan0 00001303#8E0F
(1740613551.348061) vcan0 00001304#9B0F
(1740613551.356216) vcan0 00001302#7D0F
(1740613551.356266) vcan0 00001308#A80F
(1740613552.327204) vcan0 00001306#AA0F
(1740613552.333534) vcan0 00001301#B30F
(1740613552.336943) vcan0 00001305#BA0F
(1740613552.340126) vcan0 00001309#810F
(1740613552.341635) vcan0 0000130C#720F
(1740613552.343805) vcan0 0000130B#B50F
(1740613552.344839) vcan0 00001307#A40F
(1740613552.347925) vcan0 00001303#900F
(1740613552.347928) vcan0 0000130A#A20F
(1740613552.348038) vcan0 00001304#970F
(1740613552.356216) vcan0 00001302#7F0F
(1740613552.356265) vcan0 00001308#A80F
(1740613553.327176) vcan0 00001306#AA0F
(1740613553.333513) vcan0 00001301#B50F
(1740613553.336859) vcan0 00001305#B80F
(1740613553.340143) vcan0 00001309#810F
(1740613553.341597) vcan0 0000130C#720F
(1740613553.343780) vcan0 0000130B#B50F
(1740613553.344817) vcan0 00001307#A60F
(1740613553.347918) vcan0 00001303#8E0F
(1740613553.347921) vcan0 0000130A#A40F
(1740613553.348011) vcan0 00001304#970F
(1740613553.356181) vcan0 00001302#7F0F
(1740613553.356247) vcan0 00001308#A80F
(1740613554.327152) vcan0 00001306#AD0F
(1740613554.333525) vcan0 00001301#B30F
(1740613554.336845) vcan0 00001305#BA0F
(1740613554.340104) vcan0 00001309#810F
(1740613554.341581) vcan0 0000130C#720F
(1740613554.343769) vcan0 0000130B#B30F
(1740613554.344812) vcan0 00001307#A60F
(1740613554.347874) vcan0 00001303#8E0F
(1740613554.347876) vcan0 0000130A#9F0F
(1740613554.348005) vcan0 00001304#990F
(1740613554.356140) vcan0 00001302#7F0F
(1740613554.356207) vcan0 00001308#A60F
(1740613555.327141) vcan0 00001306#AF0F
(1740613555.333504) vcan0 00001301#B50F
(1740613555.336823) vcan0 00001305#BC0F
(1740613555.340074) vcan0 00001309#810F
(1740613555.341571) vcan0 0000130C#720F
(1740613555.343736) vcan0 0000130B#B50F
(1740613555.344791) vcan0 00001307#A60F
(1740613555.347881) vcan0 00001303#8E0F
(1740613555.347884) vcan0 0000130A#A40F
(1740613555.347976) vcan0 00001304#990F
(1740613555.356152) vcan0 00001302#7F0F
(1740613555.356203) vcan0 00001308#AA0F
(1740613556.327193) vcan0 00001306#AA0F
(1740613556.333456) vcan0 00001301#B30F
(1740613556.336806) vcan0 00001305#B80F
(1740613556.340212) vcan0 00001309#810F
(1740613556.341647) vcan0 0000130C#720F
(1740613556.343718) vcan0 0000130B#B30F
(1740613556.344769) vcan0 00001307#A60F
(1740613556.347864) vcan0 00001303#8E0F
(1740613556.347867) vcan0 0000130A#A40F
(1740613556.347975) vcan0 00001304#990F
(1740613556.356255) vcan0 00001302#7F0F
(1740613556.356267) vcan0 00001308#A80F
(1740613557.327123) vcan0 00001306#AA0F
(1740613557.333435) vcan0 00001301#B30F
(1740613557.336789) vcan0 00001305#BA0F
(1740613557.340106) vcan0 00001309#830F
(1740613557.341543) vcan0 0000130C#720F
(1740613557.343722) vcan0 0000130B#B50F
(1740613557.344753) vcan0 00001307#A60F
(1740613557.347847) vcan0 0000130A#A20F
(1740613557.347850) vcan0 00001303#900F
(1740613557.347958) vcan0 00001304#970F
(1740613557.356170) vcan0 00001302#7F0F
(1740613557.356214) vcan0 00001308#A60F
(1740613558.327061) vcan0 00001306#AD0F
(1740613558.333414) vcan0 00001301#B30F
(1740613558.336774) vcan0 00001305#B80F
(1740613558.340032) vcan0 00001309#810F
(1740613558.341298) vcan0 0000130C#720F
(1740613558.343699) vcan0 0000130B#B30F
(1740613558.344732) vcan0 00001307#A60F
(1740613558.347820) vcan0 0000130A#9F0F
(1740613558.347824) vcan0 00001303#8E0F
(1740613558.347939) vcan0 00001304#970F
(1740613558.356097) vcan0 00001302#7D0F
(1740613558.356154) vcan0 00001308#A80F
(1740613559.327033) vcan0 00001306#AD0F
(1740613559.333398) vcan0 00001301#B30F
(1740613559.336906) vcan0 00001305#BA0F
(1740613559.339985) vcan0 00001309#810F
(1740613559.341491) vcan0 0000130C#720F
(1740613559.343672) vcan0 0000130B#B50F
(1740613559.344732) vcan0 00001307#A40F
(1740613559.347789) vcan0 0000130A#9F0F
(1740613559.347791) vcan0 00001303#8E0F
(1740613559.347917) vcan0 00001304#990F
(1740613559.356163) vcan0 00001302#7F0F
(1740613559.356167) vcan0 00001308#A60F
(1740613560.327010) vcan0 00001306#A80F
(1740613560.333378) vcan0 00001301#B30F
(1740613560.336817) vcan0 00001305#BC0F
(1740613560.339973) vcan0 00001309#810F
(1740613560.341501) vcan0 0000130C#740F
(1740613560.343664) vcan0 0000130B#B30F
(1740613560.344732) vcan0 00001307#A40F
(1740613560.347770) vcan0 00001303#900F
(1740613560.347773) vcan0 0000130A#9F0F
(1740613560.347911) vcan0 00001304#990F
(1740613560.356096) vcan0 00001302#7D0F
(1740613560.356145) vcan0 00001308#A60F
(1740613561.326999) vcan0 00001306#AD0F
(1740613561.333351) vcan0 00001301#B30F
(1740613561.336739) vcan0 00001305#B80F
(1740613561.340078) vcan0 00001309#830F
