(1743657974.805083) vcan0 00003001#0000
(1743657974.805085) vcan0 00001301#0000
(1743657974.805234) vcan0 00002001#00000000
(1743657974.805414) vcan0 00002201#0000
(1743657974.805598) vcan0 00003101#0000
(1743657974.805775) vcan0 00003501#0000
(1743657974.805957) vcan0 00003601#0000
(1743657974.806128) vcan0 00003701#0000
(1743657974.806320) vcan0 00003801#0000
(1743657974.806495) vcan0 00004001#0000
(1743657974.806968) vcan0 00003006#0000
(1743657974.807069) vcan0 00001306#0000
(1743657974.807307) vcan0 00002006#00000000
(1743657974.807487) vcan0 00002206#0000
(1743657974.807678) vcan0 00003106#0000
(1743657974.807833) vcan0 00001305#0000
(1743657974.808069) vcan0 00002005#00000000
(1743657974.808250) vcan0 00002205#0000
(1743657974.808445) vcan0 00003005#0000
(1743657974.808617) vcan0 00003105#0000
(1743657974.808804) vcan0 00003505#0000
(1743657974.808985) vcan0 00003506#0000
(1743657974.809135) vcan0 00001302#0000
(1743657974.809393) vcan0 00002002#00000000
(1743657974.809571) vcan0 00001304#0000
(1743657974.809784) vcan0 00002004#00000000
(1743657974.809974) vcan0 00001303#0000
(1743657974.810199) vcan0 00002003#00000000
(1743657974.810349) vcan0 00002202#0000
(1743657974.810551) vcan0 00002203#0000
(1743657974.810744) vcan0 00002204#0000
(1743657974.810926) vcan0 00003002#0000
(1743657974.811106) vcan0 00003003#0000
(1743657974.811286) vcan0 00003004#0000
(1743657974.811290) vcan0 00003007#0000
(1743657974.811464) vcan0 00003102#0000
(1743657974.811524) vcan0 00001307#0000
(1743657974.811641) vcan0 00003103#0000
(1743657974.811652) vcan0 00002007#00000000
(1743657974.811826) vcan0 00003104#0000
(1743657974.811836) vcan0 00002207#0000
(1743657974.811986) vcan0 00003502#0000
(1743657974.812022) vcan0 00001309#0000
(1743657974.812189) vcan0 00003503#0000
(1743657974.812241) vcan0 00002009#00000000
(1743657974.812333) vcan0 00003504#0000
(1743657974.812473) vcan0 00002209#0000
(1743657974.812510) vcan0 00003602#0000
(1743657974.812599) vcan0 00003009#0000
(1743657974.812695) vcan0 00003603#0000
(1743657974.812788) vcan0 00003107#0000
(1743657974.812886) vcan0 00003604#0000
(1743657974.812968) vcan0 00003109#0000
(1743657974.813045) vcan0 00003605#0000
(1743657974.813147) vcan0 00003507#0000
(1743657974.813237) vcan0 00003606#0000
(1743657974.813326) vcan0 00003509#0000
(1743657974.813407) vcan0 00003702#0000
(1743657974.813518) vcan0 00003607#0000
(1743657974.813587) vcan0 00003703#0000
(1743657974.813698) vcan0 00003609#0000
(1743657974.813779) vcan0 00003704#0000
(1743657974.813872) vcan0 00003707#0000
(1743657974.813950) vcan0 00003705#0000
(1743657974.814057) vcan0 00003709#0000
(1743657974.814145) vcan0 00003706#0000
(1743657974.814235) vcan0 00003807#0000
(1743657974.814315) vcan0 00003802#0000
(1743657974.814414) vcan0 00003809#0000
(1743657974.814496) vcan0 00003803#0000
(1743657974.814596) vcan0 0000130A#0000
(1743657974.814687) vcan0 00003804#0000
(1743657974.814816) vcan0 0000200A#00000000
(1743657974.814935) vcan0 00003805#0000
(1743657974.815001) vcan0 0000130B#0000
(1743657974.815039) vcan0 00003806#0000
(1743657974.815180) vcan0 00001308#0000
(1743657974.815227) vcan0 00004002#0000
(1743657974.815400) vcan0 00004003#0000
(1743657974.815401) vcan0 00002008#00000000
(1743657974.815585) vcan0 00004004#0000
(1743657974.815621) vcan0 0000200B#00000000
(1743657974.815776) vcan0 00004005#0000
(1743657974.815809) vcan0 00002208#0000
(1743657974.815953) vcan0 00004006#0000
(1743657974.815986) vcan0 0000220A#0000
(1743657974.816173) vcan0 0000220B#0000
(1743657974.816353) vcan0 00003008#0000
(1743657974.816536) vcan0 0000300A#0000
(1743657974.816715) vcan0 0000300B#0000
(1743657974.816900) vcan0 0000130C#0000
(1743657974.817114) vcan0 0000200C#00000000
(1743657974.817264) vcan0 0000220C#0000
(1743657974.817452) vcan0 0000300C#0000
(1743657974.817626) vcan0 00003108#0000
(1743657974.817804) vcan0 0000310A#0000
(1743657974.817984) vcan0 0000310B#0000
(1743657974.818157) vcan0 0000310C#0000
(1743657974.818336) vcan0 00003508#0000
(1743657974.818523) vcan0 0000350A#0000
(1743657974.818697) vcan0 0000350B#0000
(1743657974.818876) vcan0 0000350C#0000
(1743657974.819055) vcan0 00003608#0000
(1743657974.819241) vcan0 0000360A#0000
(1743657974.819498) vcan0 0000360B#0000
(1743657974.819609) vcan0 0000360C#0000
(1743657974.819780) vcan0 00003708#0000
(1743657974.819966) vcan0 0000370A#0000
(1743657974.820145) vcan0 0000370B#0000
(1743657974.820324) vcan0 0000370C#0000
(1743657974.820495) vcan0 00003808#0000
(1743657974.820684) vcan0 0000380A#0000
(1743657974.820868) vcan0 0000380B#0000
(1743657974.821044) vcan0 0000380C#0000
(1743657974.821222) vcan0 00004007#0000
(1743657974.821452) vcan0 00004008#0000
(1743657974.821580) vcan0 00004009#0000
(1743657974.821770) vcan0 0000400A#0000
(1743657974.821960) vcan0 0000400B#0000
(1743657974.822134) vcan0 0000400C#0000
(1743657974.845579) vcan0 0000250F#0000
(1743657974.905082) vcan0 00003001#0000
(1743657974.905084) vcan0 00001301#0000
(1743657974.905228) vcan0 00002001#00000000
(1743657974.905420) vcan0 00002201#0000
(1743657974.905600) vcan0 00003101#0000
(1743657974.905780) vcan0 00003501#0000
(1743657974.905950) vcan0 00003601#0000
(1743657974.906134) vcan0 00003701#0000
(1743657974.906325) vcan0 00003801#0000
(1743657974.906505) vcan0 00004001#0000
(1743657974.906939) vcan0 00003006#0000
(1743657974.907084) vcan0 00001306#0000
(1743657974.907322) vcan0 00002006#00000000
(1743657974.907503) vcan0 00002206#0000
(1743657974.907693) vcan0 00003106#0000
(1743657974.907866) vcan0 00001305#0000
(1743657974.908097) vcan0 00002005#00000000
(1743657974.908245) vcan0 00002205#0000
(1743657974.908447) vcan0 00003005#0000
(1743657974.908620) vcan0 00003105#0000
(1743657974.908811) vcan0 00003505#0000
(1743657974.908993) vcan0 00003506#0000
(1743657974.909172) vcan0 00001302#0000
(1743657974.909388) vcan0 00002002#00000000
(1743657974.909583) vcan0 00001304#0000
(1743657974.909806) vcan0 00002004#00000000
(1743657974.909980) vcan0 00001303#0000
(1743657974.910202) vcan0 00002003#00000000
(1743657974.910385) vcan0 00002202#0000
(1743657974.910572) vcan0 00002203#0000
(1743657974.910743) vcan0 00002204#0000
(1743657974.910990) vcan0 00003002#0000
(1743657974.911105) vcan0 00003003#0000
(1743657974.911278) vcan0 00003004#0000
(1743657974.911302) vcan0 00003007#0000
(1743657974.911467) vcan0 00003102#0000
(1743657974.911478) vcan0 00001307#0000
(1743657974.911648) vcan0 00003103#0000
(1743657974.911658) vcan0 00002007#00000000
(1743657974.911831) vcan0 00003104#0000
(1743657974.911842) vcan0 00002207#0000
(1743657974.911986) vcan0 00003502#0000
(1743657974.912021) vcan0 00001309#0000
(1743657974.912189) vcan0 00003503#0000
(1743657974.912246) vcan0 00002009#00000000
(1743657974.912335) vcan0 00003504#0000
(1743657974.912482) vcan0 00002209#0000
(1743657974.912550) vcan0 00003602#0000
(1743657974.912608) vcan0 00003009#0000
(1743657974.912697) vcan0 00003603#0000
(1743657974.912793) vcan0 00003107#0000
(1743657974.912899) vcan0 00003604#0000
(1743657974.912968) vcan0 00003109#0000
(1743657974.913058) vcan0 00003605#0000
(1743657974.913152) vcan0 00003507#0000
(1743657974.913239) vcan0 00003606#0000
(1743657974.913337) vcan0 00003509#0000
(1743657974.913420) vcan0 00003702#0000
(1743657974.913518) vcan0 00003607#0000
(1743657974.913600) vcan0 00003703#0000
(1743657974.913697) vcan0 00003609#0000
(1743657974.913781) vcan0 00003704#0000
(1743657974.913882) vcan0 00003707#0000
(1743657974.913964) vcan0 00003705#0000
(1743657974.914061) vcan0 00003709#0000
(1743657974.914144) vcan0 00003706#0000
(1743657974.914240) vcan0 00003807#0000
(1743657974.914325) vcan0 00003802#0000
(1743657974.914419) vcan0 00003809#0000
(1743657974.914506) vcan0 00003803#0000
(1743657974.914600) vcan0 0000130A#0000
(1743657974.914686) vcan0 00003804#0000
(1743657974.914821) vcan0 0000200A#00000000
(1743657974.914899) vcan0 00003805#0000
(1743657974.915006) vcan0 0000130B#0000
(1743657974.915044) vcan0 00003806#0000
(1743657974.915185) vcan0 00001308#0000
(1743657974.915224) vcan0 00004002#0000
(1743657974.915409) vcan0 00004003#0000
(1743657974.915408) vcan0 00002008#00000000
(1743657974.915603) vcan0 00004004#0000
(1743657974.915635) vcan0 0000200B#00000000
(1743657974.915775) vcan0 00004005#0000
(1743657974.915806) vcan0 00002208#0000
(1743657974.915962) vcan0 00004006#0000
(1743657974.915992) vcan0 0000220A#0000
(1743657974.916171) vcan0 0000220B#0000
(1743657974.916356) vcan0 00003008#0000
(1743657974.916535) vcan0 0000300A#0000
(1743657974.916720) vcan0 0000300B#0000
(1743657974.916899) vcan0 0000130C#0000
(1743657974.917126) vcan0 0000200C#00000000
(1743657974.917299) vcan0 0000220C#0000
(1743657974.917488) vcan0 0000300C#0000
(1743657974.917655) vcan0 00003108#0000
(1743657974.917840) vcan0 0000310A#0000
(1743657974.918013) vcan0 0000310B#0000
(1743657974.918193) vcan0 0000310C#0000
(1743657974.918378) vcan0 00003508#0000
(1743657974.918558) vcan0 0000350A#0000
(1743657974.918731) vcan0 0000350B#0000
(1743657974.918911) vcan0 0000350C#0000
(1743657974.919090) vcan0 00003608#0000
(1743657974.919275) vcan0 0000360A#0000
(1743657974.919458) vcan0 0000360B#0000
(1743657974.919614) vcan0 0000360C#0000
(1743657974.919793) vcan0 00003708#0000
(1743657974.919960) vcan0 0000370A#0000
(1743657974.920146) vcan0 0000370B#0000
(1743657974.920324) vcan0 0000370C#0000
(1743657974.920505) vcan0 00003808#0000
(1743657974.920690) vcan0 0000380A#0000
(1743657974.920869) vcan0 0000380B#0000
(1743657974.921049) vcan0 0000380C#0000
(1743657974.921227) vcan0 00004007#0000
(1743657974.921458) vcan0 00004008#0000
(1743657974.921585) vcan0 00004009#0000
(1743657974.921775) vcan0 0000400A#0000
(1743657974.921954) vcan0 0000400B#0000
(1743657974.922145) vcan0 0000400C#0000
(1743657975.005080) vcan0 00003001#0000
(1743657975.005082) vcan0 00001301#0000
(1743657975.005238) vcan0 00002001#00000000
(1743657975.005420) vcan0 00002201#0000
(1743657975.005589) vcan0 00003101#0000
(1743657975.005769) vcan0 00003501#0000
(1743657975.005950) vcan0 00003601#0000
(1743657975.006142) vcan0 00003701#0000
(1743657975.006322) vcan0 00003801#0000
(1743657975.006502) vcan0 00004001#0000
(1743657975.006986) vcan0 00003006#0000
(1743657975.007099) vcan0 00001306#0000
(1743657975.007325) vcan0 00002006#00000000
(1743657975.007506) vcan0 00002206#0000
(1743657975.007687) vcan0 00003106#0000
(1743657975.007866) vcan0 00001305#0000
(1743657975.007884) vcan0 00001201#00
(1743657975.007952) vcan0 00001202#00
(1743657975.007988) vcan0 00001203#00
(1743657975.008026) vcan0 00001204#00
(1743657975.008062) vcan0 00001205#00
(1743657975.008108) vcan0 00001206#00
(1743657975.008145) vcan0 00001207#00
(1743657975.008150) vcan0 00002005#00000000
(1743657975.008181) vcan0 00001208#00
(1743657975.008216) vcan0 00001209#00
(1743657975.008258) vcan0 0000120A#00
(1743657975.008297) vcan0 0000120B#00
(1743657975.008335) vcan0 0000120C#00
(1743657975.008373) vcan0 00001221#00
(1743657975.008429) vcan0 00001222#00
(1743657975.008437) vcan0 00002205#0000
(1743657975.008458) vcan0 0000120F#00
(1743657975.010909) vcan0 00001302#0000
(1743657975.011052) vcan0 00001303#0000
(1743657975.011237) vcan0 00001304#0000
(1743657975.011269) vcan0 00003007#0000
(1743657975.011451) vcan0 00002002#00000000
(1743657975.011533) vcan0 00001307#0000
(1743657975.011670) vcan0 00002003#00000000
(1743657975.011672) vcan0 00002007#00000000
(1743657975.011845) vcan0 00002207#0000
(1743657975.011904) vcan0 00002004#00000000
(1743657975.012030) vcan0 00001309#0000
(1743657975.012069) vcan0 00002202#0000
(1743657975.012244) vcan0 00002009#00000000
(1743657975.012254) vcan0 00002203#0000
(1743657975.012432) vcan0 00002209#0000
(1743657975.012435) vcan0 00002204#0000
(1743657975.012611) vcan0 00003009#0000
(1743657975.012616) vcan0 00003002#0000
(1743657975.012790) vcan0 00003107#0000
(1743657975.012797) vcan0 00003003#0000
(1743657975.012975) vcan0 00003109#0000
(1743657975.012979) vcan0 00003004#0000
(1743657975.013160) vcan0 00003005#0000
(1743657975.013160) vcan0 00003507#0000
(1743657975.013333) vcan0 00003509#0000
(1743657975.013340) vcan0 00003102#0000
(1743657975.013517) vcan0 00003607#0000
(1743657975.013532) vcan0 00003103#0000
(1743657975.013702) vcan0 00003104#0000
(1743657975.013708) vcan0 00003609#0000
(1743657975.013887) vcan0 00003707#0000
(1743657975.013904) vcan0 00003105#0000
(1743657975.014063) vcan0 00003502#0000
(1743657975.014066) vcan0 00003709#0000
(1743657975.014245) vcan0 00003807#0000
(1743657975.014255) vcan0 00003503#0000
(1743657975.014425) vcan0 00003504#0000
(1743657975.014424) vcan0 00003809#0000
(1743657975.014606) vcan0 00003505#0000
(1743657975.014605) vcan0 0000130A#0000
(1743657975.014800) vcan0 00003506#0000
(1743657975.014830) vcan0 0000200A#00000000
(1743657975.014976) vcan0 00003602#0000
(1743657975.015007) vcan0 0000130B#0000
(1743657975.015158) vcan0 00003603#0000
(1743657975.015188) vcan0 00001308#0000
(1743657975.015338) vcan0 00003604#0000
(1743657975.015410) vcan0 00002008#00000000
(1743657975.015515) vcan0 00003605#0000
(1743657975.015629) vcan0 0000200B#00000000
(1743657975.015685) vcan0 00003606#0000
(1743657975.015784) vcan0 00002208#0000
(1743657975.015951) vcan0 00003702#0000
(1743657975.015953) vcan0 0000220A#0000
(1743657975.016051) vcan0 00003703#0000
(1743657975.016143) vcan0 0000220B#0000
(1743657975.016232) vcan0 00003704#0000
(1743657975.016328) vcan0 00003008#0000
(1743657975.016417) vcan0 00003705#0000
(1743657975.016511) vcan0 0000300A#0000
(1743657975.016593) vcan0 00003706#0000
(1743657975.016690) vcan0 0000300B#0000
(1743657975.016774) vcan0 00003802#0000
(1743657975.016875) vcan0 0000130C#0000
(1743657975.016958) vcan0 00003803#0000
(1743657975.017090) vcan0 0000200C#00000000
(1743657975.017149) vcan0 00003804#0000
(1743657975.017275) vcan0 0000220C#0000
(1743657975.017315) vcan0 00003805#0000
(1743657975.017458) vcan0 0000300C#0000
(1743657975.017495) vcan0 00003806#0000
(1743657975.017631) vcan0 00003108#0000
(1743657975.017680) vcan0 00004002#0000
(1743657975.017811) vcan0 0000310A#0000
(1743657975.017905) vcan0 00004003#0000
(1743657975.017984) vcan0 0000310B#0000
(1743657975.018052) vcan0 00004004#0000
(1743657975.018162) vcan0 0000310C#0000
(1743657975.018233) vcan0 00004005#0000
(1743657975.018336) vcan0 00003508#0000
(1743657975.018415) vcan0 00004006#0000
(1743657975.018523) vcan0 0000350A#0000
(1743657975.018701) vcan0 0000350B#0000
(1743657975.018880) vcan0 0000350C#0000
(1743657975.019065) vcan0 00003608#0000
(1743657975.019244) vcan0 0000360A#0000
(1743657975.019509) vcan0 0000360B#0000
(1743657975.019619) vcan0 0000360C#0000
(1743657975.019792) vcan0 00003708#0000
(1743657975.019970) vcan0 0000370A#0000
(1743657975.020150) vcan0 0000370B#0000
(1743657975.020329) vcan0 0000370C#0000
(1743657975.020514) vcan0 00003808#0000
(1743657975.020695) vcan0 0000380A#0000
(1743657975.020868) vcan0 0000380B#0000
(1743657975.021047) vcan0 0000380C#0000
(1743657975.021233) vcan0 00004007#0000
(1743657975.021463) vcan0 00004008#0000
(1743657975.021590) vcan0 00004009#0000
(1743657975.021780) vcan0 0000400A#0000
(1743657975.021965) vcan0 0000400B#0000
(1743657975.022150) vcan0 0000400C#0000
(1743657975.105083) vcan0 00003001#0000
(1743657975.105085) vcan0 00001301#0000
(1743657975.105232) vcan0 00002001#00000000
(1743657975.105413) vcan0 00002201#0000
(1743657975.105604) vcan0 00003101#0000
(1743657975.105784) vcan0 00003501#0000
(1743657975.105955) vcan0 00003601#0000
(1743657975.106139) vcan0 00003701#0000
(1743657975.106330) vcan0 00003801#0000
(1743657975.106512) vcan0 00004001#0000
(1743657975.107018) vcan0 00003006#0000
(1743657975.107091) vcan0 00001306#0000
(1743657975.107326) vcan0 00002006#00000000
(1743657975.107511) vcan0 00002206#0000
(1743657975.107691) vcan0 00003106#0000
(1743657975.107873) vcan0 00001305#0000
(1743657975.108084) vcan0 00002005#00000000
(1743657975.108268) vcan0 00002205#0000
(1743657975.108445) vcan0 00003005#0000
(1743657975.108635) vcan0 00003105#0000
(1743657975.108809) vcan0 00003505#0000
(1743657975.108991) vcan0 00003506#0000
(1743657975.109181) vcan0 00001302#0000
(1743657975.109402) vcan0 00002002#00000000
(1743657975.109586) vcan0 00001304#0000
(1743657975.109806) vcan0 00002004#00000000
(1743657975.109990) vcan0 00001303#0000
(1743657975.110200) vcan0 00002003#00000000
(1743657975.110394) vcan0 00002202#0000
(1743657975.110576) vcan0 00002203#0000
(1743657975.110756) vcan0 00002204#0000
(1743657975.111001) vcan0 00003002#0000
(1743657975.111115) vcan0 00003003#0000
(1743657975.111293) vcan0 00003004#0000
(1743657975.111321) vcan0 00003007#0000
(1743657975.111479) vcan0 00003102#0000
(1743657975.111489) vcan0 00001307#0000
(1743657975.111659) vcan0 00003103#0000
(1743657975.111664) vcan0 00002007#00000000
(1743657975.111839) vcan0 00003104#0000
(1743657975.111849) vcan0 00002207#0000
(1743657975.111999) vcan0 00003502#0000
(1743657975.112026) vcan0 00001309#0000
(1743657975.112205) vcan0 00003503#0000
(1743657975.112251) vcan0 00002009#00000000
(1743657975.112350) vcan0 00003504#0000
(1743657975.112492) vcan0 00002209#0000
(1743657975.112560) vcan0 00003602#0000
(1743657975.112619) vcan0 00003009#0000
(1743657975.112707) vcan0 00003603#0000
(1743657975.112797) vcan0 00003107#0000
(1743657975.112904) vcan0 00003604#0000
(1743657975.112972) vcan0 00003109#0000
(1743657975.113063) vcan0 00003605#0000
(1743657975.113163) vcan0 00003507#0000
(1743657975.113244) vcan0 00003606#0000
(1743657975.113341) vcan0 00003509#0000
(1743657975.113425) vcan0 00003702#0000
(1743657975.113522) vcan0 00003607#0000
(1743657975.113605) vcan0 00003703#0000
(1743657975.113701) vcan0 00003609#0000
(1743657975.113786) vcan0 00003704#0000
(1743657975.113893) vcan0 00003707#0000
(1743657975.113968) vcan0 00003705#0000
(1743657975.114066) vcan0 00003709#0000
(1743657975.114148) vcan0 00003706#0000
(1743657975.114251) vcan0 00003807#0000
(1743657975.114329) vcan0 00003802#0000
(1743657975.114430) vcan0 00003809#0000
(1743657975.114510) vcan0 00003803#0000
(1743657975.114611) vcan0 0000130A#0000
(1743657975.114691) vcan0 00003804#0000
(1743657975.114831) vcan0 0000200A#00000000
(1743657975.114904) vcan0 00003805#0000
(1743657975.115010) vcan0 0000130B#0000
(1743657975.115048) vcan0 00003806#0000
(1743657975.115196) vcan0 00001308#0000
(1743657975.115233) vcan0 00004002#0000
(1743657975.115411) vcan0 00002008#00000000
(1743657975.115414) vcan0 00004003#0000
(1743657975.115610) vcan0 00004004#0000
(1743657975.115641) vcan0 0000200B#00000000
(1743657975.115791) vcan0 00004005#0000
(1743657975.115821) vcan0 00002208#0000
(1743657975.115962) vcan0 00004006#0000
(1743657975.115993) vcan0 0000220A#0000
(1743657975.116181) vcan0 0000220B#0000
(1743657975.116360) vcan0 00003008#0000
(1743657975.116551) vcan0 0000300A#0000
(1743657975.116730) vcan0 0000300B#0000
(1743657975.116903) vcan0 0000130C#0000
(1743657975.117129) vcan0 0000200C#00000000
(1743657975.117309) vcan0 0000220C#0000
(1743657975.117498) vcan0 0000300C#0000
(1743657975.117665) vcan0 00003108#0000
(1743657975.117844) vcan0 0000310A#0000
(1743657975.118000) vcan0 0000310B#0000
(1743657975.118203) vcan0 0000310C#0000
(1743657975.118352) vcan0 00003508#0000
(1743657975.118562) vcan0 0000350A#0000
(1743657975.118706) vcan0 0000350B#0000
(1743657975.118885) vcan0 0000350C#0000
(1743657975.119064) vcan0 00003608#0000
(1743657975.119250) vcan0 0000360A#0000
(1743657975.119468) vcan0 0000360B#0000
(1743657975.119624) vcan0 0000360C#0000
(1743657975.119791) vcan0 00003708#0000
(1743657975.119970) vcan0 0000370A#0000
(1743657975.120156) vcan0 0000370B#0000
(1743657975.120334) vcan0 0000370C#0000
(1743657975.120515) vcan0 00003808#0000
(1743657975.120694) vcan0 0000380A#0000
(1743657975.120880) vcan0 0000380B#0000
(1743657975.121058) vcan0 0000380C#0000
(1743657975.121238) vcan0 00004007#0000
(1743657975.121468) vcan0 00004008#0000
(1743657975.121595) vcan0 00004009#0000
(1743657975.121785) vcan0 0000400A#0000
(1743657975.121967) vcan0 0000400B#0000
(1743657975.122149) vcan0 0000400C#0000
(1743657975.205147) vcan0 00003001#0000
(1743657975.205150) vcan0 00001301#0000
(1743657975.205209) vcan0 00002001#00000000
(1743657975.205420) vcan0 00002201#0000
(1743657975.205599) vcan0 00003101#0000
(1743657975.205779) vcan0 00003501#0000
(1743657975.205962) vcan0 00003601#0000
(1743657975.206141) vcan0 00003701#0000
(1743657975.206335) vcan0 00003801#0000
(1743657975.206517) vcan0 00004001#0000
(1743657975.206996) vcan0 00003006#0000
(1743657975.207100) vcan0 00001306#0000
(1743657975.207320) vcan0 00002006#00000000
(1743657975.207503) vcan0 00002206#0000
(1743657975.207683) vcan0 00003106#0000
(1743657975.207864) vcan0 00001305#0000
(1743657975.208089) vcan0 00002005#00000000
(1743657975.208243) vcan0 00002205#0000
(1743657975.208440) vcan0 00003005#0000
(1743657975.208919) vcan0 00003105#0000
(1743657975.208921) vcan0 00003505#0000
(1743657975.208963) vcan0 00003506#0000
(1743657975.209164) vcan0 00001302#0000
(1743657975.209816) vcan0 00002002#00000000
(1743657975.209818) vcan0 00001304#0000
(1743657975.209820) vcan0 00002004#00000000
(1743657975.209985) vcan0 00001303#0000
(1743657975.210199) vcan0 00002003#00000000
(1743657975.210379) vcan0 00002202#0000
(1743657975.210562) vcan0 00002203#0000
(1743657975.210754) vcan0 00002204#0000
(1743657975.210945) vcan0 00003002#0000
(1743657975.211114) vcan0 00003003#0000
(1743657975.211284) vcan0 00003004#0000
(1743657975.211325) vcan0 00003007#0000
(1743657975.211474) vcan0 00003102#0000
(1743657975.211541) vcan0 00001307#0000
(1743657975.211650) vcan0 00003103#0000
(1743657975.211674) vcan0 00002007#00000000
(1743657975.211831) vcan0 00003104#0000
(1743657975.211854) vcan0 00002207#0000
(1743657975.212013) vcan0 00003502#0000
(1743657975.212037) vcan0 00001309#0000
(1743657975.212194) vcan0 00003503#0000
(1743657975.212260) vcan0 00002009#00000000
(1743657975.212376) vcan0 00003504#0000
(1743657975.212440) vcan0 00002209#0000
(1743657975.212555) vcan0 00003602#0000
(1743657975.212615) vcan0 00003009#0000
(1743657975.212738) vcan0 00003603#0000
(1743657975.212794) vcan0 00003107#0000
(1743657975.212938) vcan0 00003604#0000
(1743657975.212979) vcan0 00003109#0000
(1743657975.213090) vcan0 00003605#0000
(1743657975.213165) vcan0 00003507#0000
(1743657975.213278) vcan0 00003606#0000
(1743657975.213336) vcan0 00003509#0000
(1743657975.213448) vcan0 00003702#0000
(1743657975.213522) vcan0 00003607#0000
(1743657975.213639) vcan0 00003703#0000
(1743657975.213708) vcan0 00003609#0000
(1743657975.213821) vcan0 00003704#0000
(1743657975.213888) vcan0 00003707#0000
(1743657975.213991) vcan0 00003705#0000
(1743657975.214060) vcan0 00003709#0000
(1743657975.214172) vcan0 00003706#0000
(1743657975.214245) vcan0 00003807#0000
(1743657975.214365) vcan0 00003802#0000
(1743657975.214428) vcan0 00003809#0000
(1743657975.214544) vcan0 00003803#0000
(1743657975.214609) vcan0 0000130A#0000
(1743657975.214725) vcan0 00003804#0000
(1743657975.214836) vcan0 0000200A#00000000
(1743657975.214985) vcan0 00003805#0000
(1743657975.215015) vcan0 0000130B#0000
(1743657975.215078) vcan0 00003806#0000
(1743657975.215194) vcan0 00001308#0000
(1743657975.215266) vcan0 00004002#0000
(1743657975.215409) vcan0 00002008#00000000
(1743657975.215451) vcan0 00004003#0000
(1743657975.215637) vcan0 00004004#0000
(1743657975.215639) vcan0 0000200B#00000000
(1743657975.215818) vcan0 00004005#0000
(1743657975.215819) vcan0 00002208#0000
(1743657975.216001) vcan0 00004006#0000
(1743657975.216003) vcan0 0000220A#0000
(1743657975.216187) vcan0 0000220B#0000
(1743657975.216367) vcan0 00003008#0000
(1743657975.216550) vcan0 0000300A#0000
(1743657975.216729) vcan0 0000300B#0000
(1743657975.216914) vcan0 0000130C#0000
(1743657975.217124) vcan0 0000200C#00000000
(1743657975.217308) vcan0 0000220C#0000
(1743657975.217502) vcan0 0000300C#0000
(1743657975.217645) vcan0 00003108#0000
(1743657975.217850) vcan0 0000310A#0000
(1743657975.217993) vcan0 0000310B#0000
(1743657975.218172) vcan0 0000310C#0000
(1743657975.218347) vcan0 00003508#0000
(1743657975.218532) vcan0 0000350A#0000
(1743657975.218706) vcan0 0000350B#0000
(1743657975.218880) vcan0 0000350C#0000
(1743657975.219069) vcan0 00003608#0000
(1743657975.219248) vcan0 0000360A#0000
(1743657975.219518) vcan0 0000360B#0000
(1743657975.219629) vcan0 0000360C#0000
(1743657975.219795) vcan0 00003708#0000
(1743657975.219974) vcan0 0000370A#0000
(1743657975.220153) vcan0 0000370B#0000
(1743657975.220332) vcan0 0000370C#0000
(1743657975.220514) vcan0 00003808#0000
(1743657975.220699) vcan0 0000380A#0000
(1743657975.220878) vcan0 0000380B#0000
(1743657975.221052) vcan0 0000380C#0000
(1743657975.221237) vcan0 00004007#0000
(1743657975.221473) vcan0 00004008#0000
(1743657975.221600) vcan0 00004009#0000
(1743657975.221784) vcan0 0000400A#0000
(1743657975.221963) vcan0 0000400B#0000
(1743657975.222148) vcan0 0000400C#0000
(1743657975.305092) vcan0 00003001#0000
(1743657975.305094) vcan0 00001301#0000
(1743657975.305237) vcan0 00002001#00000000
