(1645575103.765492) can0 00001312#01DC
(1645575103.766737) can0 0000131A#01D9
(1645575103.766824) can0 00001310#01DA
(1645575103.765659) can0 0000130F#01D7
(1645575103.765798) can0 00001304#01D7
(1645575103.766771) can0 00001318#01D9
(1645575103.766846) can0 00001313#01DA
(1645575103.766915) can0 00001309#01D5
(1645575103.766475) can0 00001301#01D6
(1645575103.766791) can0 00001319#01DB
(1645575103.767771) can0 00001314#01DE
(1645575103.766942) can0 0000130A#01D6
(1645575103.767199) can0 00001302#01D4
(1645575103.767963) can0 0000131B#01DC
(1645575103.767966) can0 0000130B#01D1
(1645575103.767588) can0 00001303#01D1
(1645575103.768880) can0 0000131C#01DB
(1645575103.768001) can0 0000130C#01D0
(1645575103.768474) can0 00001305#01D3
(1645575103.768920) can0 0000131D#01DC
(1645575103.770914) can0 00001315#01DA
(1645575103.770271) can0 0000130D#01D1
(1645575103.768943) can0 00001307#01D4
(1645575103.769542) can0 0000131F#01DA
(1645575103.770943) can0 00001317#01E0
(1645575103.770306) can0 00002009#00000000
(1645575103.771012) can0 00002001#00000000
(1645575103.771798) can0 00002018#00000000
(1645575103.770967) can0 00002010#00000000
(1645575103.770333) can0 0000200A#00000000
(1645575103.771036) can0 00002002#00000000
(1645575103.771826) can0 00002019#00000000
(1645575103.770989) can0 00002012#00000000
(1645575103.771963) can0 0000200B#00000000
(1645575103.771340) can0 00002003#00000000
(1645575103.772825) can0 0000201A#00000000
(1645575103.771821) can0 00002013#00000000
(1645575103.771992) can0 0000200C#00000000
(1645575103.771964) can0 00002004#00000000
(1645575103.773530) can0 0000201B#00000000
(1645575103.773137) can0 00002014#00000000
(1645575103.773642) can0 0000200D#00000000
(1645575103.773804) can0 00002005#00000000
(1645575103.774248) can0 0000201C#00000000
(1645575103.774997) can0 00002015#00000000
(1645575103.773671) can0 0000200F#00000000
(1645575103.773832) can0 00002007#00000000
(1645575103.774964) can0 0000201D#00000000
(1645575103.774491) can0 00002109#0000
(1645575103.774524) can0 00002101#0000
(1645575103.774625) can0 0000210A#0000
(1645575103.774969) can0 00002102#0000
(1645575103.775960) can0 0000201F#18FCFFFF
(1645575103.775960) can0 0000210B#0000
(1645575103.777687) can0 00002118#0000
(1645575103.778133) can0 00002017#00000000
(1645575103.778015) can0 0000210C#0000
(1645575103.777374) can0 00002103#0000
(1645575103.778212) can0 00002119#0000
(1645575103.778155) can0 00002110#0000
(1645575103.778036) can0 0000210D#0000
(1645575103.777648) can0 00002104#0000
(1645575103.778904) can0 0000211A#0000
(1645575103.778165) can0 00002112#0000
(1645575103.778049) can0 0000210F#0000
(1645575103.777909) can0 00002105#0000
(1645575103.778179) can0 00002113#0000
(1645575103.778059) can0 00002209#FFFF
(1645575103.778697) can0 00002107#0000
(1645575103.778786) can0 00002114#0000
(1645575103.778889) can0 0000220A#FFFF
(1645575103.778717) can0 00002201#0000
(1645575103.779508) can0 00002115#0000
(1645575103.779958) can0 0000220B#FFFF
(1645575103.779958) can0 00002202#FFFF
(1645575103.779988) can0 00002203#FFFF
(1645575103.781081) can0 0000220C#FFFF
(1645575103.781139) can0 00002204#FFFF
(1645575103.781126) can0 0000220D#0000
(1645575103.781155) can0 00002205#FFFF
(1645575103.782154) can0 00002207#FFFF
(1645575103.782332) can0 0000211B#0000
(1645575103.782467) can0 00002117#0000
(1645575103.782515) can0 0000220F#0000
(1645575103.782355) can0 0000211C#0000
(1645575103.782483) can0 00002210#0000
(1645575103.782526) can0 00002309#FFFF
(1645575103.782368) can0 0000211D#0000
(1645575103.782494) can0 00002212#FFFF
(1645575103.782504) can0 00002213#FFFF
(1645575103.783957) can0 0000211F#0000
(1645575103.784000) can0 00002214#0000
(1645575103.783957) can0 0000230A#FFFF
(1645575103.783957) can0 00002301#0000
(1645575103.783988) can0 00002218#0000
(1645575103.784016) can0 00002215#FFFF
(1645575103.783988) can0 0000230B#FFFE
(1645575103.783989) can0 00002302#FFFF
(1645575103.784612) can0 0000230C#FFFF
(1645575103.784581) can0 00002303#FFFF
(1645575103.784934) can0 00002219#FFFF
(1645575103.786071) can0 00002304#FFFE
(1645575103.786123) can0 0000230D#0000
(1645575103.786109) can0 00002305#FFFF
(1645575103.786144) can0 0000230F#0000
(1645575103.787960) can0 00002217#FFFF
(1645575103.787960) can0 00002307#FFFE
(1645575103.788055) can0 0000221A#FFFF
(1645575103.788003) can0 00002310#0000
(1645575103.788069) can0 0000221B#FFFF
(1645575103.788018) can0 00002312#FFFF
(1645575103.788080) can0 0000221C#FFFF
(1645575103.788029) can0 00002313#FFFE
(1645575103.788091) can0 0000221D#FFFF
(1645575103.788041) can0 00002314#0000
(1645575103.788129) can0 00002315#FFFF
(1645575103.788764) can0 00002317#FFFF
(1645575103.791959) can0 0000221F#FFFF
(1645575103.792014) can0 00002318#0000
(1645575103.792026) can0 00002319#FFFF
(1645575103.792048) can0 0000231A#FFFF
(1645575103.795953) can0 0000231B#FFFF
(1645575103.796003) can0 0000231C#FFFE
(1645575103.796016) can0 0000231D#FFFE
(1645575103.796029) can0 0000231F#FFFE
(1645575104.099180) can0 0000130F#01E3
(1645575104.099960) can0 0000131A#01E4
(1645575104.099734) can0 0000130A#01E1
(1645575104.099960) can0 00001302#01E0
(1645575104.101624) can0 00001318#01E5
(1645575104.099997) can0 00001311#01E6
(1645575104.100340) can0 00001308#01DA
(1645575104.099997) can0 00001301#01E2
(1645575104.101658) can0 00001319#01E7
(1645575104.100900) can0 00001310#01E9
(1645575104.101616) can0 00001309#01E0
(1645575104.100443) can0 00001304#01E3
(1645575104.103029) can0 0000131B#01E8
(1645575104.101486) can0 00001312#01EA
(1645575104.101973) can0 0000130B#01DC
(1645575104.101151) can0 00001305#01DF
(1645575104.103063) can0 0000131C#01E7
(1645575104.102196) can0 00001313#01E7
(1645575104.103379) can0 0000130C#01DA
(1645575104.101893) can0 00001306#01E2
(1645575104.103087) can0 0000131D#01E9
(1645575104.102796) can0 00001314#01EA
(1645575104.103405) can0 0000130D#01DC
(1645575104.103316) can0 00001307#01E0
(1645575104.103962) can0 0000131E#01E5
(1645575104.103934) can0 00001315#01E6
(1645575104.103962) can0 0000130E#01E4